Time [s],Packet ID,MOSI,MISO
4.742270536000000,0,0xC2,0x00
4.742271160000000,0,0x00,0x00
4.742272288000000,0,0x00,0x00
4.742272912000000,0,0x00,0x00
4.742275660000000,0,0xC2,0x00
4.742276284000000,0,0x00,0x00
4.742277412000000,0,0x00,0x00
4.742278036000000,0,0x00,0x00
4.742280788000000,0,0xC2,0x00
4.742281412000000,0,0x00,0x00
4.742282536000000,0,0x00,0x00
4.742283160000000,0,0x00,0x00
4.752253660000000,0,0xDA,0x00
4.752254284000000,0,0x00,0x00
4.752255408000000,0,0x00,0x00
4.752256032000000,0,0x00,0x00
4.752270064000000,0,0xC2,0x00
4.752270688000000,0,0x00,0x00
4.752271816000000,0,0x00,0x00
4.752272440000000,0,0x00,0x00
4.752275188000000,0,0xC2,0x00
4.752275812000000,0,0x00,0x00
4.752276940000000,0,0x00,0x00
4.752277564000000,0,0x00,0x00
4.752280316000000,0,0xC2,0x00
4.752280940000000,0,0x00,0x00
4.752282064000000,0,0x00,0x00
4.752282688000000,0,0x00,0x00
4.762253468000000,0,0xDA,0x00
4.762254092000000,0,0x00,0x00
4.762255220000000,0,0x00,0x00
4.762255844000000,0,0x00,0x00
4.762269876000000,0,0xC2,0x00
4.762270500000000,0,0x00,0x00
4.762271624000000,0,0x00,0x00
4.762272248000000,0,0x00,0x00
4.762275000000000,0,0xC2,0x00
4.762275624000000,0,0x00,0x00
4.762276748000000,0,0x00,0x00
4.762277372000000,0,0x00,0x00
4.762280124000000,0,0xC2,0x00
4.762280748000000,0,0x00,0x00
4.762281872000000,0,0x00,0x00
4.762282500000000,0,0x00,0x00
4.772253464000000,0,0xDA,0x00
4.772254088000000,0,0x00,0x00
4.772255216000000,0,0x00,0x00
4.772255840000000,0,0x00,0x00
4.772269872000000,0,0xC2,0x00
4.772270496000000,0,0x00,0x00
4.772271620000000,0,0x00,0x00
4.772272244000000,0,0x00,0x00
4.772274996000000,0,0xC2,0x00
4.772275620000000,0,0x00,0x00
4.772276744000000,0,0x00,0x00
4.772277372000000,0,0x00,0x00
4.772280120000000,0,0xC2,0x00
4.772280744000000,0,0x00,0x00
4.772281872000000,0,0x00,0x00
4.772282496000000,0,0x00,0x00
4.782253368000000,0,0xDA,0x00
4.782253992000000,0,0x00,0x00
4.782255120000000,0,0x00,0x00
4.782255744000000,0,0x00,0x00
4.782269776000000,0,0xC2,0x00
4.782270400000000,0,0x00,0x00
4.782271524000000,0,0x00,0x00
4.782272148000000,0,0x00,0x00
4.782274900000000,0,0xC2,0x00
4.782275524000000,0,0x00,0x00
4.782276648000000,0,0x00,0x00
4.782277272000000,0,0x00,0x00
4.782280024000000,0,0xC2,0x00
4.782280648000000,0,0x00,0x00
4.782281772000000,0,0x00,0x00
4.782282400000000,0,0x00,0x00
4.792253272000000,0,0xDA,0x00
4.792253896000000,0,0x00,0x00
4.792255020000000,0,0x00,0x00
4.792255644000000,0,0x00,0x00
4.792269676000000,0,0xC2,0x00
4.792270300000000,0,0x00,0x00
4.792271428000000,0,0x00,0x00
4.792272052000000,0,0x00,0x00
4.792274804000000,0,0xC2,0x00
4.792275428000000,0,0x00,0x00
4.792276552000000,0,0x00,0x00
4.792277176000000,0,0x00,0x00
4.792279928000000,0,0xC2,0x00
4.792280552000000,0,0x00,0x00
4.792281676000000,0,0x00,0x00
4.792282300000000,0,0x00,0x00
4.802253176000000,0,0xDA,0x00
4.802253800000000,0,0x00,0x00
4.802254924000000,0,0x00,0x00
4.802255548000000,0,0x00,0x00
4.802269580000000,0,0xC2,0x00
4.802270204000000,0,0x00,0x00
4.802271332000000,0,0x00,0x00
4.802271956000000,0,0x00,0x00
4.802274704000000,0,0xC2,0x00
4.802275328000000,0,0x00,0x00
4.802276456000000,0,0x00,0x00
4.802277080000000,0,0x00,0x00
4.802279832000000,0,0xC2,0x00
4.802280456000000,0,0x00,0x00
4.802281580000000,0,0x00,0x00
4.802282204000000,0,0x00,0x00
4.812253080000000,0,0xDA,0x00
4.812253704000000,0,0x00,0x00
4.812254828000000,0,0x00,0x00
4.812255452000000,0,0x00,0x00
4.812269484000000,0,0xC2,0x00
4.812270108000000,0,0x00,0x00
4.812271232000000,0,0x00,0x00
4.812271860000000,0,0x00,0x00
4.812274608000000,0,0xC2,0x00
4.812275232000000,0,0x00,0x00
4.812276360000000,0,0x00,0x00
4.812276984000000,0,0x00,0x00
4.812279732000000,0,0xC2,0x00
4.812280356000000,0,0x00,0x00
4.812281484000000,0,0x00,0x00
4.812282108000000,0,0x00,0x00
4.822252980000000,0,0xDA,0x00
4.822253604000000,0,0x00,0x00
4.822254732000000,0,0x00,0x00
4.822255356000000,0,0x00,0x00
4.822269388000000,0,0xC2,0x00
4.822270012000000,0,0x00,0x00
4.822271136000000,0,0x00,0x00
4.822271760000000,0,0x00,0x00
4.822274512000000,0,0xC2,0x00
4.822275136000000,0,0x00,0x00
4.822276260000000,0,0x00,0x00
4.822276884000000,0,0x00,0x00
4.822279636000000,0,0xC2,0x00
4.822280260000000,0,0x00,0x00
4.822281388000000,0,0x00,0x00
4.822282012000000,0,0x00,0x00
4.832252884000000,0,0xDA,0x00
4.832253508000000,0,0x00,0x00
4.832254632000000,0,0x00,0x00
4.832255260000000,0,0x00,0x00
4.832269292000000,0,0xC2,0x00
4.832269916000000,0,0x00,0x00
4.832271040000000,0,0x00,0x00
4.832271664000000,0,0x00,0x00
4.832274416000000,0,0xC2,0x00
4.832275040000000,0,0x00,0x00
4.832276164000000,0,0x00,0x00
4.832276788000000,0,0x00,0x00
4.832279540000000,0,0xC2,0x00
4.832280164000000,0,0x00,0x00
4.832281288000000,0,0x00,0x00
4.832281916000000,0,0x00,0x00
4.842252788000000,0,0xDA,0x00
4.842253412000000,0,0x00,0x00
4.842254536000000,0,0x00,0x00
4.842255160000000,0,0x00,0x00
4.842269192000000,0,0xC2,0x00
4.842269816000000,0,0x00,0x00
4.842270944000000,0,0x00,0x00
4.842271568000000,0,0x00,0x00
4.842274316000000,0,0xC2,0x00
4.842274944000000,0,0x00,0x00
4.842276068000000,0,0x00,0x00
4.842276692000000,0,0x00,0x00
4.842279444000000,0,0xC2,0x00
4.842280068000000,0,0x00,0x00
4.842281192000000,0,0x00,0x00
4.842281816000000,0,0x00,0x00
4.862252704000000,0,0xDA,0x00
4.862253328000000,0,0x00,0x00
4.862254452000000,0,0x00,0x00
4.862255076000000,0,0x00,0x00
4.862257468000000,0,0xC2,0x00
4.862258092000000,0,0x00,0x00
4.862259220000000,0,0x00,0x00
4.862259844000000,0,0x00,0x00
4.862267548000000,0,0xC2,0x00
4.862268172000000,0,0x00,0x00
4.862269296000000,0,0x00,0x00
4.862269920000000,0,0x00,0x00
4.862272672000000,0,0xC2,0x00
4.862273296000000,0,0x00,0x00
4.862274420000000,0,0x00,0x00
4.862275044000000,0,0x00,0x00
4.862277796000000,0,0xC2,0x00
4.862278420000000,0,0x00,0x00
4.862279544000000,0,0x00,0x00
4.862280172000000,0,0x00,0x00
5.692515996000000,0,0xDA,0x3F
5.692516620000000,0,0x00,0xFF
5.692517744000000,0,0x00,0xFF
5.692518372000000,0,0x00,0xFF
5.692520932000000,0,0xCD,0xE1
5.692521556000000,0,0x00,0xE1
5.692522684000000,0,0x00,0x00
5.692523308000000,0,0x00,0x40
5.692525136000000,0,0x4D,0x40
5.692525760000000,0,0x00,0x40
5.692526872000000,0,0x00,0x40
5.692527496000000,0,0x00,0x40
5.692529556000000,0,0xCC,0x40
5.692530184000000,0,0x00,0x40
5.692531308000000,0,0x00,0x04
5.692531932000000,0,0x00,0x40
5.692534464000000,0,0xDA,0x40
5.692535088000000,0,0x00,0x40
5.692536216000000,0,0x00,0xAA
5.692536840000000,0,0x00,0x55
5.692538620000000,0,0xDA,0x55
5.692539244000000,0,0x00,0x55
5.692540372000000,0,0x00,0xAA
5.692540996000000,0,0x00,0x55
5.692542808000000,0,0xC2,0x55
5.692543432000000,0,0x00,0x55
5.692544556000000,0,0x00,0x0C
5.692545184000000,0,0x00,0x5B
5.692547728000000,0,0x4C,0x5B
5.692548352000000,0,0x00,0x5B
5.692549464000000,0,0x04,0x5B
5.692550088000000,0,0x40,0x5B
5.692552260000000,0,0xCD,0x5B
5.692552884000000,0,0x00,0x5B
5.692554012000000,0,0x00,0x00
5.692554636000000,0,0x00,0x00
5.692556480000000,0,0x4D,0x00
5.692557104000000,0,0x00,0x00
5.692558212000000,0,0x00,0x00
5.692558840000000,0,0x47,0x00
5.752542460000000,0,0xC2,0x00
5.752543084000000,0,0x00,0x00
5.752544212000000,0,0x00,0x0C
5.752544836000000,0,0x00,0x5B
5.752552540000000,0,0xC2,0x5B
5.752553164000000,0,0x00,0x5B
5.752554288000000,0,0x00,0x0C
5.752554912000000,0,0x00,0x5B
5.752557224000000,0,0x41,0x5B
5.752557848000000,0,0x00,0x5B
5.752558960000000,0,0x00,0x5B
5.752559584000000,0,0x58,0x5B
5.752561680000000,0,0x00,0x5B
5.752562304000000,0,0x00,0x5B
5.752563772000000,0,0xAA,0x5B
5.752564396000000,0,0xAA,0x5B
5.752565880000000,0,0xAA,0x5B
5.752566508000000,0,0xAA,0x5B
5.752567992000000,0,0x4E,0x5B
5.752568616000000,0,0x00,0x5B
5.752570100000000,0,0x00,0x5B
5.752570724000000,0,0x00,0x5B
5.752572208000000,0,0x33,0x5B
5.752572832000000,0,0x33,0x5B
5.752574320000000,0,0xFF,0x5B
5.752574944000000,0,0xFF,0x5B
5.752576428000000,0,0xD3,0x5B
5.752577052000000,0,0xE2,0x5B
5.752578536000000,0,0xE0,0x5B
5.752579160000000,0,0x0E,0x5B
5.752580648000000,0,0xE1,0x5B
5.752581272000000,0,0xFF,0x5B
5.752582756000000,0,0xD3,0x5B
5.752583380000000,0,0xE2,0x5B
5.752584864000000,0,0x86,0x5B
5.752585492000000,0,0xDD,0x5B
5.752586976000000,0,0x60,0x5B
5.752587600000000,0,0x00,0x5B
5.752589084000000,0,0x00,0x5B
5.752589708000000,0,0x00,0x5B
5.752591192000000,0,0x00,0x5B
5.752591820000000,0,0x18,0x5B
5.752593304000000,0,0x3A,0x5B
5.752593928000000,0,0xFF,0x5B
5.752595412000000,0,0x00,0x5B
5.752596036000000,0,0x00,0x5B
5.752597520000000,0,0x00,0x5B
5.752598148000000,0,0x00,0x5B
5.752599632000000,0,0x00,0x5B
5.752600256000000,0,0x00,0x5B
5.752601740000000,0,0x00,0x5B
5.752602364000000,0,0x00,0x5B
5.752603852000000,0,0x00,0x5B
5.752604476000000,0,0x00,0x5B
5.752605960000000,0,0x00,0x5B
5.752606584000000,0,0x00,0x5B
5.752608068000000,0,0x00,0x5B
5.752608692000000,0,0x00,0x5B
5.752610176000000,0,0x00,0x5B
5.752610804000000,0,0x00,0x5B
5.752612288000000,0,0xFF,0x5B
5.752612912000000,0,0x02,0x5B
5.752614396000000,0,0x00,0x5B
5.752615020000000,0,0x00,0x5B
5.752616508000000,0,0x00,0x5B
5.752617132000000,0,0x00,0x5B
5.752618616000000,0,0x00,0x5B
5.752619240000000,0,0x00,0x5B
5.752620724000000,0,0x00,0x5B
5.752621348000000,0,0x00,0x5B
5.752622836000000,0,0x00,0x5B
5.752623460000000,0,0x01,0x5B
5.752624944000000,0,0xFF,0x5B
5.752625568000000,0,0xFF,0x5B
5.752627052000000,0,0xD3,0x5B
5.752627676000000,0,0xE2,0x5B
5.752629164000000,0,0x87,0x5B
5.752629788000000,0,0x00,0x5B
5.752631272000000,0,0x10,0x5B
5.752631896000000,0,0x54,0x5B
5.752633380000000,0,0x00,0x5B
5.752634004000000,0,0x00,0x5B
5.752635492000000,0,0x00,0x5B
5.752636116000000,0,0x00,0x5B
5.752637600000000,0,0xFE,0x5B
5.752638224000000,0,0x80,0x5B
5.752639708000000,0,0x00,0x5B
5.752640332000000,0,0x00,0x5B
5.752641820000000,0,0x00,0x5B
5.752642444000000,0,0x00,0x5B
5.752643928000000,0,0x00,0x5B
5.752644552000000,0,0x00,0x5B
5.752646036000000,0,0xE2,0x5B
5.752646660000000,0,0x0E,0x5B
5.752648148000000,0,0xE1,0x5B
5.752648772000000,0,0xFF,0x5B
5.752650256000000,0,0xFE,0x5B
5.752650880000000,0,0xFF,0x5B
5.752652364000000,0,0xD3,0x5B
5.752652988000000,0,0xE2,0x5B
5.752654476000000,0,0x55,0x5B
5.752655100000000,0,0x55,0x5B
5.752656584000000,0,0x00,0x00
5.752657208000000,0,0x00,0x00
6.752509500000000,0,0xC2,0x5B
6.752510124000000,0,0x00,0x5B
6.752511248000000,0,0x00,0x0C
6.752511872000000,0,0x00,0x5B
6.752519576000000,0,0xC2,0x5B
6.752520200000000,0,0x00,0x5B
6.752521328000000,0,0x00,0x0C
6.752521952000000,0,0x00,0x5B
6.752524264000000,0,0x41,0x5B
6.752524888000000,0,0x00,0x5B
6.752526000000000,0,0x00,0x5B
6.752526624000000,0,0x58,0x5B
6.752528716000000,0,0x00,0x5B
6.752529340000000,0,0x00,0x5B
6.752530812000000,0,0xAA,0x5B
6.752531436000000,0,0xAA,0x5B
6.752532920000000,0,0xAA,0x5B
6.752533544000000,0,0xAA,0x5B
6.752535028000000,0,0x4E,0x5B
6.752535652000000,0,0x00,0x5B
6.752537140000000,0,0x00,0x5B
6.752537764000000,0,0x00,0x5B
6.752539248000000,0,0x33,0x5B
6.752539872000000,0,0x33,0x5B
6.752541356000000,0,0xFF,0x5B
6.752541980000000,0,0xFF,0x5B
6.752543468000000,0,0xD3,0x5B
6.752544092000000,0,0xE2,0x5B
6.752545576000000,0,0xE0,0x5B
6.752546200000000,0,0x0E,0x5B
6.752547684000000,0,0xE1,0x5B
6.752548308000000,0,0xFF,0x5B
6.752549796000000,0,0xD3,0x5B
6.752550420000000,0,0xE2,0x5B
6.752551904000000,0,0x86,0x5B
6.752552528000000,0,0xDD,0x5B
6.752554012000000,0,0x60,0x5B
6.752554636000000,0,0x00,0x5B
6.752556124000000,0,0x00,0x5B
6.752556748000000,0,0x00,0x5B
6.752558232000000,0,0x00,0x5B
6.752558856000000,0,0x18,0x5B
6.752560340000000,0,0x3A,0x5B
6.752560964000000,0,0xFF,0x5B
6.752562452000000,0,0x00,0x5B
6.752563076000000,0,0x00,0x5B
6.752564560000000,0,0x00,0x5B
6.752565184000000,0,0x00,0x5B
6.752566668000000,0,0x00,0x5B
6.752567292000000,0,0x00,0x5B
6.752568780000000,0,0x00,0x5B
6.752569404000000,0,0x00,0x5B
6.752570888000000,0,0x00,0x5B
6.752571512000000,0,0x00,0x5B
6.752572996000000,0,0x00,0x5B
6.752573620000000,0,0x00,0x5B
6.752575108000000,0,0x00,0x5B
6.752575732000000,0,0x00,0x5B
6.752577216000000,0,0x00,0x5B
6.752577840000000,0,0x00,0x5B
6.752579324000000,0,0xFF,0x5B
6.752579948000000,0,0x02,0x5B
6.752581436000000,0,0x00,0x5B
6.752582060000000,0,0x00,0x5B
6.752583544000000,0,0x00,0x5B
6.752584168000000,0,0x00,0x5B
6.752585652000000,0,0x00,0x5B
6.752586276000000,0,0x00,0x5B
6.752587764000000,0,0x00,0x5B
6.752588388000000,0,0x00,0x5B
6.752589872000000,0,0x00,0x5B
6.752590496000000,0,0x01,0x5B
6.752591980000000,0,0xFF,0x5B
6.752592604000000,0,0xFF,0x5B
6.752594092000000,0,0xD3,0x5B
6.752594716000000,0,0xE2,0x5B
6.752596200000000,0,0x87,0x5B
6.752596824000000,0,0x00,0x5B
6.752598308000000,0,0x10,0x5B
6.752598932000000,0,0x54,0x5B
6.752600420000000,0,0x00,0x5B
6.752601044000000,0,0x00,0x5B
6.752602528000000,0,0x00,0x5B
6.752603152000000,0,0x00,0x5B
6.752604636000000,0,0xFE,0x5B
6.752605264000000,0,0x80,0x5B
6.752606748000000,0,0x00,0x5B
6.752607372000000,0,0x00,0x5B
6.752608856000000,0,0x00,0x5B
6.752609480000000,0,0x00,0x5B
6.752610964000000,0,0x00,0x5B
6.752611592000000,0,0x00,0x5B
6.752613076000000,0,0xE2,0x5B
6.752613700000000,0,0x0E,0x5B
6.752615184000000,0,0xE1,0x5B
6.752615808000000,0,0xFF,0x5B
6.752617292000000,0,0xFE,0x5B
6.752617920000000,0,0xFF,0x5B
6.752619404000000,0,0xD3,0x5B
6.752620028000000,0,0xE2,0x5B
6.752621512000000,0,0x55,0x5B
6.752622136000000,0,0x55,0x5B
6.752623620000000,0,0x00,0x00
6.752624248000000,0,0x00,0x00
7.752499764000000,0,0xC2,0x5B
7.752500388000000,0,0x00,0x5B
7.752501516000000,0,0x00,0x0C
7.752502140000000,0,0x00,0x5B
7.752509592000000,0,0xC2,0x5B
7.752510216000000,0,0x00,0x5B
7.752511344000000,0,0x00,0x0C
7.752511968000000,0,0x00,0x5B
7.752514280000000,0,0x41,0x5B
7.752514904000000,0,0x00,0x5B
7.752516012000000,0,0x00,0x5B
7.752516640000000,0,0x50,0x5B
7.752518732000000,0,0x00,0x5B
7.752519356000000,0,0x00,0x5B
7.752520828000000,0,0xAA,0x5B
7.752521452000000,0,0xAA,0x5B
7.752522936000000,0,0xAA,0x5B
7.752523560000000,0,0xAA,0x5B
7.752525044000000,0,0x46,0x5B
7.752525668000000,0,0x00,0x5B
7.752527156000000,0,0x00,0x5B
7.752527780000000,0,0x00,0x5B
7.752529264000000,0,0x33,0x5B
7.752529888000000,0,0x33,0x5B
7.752531372000000,0,0x00,0x5B
7.752531996000000,0,0x00,0x5B
7.752533484000000,0,0x00,0x5B
7.752534108000000,0,0x02,0x5B
7.752535592000000,0,0xE0,0x5B
7.752536216000000,0,0x0E,0x5B
7.752537700000000,0,0xE1,0x5B
7.752538324000000,0,0xFF,0x5B
7.752539812000000,0,0xD3,0x5B
7.752540436000000,0,0xE2,0x5B
7.752541920000000,0,0x86,0x5B
7.752542544000000,0,0xDD,0x5B
7.752544028000000,0,0x60,0x5B
7.752544652000000,0,0x00,0x5B
7.752546140000000,0,0x00,0x5B
7.752546764000000,0,0x00,0x5B
7.752548248000000,0,0x00,0x5B
7.752548872000000,0,0x10,0x5B
7.752550356000000,0,0x3A,0x5B
7.752550980000000,0,0xFF,0x5B
7.752552468000000,0,0xFE,0x5B
7.752553092000000,0,0x80,0x5B
7.752554576000000,0,0x00,0x5B
7.752555200000000,0,0x00,0x5B
7.752556684000000,0,0x00,0x5B
7.752557308000000,0,0x00,0x5B
7.752558796000000,0,0x00,0x5B
7.752559420000000,0,0x00,0x5B
7.752560904000000,0,0xE2,0x5B
7.752561528000000,0,0x0E,0x5B
7.752563012000000,0,0xE1,0x5B
7.752563636000000,0,0xFF,0x5B
7.752565124000000,0,0xFE,0x5B
7.752565748000000,0,0xFF,0x5B
7.752567232000000,0,0xD3,0x5B
7.752567856000000,0,0xE2,0x5B
7.752569340000000,0,0xFF,0x5B
7.752569964000000,0,0x02,0x5B
7.752571452000000,0,0x00,0x5B
7.752572076000000,0,0x00,0x5B
7.752573560000000,0,0x00,0x5B
7.752574184000000,0,0x00,0x5B
7.752575668000000,0,0x00,0x5B
7.752576292000000,0,0x00,0x5B
7.752577780000000,0,0x00,0x5B
7.752578404000000,0,0x00,0x5B
7.752579888000000,0,0x00,0x5B
7.752580512000000,0,0x00,0x5B
7.752581996000000,0,0x00,0x5B
7.752582620000000,0,0x00,0x5B
7.752584108000000,0,0x00,0x5B
7.752584732000000,0,0x02,0x5B
7.752586216000000,0,0x85,0x5B
7.752586840000000,0,0x00,0x5B
7.752588324000000,0,0x4F,0x5B
7.752588948000000,0,0x4B,0x5B
7.752590436000000,0,0x00,0x5B
7.752591060000000,0,0x00,0x5B
7.752592544000000,0,0x00,0x5B
7.752593168000000,0,0x00,0x5B
7.752594652000000,0,0x01,0x5B
7.752595276000000,0,0x01,0x5B
7.752596764000000,0,0xE0,0x5B
7.752597388000000,0,0x0E,0x5B
7.752598872000000,0,0xE1,0x5B
7.752599496000000,0,0xFF,0x5B
7.752600980000000,0,0xD3,0x5B
7.752601604000000,0,0xE2,0x5B
7.752603092000000,0,0x55,0x5B
7.752603716000000,0,0x55,0x5B
7.752605200000000,0,0xE1,0x00
7.752605824000000,0,0xFF,0x00
8.662502399999999,0,0xC2,0x5B
8.662503023999999,0,0x00,0x5B
8.662504152000000,0,0x00,0x0C
8.662504776000000,0,0x00,0x5B
8.662512228000001,0,0xC2,0x5B
8.662512852000001,0,0x00,0x5B
8.662513980000000,0,0x00,0x0C
8.662514604000000,0,0x00,0x5B
8.662516916000000,0,0x41,0x5B
8.662517540000000,0,0x00,0x5B
8.662518648000001,0,0x00,0x5B
8.662519275999999,0,0x50,0x5B
8.662521368000000,0,0x00,0x5B
8.662521992000000,0,0x00,0x5B
8.662523464000000,0,0xAA,0x5B
8.662524088000000,0,0xAA,0x5B
8.662525572000000,0,0xAA,0x5B
8.662526196000000,0,0xAA,0x5B
8.662527680000000,0,0x46,0x5B
8.662528304000000,0,0x00,0x5B
8.662529792000001,0,0x00,0x5B
8.662530415999999,0,0x00,0x5B
8.662531899999999,0,0x33,0x5B
8.662532524000000,0,0x33,0x5B
8.662534008000000,0,0x00,0x5B
8.662534632000000,0,0x00,0x5B
8.662536120000000,0,0x00,0x5B
8.662536744000001,0,0x02,0x5B
8.662538228000001,0,0xE0,0x5B
8.662538852000001,0,0x0E,0x5B
8.662540335999999,0,0xE1,0x5B
8.662540959999999,0,0xFF,0x5B
8.662542448000000,0,0xD3,0x5B
8.662543072000000,0,0xE2,0x5B
8.662544556000000,0,0x86,0x5B
8.662545180000000,0,0xDD,0x5B
8.662546664000001,0,0x60,0x5B
8.662547288000001,0,0x00,0x5B
8.662548776000000,0,0x00,0x5B
8.662549400000000,0,0x00,0x5B
8.662550884000000,0,0x00,0x5B
8.662551508000000,0,0x10,0x5B
8.662552992000000,0,0x3A,0x5B
8.662553616000000,0,0xFF,0x5B
8.662555104000001,0,0xFE,0x5B
8.662555727999999,0,0x80,0x5B
8.662557211999999,0,0x00,0x5B
8.662557836000000,0,0x00,0x5B
8.662559320000000,0,0x00,0x5B
8.662559944000000,0,0x00,0x5B
8.662561432000000,0,0x00,0x5B
8.662562056000001,0,0x00,0x5B
8.662563540000001,0,0xE2,0x5B
8.662564164000001,0,0x0E,0x5B
8.662565647999999,0,0xE1,0x5B
8.662566271999999,0,0xFF,0x5B
8.662567760000000,0,0xFE,0x5B
8.662568384000000,0,0xFF,0x5B
8.662569868000000,0,0xD3,0x5B
8.662570492000000,0,0xE2,0x5B
8.662571976000001,0,0xFF,0x5B
8.662572600000001,0,0x02,0x5B
8.662574088000000,0,0x00,0x5B
8.662574712000000,0,0x00,0x5B
8.662576196000000,0,0x00,0x5B
8.662576820000000,0,0x00,0x5B
8.662578304000000,0,0x00,0x5B
8.662578928000000,0,0x00,0x5B
8.662580416000001,0,0x00,0x5B
8.662581039999999,0,0x00,0x5B
8.662582523999999,0,0x00,0x5B
8.662583148000000,0,0x00,0x5B
8.662584632000000,0,0x00,0x5B
8.662585256000000,0,0x00,0x5B
8.662586744000000,0,0x00,0x5B
8.662587368000001,0,0x02,0x5B
8.662588852000001,0,0x85,0x5B
8.662589476000001,0,0x00,0x5B
8.662590959999999,0,0x4F,0x5B
8.662591583999999,0,0x4B,0x5B
8.662593072000000,0,0x00,0x5B
8.662593696000000,0,0x00,0x5B
8.662595180000000,0,0x00,0x5B
8.662595804000000,0,0x00,0x5B
8.662597288000001,0,0x01,0x5B
8.662597912000001,0,0x01,0x5B
8.662599400000000,0,0xE0,0x5B
8.662600024000000,0,0x0E,0x5B
8.662601508000000,0,0xE1,0x5B
8.662602132000000,0,0xFF,0x5B
8.662603616000000,0,0xD3,0x5B
8.662604240000000,0,0xE2,0x5B
8.662605728000001,0,0x55,0x5B
8.662606351999999,0,0x55,0x5B
8.662607835999999,0,0xE1,0x00
8.662608460000000,0,0xFF,0x00
12.672451592000000,0,0xC2,0x5B
12.672452216000000,0,0x00,0x5B
12.672453340000001,0,0x00,0x0C
12.672453964000001,0,0x00,0x5B
12.672461419999999,0,0xC2,0x5B
12.672462044000000,0,0x00,0x5B
12.672463168000000,0,0x00,0x0C
12.672463792000000,0,0x00,0x5B
12.672466108000000,0,0x41,0x5B
12.672466732000000,0,0x00,0x5B
12.672467839999999,0,0x00,0x5B
12.672468464000000,0,0x50,0x5B
12.672470560000001,0,0x00,0x5B
12.672471184000001,0,0x00,0x5B
12.672472652000000,0,0xAA,0x5B
12.672473276000000,0,0xAA,0x5B
12.672474764000000,0,0xAA,0x5B
12.672475388000001,0,0xAA,0x5B
12.672476872000001,0,0x46,0x5B
12.672477496000001,0,0x00,0x5B
12.672478979999999,0,0x00,0x5B
12.672479603999999,0,0x00,0x5B
12.672481092000000,0,0x33,0x5B
12.672481716000000,0,0x33,0x5B
12.672483200000000,0,0x00,0x5B
12.672483824000000,0,0x00,0x5B
12.672485308000001,0,0x00,0x5B
12.672485932000001,0,0x02,0x5B
12.672487420000000,0,0xE0,0x5B
12.672488044000000,0,0x0E,0x5B
12.672489528000000,0,0xE1,0x5B
12.672490152000000,0,0xFF,0x5B
12.672491636000000,0,0xD3,0x5B
12.672492260000000,0,0xE2,0x5B
12.672493748000001,0,0x86,0x5B
12.672494371999999,0,0xDD,0x5B
12.672495855999999,0,0x60,0x5B
12.672496480000000,0,0x00,0x5B
12.672497964000000,0,0x00,0x5B
12.672498588000000,0,0x00,0x5B
12.672500076000000,0,0x00,0x5B
12.672500700000001,0,0x10,0x5B
12.672502184000001,0,0x3A,0x5B
12.672502808000001,0,0xFF,0x5B
12.672504291999999,0,0xFE,0x5B
12.672504915999999,0,0x80,0x5B
12.672506404000000,0,0x00,0x5B
12.672507028000000,0,0x00,0x5B
12.672508512000000,0,0x00,0x5B
12.672509136000000,0,0x00,0x5B
12.672510620000001,0,0x00,0x5B
12.672511244000001,0,0x00,0x5B
12.672512732000000,0,0xE2,0x5B
12.672513356000000,0,0x0E,0x5B
12.672514840000000,0,0xE1,0x5B
12.672515464000000,0,0xFF,0x5B
12.672516948000000,0,0xFE,0x5B
12.672517572000000,0,0xFF,0x5B
12.672519060000001,0,0xD3,0x5B
12.672519683999999,0,0xE2,0x5B
12.672521167999999,0,0xFF,0x5B
12.672521792000000,0,0x02,0x5B
12.672523276000000,0,0x00,0x5B
12.672523900000000,0,0x00,0x5B
12.672525388000000,0,0x00,0x5B
12.672526012000001,0,0x00,0x5B
12.672527496000001,0,0x00,0x5B
12.672528120000001,0,0x00,0x5B
12.672529603999999,0,0x00,0x5B
12.672530227999999,0,0x00,0x5B
12.672531716000000,0,0x00,0x5B
12.672532340000000,0,0x00,0x5B
12.672533824000000,0,0x00,0x5B
12.672534448000000,0,0x00,0x5B
12.672535932000001,0,0x00,0x5B
12.672536556000001,0,0x02,0x5B
12.672538044000000,0,0x85,0x5B
12.672538668000000,0,0x00,0x5B
12.672540152000000,0,0x4F,0x5B
12.672540776000000,0,0x4B,0x5B
12.672542260000000,0,0x00,0x5B
12.672542884000000,0,0x00,0x5B
12.672544372000001,0,0x00,0x5B
12.672544995999999,0,0x00,0x5B
12.672546479999999,0,0x01,0x5B
12.672547104000000,0,0x01,0x5B
12.672548588000000,0,0xE0,0x5B
12.672549212000000,0,0x0E,0x5B
12.672550700000000,0,0xE1,0x5B
12.672551324000001,0,0xFF,0x5B
12.672552808000001,0,0xD3,0x5B
12.672553432000001,0,0xE2,0x5B
12.672554915999999,0,0x55,0x5B
12.672555539999999,0,0x55,0x5B
12.672557028000000,0,0xE1,0x00
12.672557652000000,0,0xFF,0x00
30.392278112000000,0,0xC2,0x5B
30.392278736000002,0,0x00,0x5B
30.392279859999999,0,0x00,0x0C
30.392280488000001,0,0x00,0x5B
30.392287847999999,0,0xC2,0x5B
30.392288472000001,0,0x00,0x5B
30.392289596000001,0,0x00,0x0C
30.392290220000000,0,0x00,0x5B
30.392292531999999,0,0x41,0x5B
30.392293156000001,0,0x00,0x5B
30.392294268000001,0,0x00,0x5B
30.392294891999999,0,0x46,0x5B
30.392296987999998,0,0x00,0x5B
30.392297612000000,0,0x00,0x5B
30.392299080000001,0,0xAA,0x5B
30.392299703999999,0,0xAA,0x5B
30.392301188000001,0,0xAA,0x5B
30.392301811999999,0,0xAA,0x5B
30.392303299999998,0,0x3C,0x5B
30.392303924000000,0,0x00,0x5B
30.392305407999999,0,0x00,0x5B
30.392306032000000,0,0x00,0x5B
30.392307515999999,0,0xFF,0x5B
30.392308140000001,0,0xFF,0x5B
30.392309628000000,0,0xFF,0x5B
30.392310252000001,0,0xFF,0x5B
30.392311736000000,0,0xFF,0x5B
30.392312359999998,0,0xFF,0x5B
30.392313844000000,0,0xE0,0x5B
30.392314467999999,0,0x0E,0x5B
30.392315956000001,0,0xE1,0x5B
30.392316579999999,0,0xFF,0x5B
30.392318064000001,0,0xD3,0x5B
30.392318688000000,0,0xE2,0x5B
30.392320172000002,0,0x88,0x5B
30.392320796000000,0,0xE1,0x5B
30.392322283999999,0,0x01,0x5B
30.392322908000001,0,0x64,0x5B
30.392324391999999,0,0x60,0x5B
30.392325016000001,0,0x00,0x5B
30.392326499999999,0,0x00,0x5B
30.392327124000001,0,0x00,0x5B
30.392328612000000,0,0x00,0x5B
30.392329235999998,0,0xE0,0x5B
30.392330720000000,0,0x0E,0x5B
30.392331343999999,0,0xE1,0x5B
30.392332828000001,0,0xFF,0x5B
30.392333451999999,0,0xD3,0x5B
30.392334940000001,0,0xE2,0x5B
30.392335564000000,0,0x00,0x5B
30.392337048000002,0,0x00,0x5B
30.392337672000000,0,0x00,0x5B
30.392339155999998,0,0x00,0x5B
30.392339780000000,0,0x00,0x5B
30.392341267999999,0,0x00,0x5B
30.392341892000001,0,0x00,0x5B
30.392343375999999,0,0x00,0x5B
30.392344000000001,0,0x00,0x5B
30.392345484000000,0,0x00,0x5B
30.392346111999998,0,0x00,0x5B
30.392347596000000,0,0x00,0x5B
30.392348219999999,0,0x00,0x5B
30.392349704000001,0,0x00,0x5B
30.392350327999999,0,0x00,0x5B
30.392351812000001,0,0x00,0x5B
30.392352440000000,0,0x00,0x5B
30.392353923999998,0,0x00,0x5B
30.392354548000000,0,0x00,0x5B
30.392356031999999,0,0x00,0x5B
30.392356656000000,0,0x00,0x5B
30.392358139999999,0,0x00,0x5B
30.392358768000001,0,0x00,0x5B
30.392360252000000,0,0x00,0x5B
30.392360876000001,0,0x00,0x5B
30.392362360000000,0,0x00,0x5B
30.392362983999998,0,0x00,0x5B
30.392364472000001,0,0x00,0x5B
30.392365095999999,0,0x00,0x5B
30.392366580000001,0,0x00,0x5B
30.392367203999999,0,0x00,0x5B
30.392368688000001,0,0x00,0x5B
30.392369312000000,0,0x00,0x5B
30.392370796000002,0,0x55,0x5B
30.392371424000000,0,0x55,0x5B
30.392372907999999,0,0x01,0x00
30.392373532000001,0,0x01,0x00
30.442288844000000,0,0xCD,0x5B
30.442289467999998,0,0x00,0x5B
30.442290595999999,0,0x00,0x00
30.442291220000001,0,0x00,0x47
30.442293048000000,0,0x4D,0x47
30.442293672000002,0,0x00,0x47
30.442294780000001,0,0x00,0x47
30.442295408000000,0,0x00,0x47
30.442297468000000,0,0xCC,0x47
30.442298092000001,0,0x00,0x47
30.442299219999999,0,0x00,0x04
30.442299844000001,0,0x00,0x01
30.442302516000002,0,0xC3,0x01
30.442303140000000,0,0x00,0x01
30.442304264000001,0,0x00,0x00
30.442304891999999,0,0x00,0x4A
30.442306764000001,0,0x41,0x4A
30.442307392000000,0,0x00,0x4A
30.442308499999999,0,0x00,0x4A
30.442309124000001,0,0x4A,0x4A
30.442311279999998,0,0x80,0x4A
30.442311904000000,0,0x00,0x4A
30.442313047999999,0,0x00,0x00
30.442313672000001,0,0x00,0x00
30.442315107999999,0,0x00,0x00
30.442315732000001,0,0x00,0x46
30.442317171999999,0,0x00,0xAA
30.442317796000001,0,0x00,0xAA
30.442319235999999,0,0x00,0xAA
30.442319860000001,0,0x00,0xAA
30.442321295999999,0,0x00,0x3C
30.442321920000001,0,0x00,0x00
30.442323360000000,0,0x00,0x00
30.442323984000002,0,0x00,0x00
30.442325420000000,0,0x00,0xE0
30.442326048000002,0,0x00,0x0E
30.442327484000000,0,0x00,0xE1
30.442328108000002,0,0x00,0xFF
30.442329548000000,0,0x00,0xD3
30.442330171999998,0,0x00,0xE2
30.442331608000000,0,0x00,0xB8
30.442332231999998,0,0x00,0x27
30.442333672000000,0,0x00,0xEB
30.442334295999999,0,0x00,0x27
30.442335736000000,0,0x00,0x33
30.442336359999999,0,0x00,0x53
30.442337796000000,0,0x00,0x88
30.442338419999999,0,0x00,0xE1
30.442339860000001,0,0x00,0x01
30.442340483999999,0,0x00,0x65
30.442341920000000,0,0x00,0x60
30.442342543999999,0,0x00,0x00
30.442343984000001,0,0x00,0x00
30.442344607999999,0,0x00,0xFF
30.442346048000001,0,0x00,0xFF
30.442346671999999,0,0x00,0xFF
30.442348108000001,0,0x00,0xFF
30.442348731999999,0,0x00,0xFF
30.442350172000001,0,0x00,0xFF
30.442350795999999,0,0x00,0x0A
30.442352232000001,0,0x00,0x06
30.442352860000000,0,0x00,0x01
30.442354296000001,0,0x00,0xE0
30.442354920000000,0,0x00,0x0E
30.442356360000002,0,0x00,0xE1
30.442356984000000,0,0x00,0xFF
30.442358420000001,0,0x00,0xD3
30.442359044000000,0,0x00,0xE2
30.442360484000002,0,0x00,0x00
30.442361108000000,0,0x00,0x00
30.442362547999998,0,0x00,0xE0
30.442363172000000,0,0x00,0x0E
30.442364607999998,0,0x00,0xE1
30.442365232000000,0,0x00,0xFF
30.442366671999999,0,0x00,0xD3
30.442367296000000,0,0x00,0xE2
30.442368731999998,0,0x00,0x00
30.442369360000001,0,0x00,0x00
30.442370795999999,0,0x00,0x00
30.442371420000001,0,0x00,0x00
30.442372859999999,0,0x00,0x00
30.442373484000001,0,0x00,0x00
30.442374919999999,0,0x00,0x00
30.442375544000001,0,0x00,0x00
30.442376983999999,0,0x00,0x00
30.442377608000001,0,0x00,0x00
30.442379047999999,0,0x00,0x00
30.442379672000001,0,0x00,0x00
30.442381107999999,0,0x00,0x00
30.442381732000001,0,0x00,0x00
30.442383172000000,0,0x00,0x00
30.442383796000001,0,0x00,0x00
30.442385231999999,0,0x00,0x00
30.442385856000001,0,0x00,0x00
30.442387296000000,0,0x00,0x55
30.442387920000002,0,0x00,0x55
30.442393719999998,0,0x4C,0x55
30.442394344000000,0,0x00,0x55
30.442395452000000,0,0x04,0x55
30.442396076000001,0,0x01,0x55
30.442398248000000,0,0xCD,0x55
30.442398871999998,0,0x00,0x55
30.442399999999999,0,0x00,0x00
30.442400624000001,0,0x00,0x00
30.442402468000001,0,0x4D,0x00
30.442403091999999,0,0x00,0x00
30.442404203999999,0,0x00,0x00
30.442404828000001,0,0x47,0x00
30.602287631999999,0,0xC2,0x00
30.602288256000001,0,0x00,0x00
30.602289383999999,0,0x00,0x0C
30.602290008000001,0,0x00,0x5B
30.602297367999999,0,0xC2,0x5B
30.602297992000000,0,0x00,0x5B
30.602299116000001,0,0x00,0x0C
30.602299739999999,0,0x00,0x5B
30.602302055999999,0,0x41,0x5B
30.602302680000001,0,0x00,0x5B
30.602303788000000,0,0x00,0x5B
30.602304411999999,0,0x46,0x5B
30.602306508000002,0,0x00,0x5B
30.602307132000000,0,0x00,0x5B
30.602308600000001,0,0xAA,0x5B
30.602309227999999,0,0xAA,0x5B
30.602310712000001,0,0xAA,0x5B
30.602311336000000,0,0xAA,0x5B
30.602312820000002,0,0x3C,0x5B
30.602313444000000,0,0x00,0x5B
30.602314927999998,0,0x00,0x5B
30.602315552000000,0,0x00,0x5B
30.602317039999999,0,0xFF,0x5B
30.602317664000001,0,0xFF,0x5B
30.602319147999999,0,0xFF,0x5B
30.602319772000001,0,0xFF,0x5B
30.602321256000000,0,0xFF,0x5B
30.602321880000002,0,0xFF,0x5B
30.602323368000000,0,0xE0,0x5B
30.602323991999999,0,0x0E,0x5B
30.602325476000001,0,0xE1,0x5B
30.602326099999999,0,0xFF,0x5B
30.602327584000001,0,0xD3,0x5B
30.602328207999999,0,0xE2,0x5B
30.602329696000002,0,0x88,0x5B
30.602330320000000,0,0xE1,0x5B
30.602331803999999,0,0x01,0x5B
30.602332428000000,0,0x6A,0x5B
30.602333911999999,0,0x60,0x5B
30.602334536000001,0,0x00,0x5B
30.602336024000000,0,0x00,0x5B
30.602336648000001,0,0x00,0x5B
30.602338132000000,0,0x00,0x5B
30.602338756000002,0,0x0A,0x5B
30.602340240000000,0,0x06,0x5B
30.602340863999999,0,0x01,0x5B
30.602342352000001,0,0xE0,0x5B
30.602342975999999,0,0x0E,0x5B
30.602344460000001,0,0xE1,0x5B
30.602345084000000,0,0xFF,0x5B
30.602346568000002,0,0xD3,0x5B
30.602347196000000,0,0xE2,0x5B
30.602348679999999,0,0xE0,0x5B
30.602349304000001,0,0x0E,0x5B
30.602350787999999,0,0xE1,0x5B
30.602351412000001,0,0xFF,0x5B
30.602352895999999,0,0xD3,0x5B
30.602353524000002,0,0xE2,0x5B
30.602355008000000,0,0x00,0x5B
30.602355631999998,0,0x00,0x5B
30.602357116000000,0,0x00,0x5B
30.602357739999999,0,0x00,0x5B
30.602359224000001,0,0x00,0x5B
30.602359851999999,0,0x00,0x5B
30.602361336000001,0,0x00,0x5B
30.602361960000000,0,0x00,0x5B
30.602363444000002,0,0x00,0x5B
30.602364068000000,0,0x00,0x5B
30.602365551999998,0,0x00,0x5B
30.602366180000001,0,0x00,0x5B
30.602367663999999,0,0x00,0x5B
30.602368288000001,0,0x00,0x5B
30.602369771999999,0,0x00,0x5B
30.602370396000001,0,0x00,0x5B
30.602371884000000,0,0x00,0x5B
30.602372507999998,0,0x00,0x5B
30.602373992000000,0,0x00,0x5B
30.602374615999999,0,0x00,0x5B
30.602376100000001,0,0x00,0x5B
30.602376723999999,0,0x00,0x5B
30.602378212000001,0,0x00,0x5B
30.602378836000000,0,0x00,0x5B
30.602380320000002,0,0x55,0x5B
30.602380944000000,0,0x55,0x5B
30.602382427999999,0,0x01,0x00
30.602383052000000,0,0x01,0x00
30.622294327999999,0,0xC2,0x5B
30.622294952000001,0,0x00,0x5B
30.622296080000002,0,0x00,0x0C
30.622296704000000,0,0x00,0x5B
30.622304064000001,0,0xC2,0x5B
30.622304688000000,0,0x00,0x5B
30.622305812000000,0,0x00,0x0C
30.622306435999999,0,0x00,0x5B
30.622308751999999,0,0x41,0x5B
30.622309376000000,0,0x00,0x5B
30.622310484000000,0,0x00,0x5B
30.622311108000002,0,0x46,0x5B
30.622313204000001,0,0x00,0x5B
30.622313827999999,0,0x00,0x5B
30.622315296000000,0,0xAA,0x5B
30.622315923999999,0,0xAA,0x5B
30.622317408000001,0,0xAA,0x5B
30.622318031999999,0,0xAA,0x5B
30.622319516000001,0,0x3C,0x5B
30.622320139999999,0,0x00,0x5B
30.622321624000001,0,0x00,0x5B
30.622322252000000,0,0x00,0x5B
30.622323735999998,0,0xFF,0x5B
30.622324360000000,0,0xFF,0x5B
30.622325843999999,0,0xFF,0x5B
30.622326468000001,0,0xFF,0x5B
30.622327951999999,0,0xFF,0x5B
30.622328576000001,0,0xFF,0x5B
30.622330064000000,0,0xE0,0x5B
30.622330688000002,0,0x0E,0x5B
30.622332172000000,0,0xE1,0x5B
30.622332795999998,0,0xFF,0x5B
30.622334280000000,0,0xD3,0x5B
30.622334907999999,0,0xE2,0x5B
30.622336392000001,0,0x88,0x5B
30.622337015999999,0,0xE1,0x5B
30.622338500000001,0,0x01,0x5B
30.622339124000000,0,0x6A,0x5B
30.622340607999998,0,0x60,0x5B
30.622341236000000,0,0x00,0x5B
30.622342719999999,0,0x00,0x5B
30.622343344000001,0,0x00,0x5B
30.622344827999999,0,0x00,0x5B
30.622345452000001,0,0x0A,0x5B
30.622346936000000,0,0x06,0x5B
30.622347563999998,0,0x01,0x5B
30.622349048000000,0,0xE0,0x5B
30.622349671999999,0,0x0E,0x5B
30.622351156000001,0,0xE1,0x5B
30.622351779999999,0,0xFF,0x5B
30.622353264000001,0,0xD3,0x5B
30.622353892000000,0,0xE2,0x5B
30.622355376000002,0,0xE0,0x5B
30.622356000000000,0,0x0E,0x5B
30.622357483999998,0,0xE1,0x5B
30.622358108000000,0,0xFF,0x5B
30.622359595999999,0,0xD3,0x5B
30.622360220000001,0,0xE2,0x5B
30.622361703999999,0,0x00,0x5B
30.622362328000001,0,0x00,0x5B
30.622363812000000,0,0x00,0x5B
30.622364436000002,0,0x00,0x5B
30.622365920000000,0,0x00,0x5B
30.622366547999999,0,0x00,0x5B
30.622368032000001,0,0x00,0x5B
30.622368655999999,0,0x00,0x5B
30.622370140000001,0,0x00,0x5B
30.622370763999999,0,0x00,0x5B
30.622372252000002,0,0x00,0x5B
30.622372876000000,0,0x00,0x5B
30.622374359999998,0,0x00,0x5B
30.622374984000000,0,0x00,0x5B
30.622376467999999,0,0x00,0x5B
30.622377092000001,0,0x00,0x5B
30.622378579999999,0,0x00,0x5B
30.622379204000001,0,0x00,0x5B
30.622380688000000,0,0x00,0x5B
30.622381312000002,0,0x00,0x5B
30.622382796000000,0,0x00,0x5B
30.622383419999998,0,0x00,0x5B
30.622384908000001,0,0x00,0x5B
30.622385531999999,0,0x00,0x5B
30.622387016000001,0,0x55,0x5B
30.622387639999999,0,0x55,0x5B
30.622389124000001,0,0x01,0x00
30.622389748000000,0,0x01,0x00
30.642287308000000,0,0xC2,0x5B
30.642287931999999,0,0x00,0x5B
30.642289055999999,0,0x00,0x0C
30.642289680000001,0,0x00,0x5B
30.642297039999999,0,0xC2,0x5B
30.642297664000001,0,0x00,0x5B
30.642298791999998,0,0x00,0x0C
30.642299416000000,0,0x00,0x5B
30.642301728000000,0,0x41,0x5B
30.642302352000002,0,0x00,0x5B
30.642303464000001,0,0x00,0x5B
30.642304087999999,0,0x46,0x5B
30.642306179999999,0,0x00,0x5B
30.642306804000000,0,0x00,0x5B
30.642308276000001,0,0xAA,0x5B
30.642308900000000,0,0xAA,0x5B
30.642310384000002,0,0xAA,0x5B
30.642311008000000,0,0xAA,0x5B
30.642312491999999,0,0x3C,0x5B
30.642313120000001,0,0x00,0x5B
30.642314603999999,0,0x00,0x5B
30.642315228000001,0,0x00,0x5B
30.642316712000000,0,0xFF,0x5B
30.642317336000001,0,0xFF,0x5B
30.642318824000000,0,0xFF,0x5B
30.642319447999999,0,0xFF,0x5B
30.642320932000001,0,0xFF,0x5B
30.642321555999999,0,0xFF,0x5B
30.642323040000001,0,0xE0,0x5B
30.642323663999999,0,0x0E,0x5B
30.642325152000002,0,0xE1,0x5B
30.642325776000000,0,0xFF,0x5B
30.642327259999998,0,0xD3,0x5B
30.642327884000000,0,0xE2,0x5B
30.642329367999999,0,0x88,0x5B
30.642329992000001,0,0xE1,0x5B
30.642331479999999,0,0x01,0x5B
30.642332104000001,0,0x6A,0x5B
30.642333588000000,0,0x60,0x5B
30.642334212000002,0,0x00,0x5B
30.642335696000000,0,0x00,0x5B
30.642336319999998,0,0x00,0x5B
30.642337808000001,0,0x00,0x5B
30.642338431999999,0,0x0A,0x5B
30.642339916000001,0,0x06,0x5B
30.642340539999999,0,0x01,0x5B
30.642342024000001,0,0xE0,0x5B
30.642342648000000,0,0x0E,0x5B
30.642344135999998,0,0xE1,0x5B
30.642344760000000,0,0xFF,0x5B
30.642346243999999,0,0xD3,0x5B
30.642346868000001,0,0xE2,0x5B
30.642348351999999,0,0xE0,0x5B
30.642348976000001,0,0x0E,0x5B
30.642350464000000,0,0xE1,0x5B
30.642351088000002,0,0xFF,0x5B
30.642352572000000,0,0xD3,0x5B
30.642353195999998,0,0xE2,0x5B
30.642354680000000,0,0x00,0x5B
30.642355303999999,0,0x00,0x5B
30.642356792000001,0,0x00,0x5B
30.642357415999999,0,0x00,0x5B
30.642358900000001,0,0x00,0x5B
30.642359524000000,0,0x00,0x5B
30.642361008000002,0,0x00,0x5B
30.642361632000000,0,0x00,0x5B
30.642363119999999,0,0x00,0x5B
30.642363744000001,0,0x00,0x5B
30.642365227999999,0,0x00,0x5B
30.642365852000001,0,0x00,0x5B
30.642367336000000,0,0x00,0x5B
30.642367960000001,0,0x00,0x5B
30.642369448000000,0,0x00,0x5B
30.642370071999999,0,0x00,0x5B
30.642371556000001,0,0x00,0x5B
30.642372179999999,0,0x00,0x5B
30.642373664000001,0,0x00,0x5B
30.642374287999999,0,0x00,0x5B
30.642375776000002,0,0x00,0x5B
30.642376400000000,0,0x00,0x5B
30.642377883999998,0,0x00,0x5B
30.642378508000000,0,0x00,0x5B
30.642379991999999,0,0x55,0x5B
30.642380616000001,0,0x55,0x5B
30.642382103999999,0,0x01,0x00
30.642382728000001,0,0x01,0x00
30.682286919999999,0,0xC2,0x5B
30.682287544000001,0,0x00,0x5B
30.682288668000002,0,0x00,0x0C
30.682289292000000,0,0x00,0x5B
30.682296904000001,0,0xC2,0x5B
30.682297527999999,0,0x00,0x5B
30.682298652000000,0,0x00,0x0C
30.682299275999998,0,0x00,0x5B
30.682301588000001,0,0x41,0x5B
30.682302216000000,0,0x00,0x5B
30.682303323999999,0,0x00,0x5B
30.682303948000001,0,0x51,0x5B
30.682306044000001,0,0x00,0x5B
30.682306667999999,0,0x00,0x5B
30.682308136000000,0,0xAA,0x5B
30.682308760000002,0,0xAA,0x5B
30.682310248000000,0,0xAA,0x5B
30.682310871999999,0,0xAA,0x5B
30.682312356000001,0,0x47,0x5B
30.682312979999999,0,0x00,0x5B
30.682314464000001,0,0x00,0x5B
30.682315087999999,0,0x00,0x5B
30.682316576000002,0,0xFF,0x5B
30.682317200000000,0,0xFF,0x5B
30.682318683999998,0,0xFF,0x5B
30.682319308000000,0,0xFF,0x5B
30.682320791999999,0,0xFF,0x5B
30.682321416000001,0,0xFF,0x5B
30.682322899999999,0,0xE0,0x5B
30.682323528000001,0,0x0E,0x5B
30.682325012000000,0,0xE1,0x5B
30.682325636000002,0,0xFF,0x5B
30.682327120000000,0,0xD3,0x5B
30.682327743999998,0,0xE2,0x5B
30.682329232000001,0,0x88,0x5B
30.682329855999999,0,0xE1,0x5B
30.682331340000001,0,0x01,0x5B
30.682331963999999,0,0x76,0x5B
30.682333448000001,0,0x60,0x5B
30.682334072000000,0,0x00,0x5B
30.682335559999999,0,0x00,0x5B
30.682336184000000,0,0x00,0x5B
30.682337667999999,0,0x00,0x5B
30.682338292000001,0,0x00,0x5B
30.682339775999999,0,0x00,0x5B
30.682340400000001,0,0x00,0x5B
30.682341884000000,0,0x00,0x5B
30.682342512000002,0,0x00,0x5B
30.682343996000000,0,0x00,0x5B
30.682344619999999,0,0x00,0x5B
30.682346104000001,0,0x00,0x5B
30.682346727999999,0,0x00,0x5B
30.682348216000001,0,0x00,0x5B
30.682348840000000,0,0x00,0x5B
30.682350324000002,0,0x00,0x5B
30.682350948000000,0,0x00,0x5B
30.682352431999998,0,0x00,0x5B
30.682353056000000,0,0x00,0x5B
30.682354543999999,0,0x00,0x5B
30.682355168000001,0,0x00,0x5B
30.682356651999999,0,0x09,0x5B
30.682357276000001,0,0xE0,0x5B
30.682358760000000,0,0x0E,0x5B
30.682359384000002,0,0xE1,0x5B
30.682360872000000,0,0xFF,0x5B
30.682361495999999,0,0xD3,0x5B
30.682362980000001,0,0xE2,0x5B
30.682363603999999,0,0x00,0x5B
30.682365088000001,0,0x00,0x5B
30.682365711999999,0,0x00,0x5B
30.682367200000002,0,0x00,0x5B
30.682367824000000,0,0x00,0x5B
30.682369307999998,0,0x00,0x5B
30.682369932000000,0,0x00,0x5B
30.682371415999999,0,0x00,0x5B
30.682372040000001,0,0x00,0x5B
30.682373527999999,0,0x00,0x5B
30.682374152000001,0,0xFF,0x5B
30.682375636000000,0,0xFF,0x5B
30.682376260000002,0,0xFF,0x5B
30.682377744000000,0,0xFF,0x5B
30.682378367999998,0,0xFF,0x5B
30.682379856000001,0,0xFF,0x5B
30.682380479999999,0,0xFF,0x5B
30.682381964000001,0,0xFF,0x5B
30.682382587999999,0,0xFF,0x5B
30.682384072000001,0,0xFF,0x5B
30.682384696000000,0,0xFF,0x5B
30.682386183999999,0,0xFF,0x5B
30.682386808000000,0,0xFF,0x5B
30.682388291999999,0,0xFF,0x5B
30.682388916000001,0,0xFF,0x5B
30.682390399999999,0,0xFF,0x5B
30.682391024000001,0,0x55,0x5B
30.682392512000000,0,0x55,0x5B
30.682393136000002,0,0xFF,0x00
30.702286724000000,0,0xC2,0x5B
30.702287347999999,0,0x00,0x5B
30.702288471999999,0,0x00,0x0C
30.702289100000002,0,0x00,0x5B
30.702296707999999,0,0xC2,0x5B
30.702297332000001,0,0x00,0x5B
30.702298460000002,0,0x00,0x0C
30.702299084000000,0,0x00,0x5B
30.702301395999999,0,0x41,0x5B
30.702302020000001,0,0x00,0x5B
30.702303128000000,0,0x00,0x5B
30.702303755999999,0,0x51,0x5B
30.702305848000002,0,0x00,0x5B
30.702306472000000,0,0x00,0x5B
30.702307944000001,0,0xAA,0x5B
30.702308567999999,0,0xAA,0x5B
30.702310052000001,0,0xAA,0x5B
30.702310676000000,0,0xAA,0x5B
30.702312160000002,0,0x47,0x5B
30.702312784000000,0,0x00,0x5B
30.702314271999999,0,0x00,0x5B
30.702314896000001,0,0x00,0x5B
30.702316379999999,0,0xFF,0x5B
30.702317004000001,0,0xFF,0x5B
30.702318488000000,0,0xFF,0x5B
30.702319112000001,0,0xFF,0x5B
30.702320600000000,0,0xFF,0x5B
30.702321223999999,0,0xFF,0x5B
30.702322708000001,0,0xE0,0x5B
30.702323331999999,0,0x0E,0x5B
30.702324816000001,0,0xE1,0x5B
30.702325439999999,0,0xFF,0x5B
30.702326928000002,0,0xD3,0x5B
30.702327552000000,0,0xE2,0x5B
30.702329035999998,0,0x88,0x5B
30.702329660000000,0,0xE1,0x5B
30.702331143999999,0,0x01,0x5B
30.702331768000001,0,0x76,0x5B
30.702333255999999,0,0x60,0x5B
30.702333880000001,0,0x00,0x5B
30.702335364000000,0,0x00,0x5B
30.702335988000002,0,0x00,0x5B
30.702337472000000,0,0x00,0x5B
30.702338095999998,0,0x00,0x5B
30.702339584000001,0,0x00,0x5B
30.702340207999999,0,0x00,0x5B
30.702341692000001,0,0x00,0x5B
30.702342315999999,0,0x00,0x5B
30.702343800000001,0,0x00,0x5B
30.702344424000000,0,0x00,0x5B
30.702345911999998,0,0x00,0x5B
30.702346536000000,0,0x00,0x5B
30.702348019999999,0,0x00,0x5B
30.702348644000001,0,0x00,0x5B
30.702350127999999,0,0x00,0x5B
30.702350752000001,0,0x00,0x5B
30.702352240000000,0,0x00,0x5B
30.702352864000002,0,0x00,0x5B
30.702354348000000,0,0x00,0x5B
30.702354971999998,0,0x00,0x5B
30.702356456000000,0,0x08,0x5B
30.702357079999999,0,0xE0,0x5B
30.702358568000001,0,0x0E,0x5B
30.702359191999999,0,0xE1,0x5B
30.702360676000001,0,0xFF,0x5B
30.702361300000000,0,0xD3,0x5B
30.702362784000002,0,0xE2,0x5B
30.702363408000000,0,0x00,0x5B
30.702364895999999,0,0x00,0x5B
30.702365520000001,0,0x00,0x5B
30.702367003999999,0,0x00,0x5B
30.702367628000001,0,0x00,0x5B
30.702369112000000,0,0x00,0x5B
30.702369736000001,0,0x00,0x5B
30.702371224000000,0,0x00,0x5B
30.702371847999999,0,0x00,0x5B
30.702373332000001,0,0x00,0x5B
30.702373955999999,0,0xFF,0x5B
30.702375440000001,0,0xFF,0x5B
30.702376063999999,0,0xFF,0x5B
30.702377552000002,0,0xFF,0x5B
30.702378176000000,0,0xFF,0x5B
30.702379659999998,0,0xFF,0x5B
30.702380284000000,0,0xFF,0x5B
30.702381767999999,0,0xFF,0x5B
30.702382392000001,0,0xFF,0x5B
30.702383879999999,0,0xFF,0x5B
30.702384504000001,0,0xFF,0x5B
30.702385988000000,0,0xFF,0x5B
30.702386612000002,0,0xFF,0x5B
30.702388096000000,0,0xFF,0x5B
30.702388719999998,0,0xFF,0x5B
30.702390208000001,0,0xFF,0x5B
30.702390831999999,0,0x55,0x5B
30.702392316000001,0,0x55,0x5B
30.702392939999999,0,0xFF,0x00
30.722293327999999,0,0xC2,0x5B
30.722293952000001,0,0x00,0x5B
30.722295076000002,0,0x00,0x0C
30.722295700000000,0,0x00,0x5B
30.722303312000001,0,0xC2,0x5B
30.722303935999999,0,0x00,0x5B
30.722305060000000,0,0x00,0x0C
30.722305683999998,0,0x00,0x5B
30.722307996000001,0,0x41,0x5B
30.722308624000000,0,0x00,0x5B
30.722309731999999,0,0x00,0x5B
30.722310356000001,0,0x51,0x5B
30.722312452000001,0,0x00,0x5B
30.722313075999999,0,0x00,0x5B
30.722314544000000,0,0xAA,0x5B
30.722315168000002,0,0xAA,0x5B
30.722316656000000,0,0xAA,0x5B
30.722317279999999,0,0xAA,0x5B
30.722318764000001,0,0x47,0x5B
30.722319387999999,0,0x00,0x5B
30.722320872000001,0,0x00,0x5B
30.722321495999999,0,0x00,0x5B
30.722322980000001,0,0xFF,0x5B
30.722323608000000,0,0xFF,0x5B
30.722325091999998,0,0xFF,0x5B
30.722325716000000,0,0xFF,0x5B
30.722327199999999,0,0xFF,0x5B
30.722327824000001,0,0xFF,0x5B
30.722329311999999,0,0xE0,0x5B
30.722329936000001,0,0x0E,0x5B
30.722331420000000,0,0xE1,0x5B
30.722332044000002,0,0xFF,0x5B
30.722333528000000,0,0xD3,0x5B
30.722334151999998,0,0xE2,0x5B
30.722335636000000,0,0x88,0x5B
30.722336263999999,0,0xE1,0x5B
30.722337748000001,0,0x01,0x5B
30.722338371999999,0,0x76,0x5B
30.722339856000001,0,0x60,0x5B
30.722340480000000,0,0x00,0x5B
30.722341964000002,0,0x00,0x5B
30.722342592000000,0,0x00,0x5B
30.722344075999999,0,0x00,0x5B
30.722344700000001,0,0x00,0x5B
30.722346183999999,0,0x00,0x5B
30.722346808000001,0,0x00,0x5B
30.722348296000000,0,0x00,0x5B
30.722348920000002,0,0x00,0x5B
30.722350404000000,0,0x00,0x5B
30.722351027999999,0,0x00,0x5B
30.722352512000001,0,0x00,0x5B
30.722353135999999,0,0x00,0x5B
30.722354624000001,0,0x00,0x5B
30.722355248000000,0,0x00,0x5B
30.722356732000002,0,0x00,0x5B
30.722357356000000,0,0x00,0x5B
30.722358839999998,0,0x00,0x5B
30.722359464000000,0,0x00,0x5B
30.722360951999999,0,0x00,0x5B
30.722361576000001,0,0x00,0x5B
30.722363059999999,0,0x07,0x5B
30.722363684000001,0,0xE0,0x5B
30.722365168000000,0,0x0E,0x5B
30.722365792000002,0,0xE1,0x5B
30.722367280000000,0,0xFF,0x5B
30.722367903999999,0,0xD3,0x5B
30.722369388000001,0,0xE2,0x5B
30.722370011999999,0,0x00,0x5B
30.722371496000001,0,0x00,0x5B
30.722372119999999,0,0x00,0x5B
30.722373608000002,0,0x00,0x5B
30.722374232000000,0,0x00,0x5B
30.722375715999998,0,0x00,0x5B
30.722376340000000,0,0x00,0x5B
30.722377823999999,0,0x00,0x5B
30.722378448000001,0,0x00,0x5B
30.722379935999999,0,0x00,0x5B
30.722380560000001,0,0xFF,0x5B
30.722382044000000,0,0xFF,0x5B
30.722382668000002,0,0xFF,0x5B
30.722384152000000,0,0xFF,0x5B
30.722384775999998,0,0xFF,0x5B
30.722386264000001,0,0xFF,0x5B
30.722386887999999,0,0xFF,0x5B
30.722388372000001,0,0xFF,0x5B
30.722388995999999,0,0xFF,0x5B
30.722390480000001,0,0xFF,0x5B
30.722391104000000,0,0xFF,0x5B
30.722392591999999,0,0xFF,0x5B
30.722393216000000,0,0xFF,0x5B
30.722394699999999,0,0xFF,0x5B
30.722395324000001,0,0xFF,0x5B
30.722396807999999,0,0xFF,0x5B
30.722397432000001,0,0x55,0x5B
30.722398920000000,0,0x55,0x5B
30.722399544000002,0,0xFF,0x00
30.742286304000000,0,0xC2,0x5B
30.742286927999999,0,0x00,0x5B
30.742288051999999,0,0x00,0x0C
30.742288680000001,0,0x00,0x5B
30.742296287999999,0,0xC2,0x5B
30.742296912000000,0,0x00,0x5B
30.742298040000001,0,0x00,0x0C
30.742298664000000,0,0x00,0x5B
30.742300975999999,0,0x41,0x5B
30.742301600000001,0,0x00,0x5B
30.742302708000000,0,0x00,0x5B
30.742303335999999,0,0x51,0x5B
30.742305428000002,0,0x00,0x5B
30.742306052000000,0,0x00,0x5B
30.742307524000001,0,0xAA,0x5B
30.742308147999999,0,0xAA,0x5B
30.742309632000001,0,0xAA,0x5B
30.742310256000000,0,0xAA,0x5B
30.742311740000002,0,0x47,0x5B
30.742312364000000,0,0x00,0x5B
30.742313851999999,0,0x00,0x5B
30.742314476000001,0,0x00,0x5B
30.742315959999999,0,0xFF,0x5B
30.742316584000001,0,0xFF,0x5B
30.742318067999999,0,0xFF,0x5B
30.742318692000001,0,0xFF,0x5B
30.742320180000000,0,0xFF,0x5B
30.742320803999998,0,0xFF,0x5B
30.742322288000000,0,0xE0,0x5B
30.742322911999999,0,0x0E,0x5B
30.742324396000001,0,0xE1,0x5B
30.742325019999999,0,0xFF,0x5B
30.742326508000001,0,0xD3,0x5B
30.742327132000000,0,0xE2,0x5B
30.742328616000002,0,0x88,0x5B
30.742329240000000,0,0xE1,0x5B
30.742330723999999,0,0x01,0x5B
30.742331348000000,0,0x76,0x5B
30.742332835999999,0,0x60,0x5B
30.742333460000001,0,0x00,0x5B
30.742334944000000,0,0x00,0x5B
30.742335568000001,0,0x00,0x5B
30.742337052000000,0,0x00,0x5B
30.742337675999998,0,0x00,0x5B
30.742339164000001,0,0x00,0x5B
30.742339787999999,0,0x00,0x5B
30.742341272000001,0,0x00,0x5B
30.742341895999999,0,0x00,0x5B
30.742343380000001,0,0x00,0x5B
30.742344004000000,0,0x00,0x5B
30.742345491999998,0,0x00,0x5B
30.742346116000000,0,0x00,0x5B
30.742347599999999,0,0x00,0x5B
30.742348224000001,0,0x00,0x5B
30.742349707999999,0,0x00,0x5B
30.742350332000001,0,0x00,0x5B
30.742351820000000,0,0x00,0x5B
30.742352444000002,0,0x00,0x5B
30.742353928000000,0,0x00,0x5B
30.742354551999998,0,0x00,0x5B
30.742356036000000,0,0x06,0x5B
30.742356659999999,0,0xE0,0x5B
30.742358148000001,0,0x0E,0x5B
30.742358771999999,0,0xE1,0x5B
30.742360256000001,0,0xFF,0x5B
30.742360880000000,0,0xD3,0x5B
30.742362364000002,0,0xE2,0x5B
30.742362988000000,0,0x00,0x5B
30.742364475999999,0,0x00,0x5B
30.742365100000001,0,0x00,0x5B
30.742366583999999,0,0x00,0x5B
30.742367208000001,0,0x00,0x5B
30.742368691999999,0,0x00,0x5B
30.742369316000001,0,0x00,0x5B
30.742370804000000,0,0x00,0x5B
30.742371427999998,0,0x00,0x5B
30.742372912000000,0,0x00,0x5B
30.742373535999999,0,0xFF,0x5B
30.742375020000001,0,0xFF,0x5B
30.742375643999999,0,0xFF,0x5B
30.742377132000001,0,0xFF,0x5B
30.742377756000000,0,0xFF,0x5B
30.742379240000002,0,0xFF,0x5B
30.742379864000000,0,0xFF,0x5B
30.742381347999999,0,0xFF,0x5B
30.742381972000000,0,0xFF,0x5B
30.742383459999999,0,0xFF,0x5B
30.742384084000001,0,0xFF,0x5B
30.742385568000000,0,0xFF,0x5B
30.742386192000001,0,0xFF,0x5B
30.742387676000000,0,0xFF,0x5B
30.742388299999998,0,0xFF,0x5B
30.742389788000001,0,0xFF,0x5B
30.742390411999999,0,0x55,0x5B
30.742391896000001,0,0x55,0x5B
30.742392519999999,0,0xFF,0x00
30.762302468000001,0,0xC2,0x5B
30.762303092000000,0,0x00,0x5B
30.762304220000001,0,0x00,0x0C
30.762304843999999,0,0x00,0x5B
30.762312452000000,0,0xC2,0x5B
30.762313076000002,0,0x00,0x5B
30.762314203999999,0,0x00,0x0C
30.762314828000001,0,0x00,0x5B
30.762317140000000,0,0x41,0x5B
30.762317763999999,0,0x00,0x5B
30.762318875999998,0,0x00,0x5B
30.762319500000000,0,0x51,0x5B
30.762321591999999,0,0x00,0x5B
30.762322216000001,0,0x00,0x5B
30.762323687999999,0,0xAA,0x5B
30.762324312000001,0,0xAA,0x5B
30.762325795999999,0,0xAA,0x5B
30.762326420000001,0,0xAA,0x5B
30.762327903999999,0,0x47,0x5B
30.762328528000001,0,0x00,0x5B
30.762330016000000,0,0x00,0x5B
30.762330639999998,0,0x00,0x5B
30.762332124000000,0,0xFF,0x5B
30.762332747999999,0,0xFF,0x5B
30.762334232000001,0,0xFF,0x5B
30.762334855999999,0,0xFF,0x5B
30.762336344000001,0,0xFF,0x5B
30.762336968000000,0,0xFF,0x5B
30.762338452000002,0,0xE0,0x5B
30.762339076000000,0,0x0E,0x5B
30.762340559999998,0,0xE1,0x5B
30.762341184000000,0,0xFF,0x5B
30.762342671999999,0,0xD3,0x5B
30.762343296000001,0,0xE2,0x5B
30.762344779999999,0,0x88,0x5B
30.762345404000001,0,0xE1,0x5B
30.762346888000000,0,0x01,0x5B
30.762347512000002,0,0x76,0x5B
30.762349000000000,0,0x60,0x5B
30.762349623999999,0,0x00,0x5B
30.762351108000001,0,0x00,0x5B
30.762351731999999,0,0x00,0x5B
30.762353216000001,0,0x00,0x5B
30.762353844000000,0,0x00,0x5B
30.762355328000002,0,0x00,0x5B
30.762355952000000,0,0x00,0x5B
30.762357435999999,0,0x00,0x5B
30.762358060000000,0,0x00,0x5B
30.762359543999999,0,0x00,0x5B
30.762360172000001,0,0x00,0x5B
30.762361655999999,0,0x00,0x5B
30.762362280000001,0,0x00,0x5B
30.762363764000000,0,0x00,0x5B
30.762364388000002,0,0x00,0x5B
30.762365872000000,0,0x00,0x5B
30.762366499999999,0,0x00,0x5B
30.762367984000001,0,0x00,0x5B
30.762368607999999,0,0x00,0x5B
30.762370092000001,0,0x00,0x5B
30.762370716000000,0,0x00,0x5B
30.762372203999998,0,0x05,0x5B
30.762372828000000,0,0xE0,0x5B
30.762374311999999,0,0x0E,0x5B
30.762374936000001,0,0xE1,0x5B
30.762376419999999,0,0xFF,0x5B
30.762377044000001,0,0xD3,0x5B
30.762378532000000,0,0xE2,0x5B
30.762379156000002,0,0x00,0x5B
30.762380640000000,0,0x00,0x5B
30.762381263999998,0,0x00,0x5B
30.762382748000000,0,0x00,0x5B
30.762383371999999,0,0x00,0x5B
30.762384860000001,0,0x00,0x5B
30.762385483999999,0,0x00,0x5B
30.762386968000001,0,0x00,0x5B
30.762387592000000,0,0x00,0x5B
30.762389076000002,0,0x00,0x5B
30.762389700000000,0,0xFF,0x5B
30.762391187999999,0,0xFF,0x5B
30.762391812000001,0,0xFF,0x5B
30.762393295999999,0,0xFF,0x5B
30.762393920000001,0,0xFF,0x5B
30.762395403999999,0,0xFF,0x5B
30.762396028000001,0,0xFF,0x5B
30.762397516000000,0,0xFF,0x5B
30.762398139999998,0,0xFF,0x5B
30.762399624000000,0,0xFF,0x5B
30.762400247999999,0,0xFF,0x5B
30.762401732000001,0,0xFF,0x5B
30.762402355999999,0,0xFF,0x5B
30.762403844000001,0,0xFF,0x5B
30.762404468000000,0,0xFF,0x5B
30.762405952000002,0,0xFF,0x5B
30.762406576000000,0,0x55,0x5B
30.762408059999998,0,0x55,0x5B
30.762408684000000,0,0xFF,0x00
30.782285915999999,0,0xC2,0x5B
30.782286540000001,0,0x00,0x5B
30.782287663999998,0,0x00,0x0C
30.782288288000000,0,0x00,0x5B
30.782295900000001,0,0xC2,0x5B
30.782296523999999,0,0x00,0x5B
30.782297648000000,0,0x00,0x0C
30.782298271999998,0,0x00,0x5B
30.782300587999998,0,0x41,0x5B
30.782301212000000,0,0x00,0x5B
30.782302319999999,0,0x00,0x5B
30.782302944000001,0,0x51,0x5B
30.782305040000001,0,0x00,0x5B
30.782305663999999,0,0x00,0x5B
30.782307132000000,0,0xAA,0x5B
30.782307756000002,0,0xAA,0x5B
30.782309244000000,0,0xAA,0x5B
30.782309867999999,0,0xAA,0x5B
30.782311352000001,0,0x47,0x5B
30.782311975999999,0,0x00,0x5B
30.782313460000001,0,0x00,0x5B
30.782314083999999,0,0x00,0x5B
30.782315572000002,0,0xFF,0x5B
30.782316196000000,0,0xFF,0x5B
30.782317679999998,0,0xFF,0x5B
30.782318304000000,0,0xFF,0x5B
30.782319787999999,0,0xFF,0x5B
30.782320412000001,0,0xFF,0x5B
30.782321899999999,0,0xE0,0x5B
30.782322524000001,0,0x0E,0x5B
30.782324008000000,0,0xE1,0x5B
30.782324632000002,0,0xFF,0x5B
30.782326116000000,0,0xD3,0x5B
30.782326739999998,0,0xE2,0x5B
30.782328228000001,0,0x88,0x5B
30.782328851999999,0,0xE1,0x5B
30.782330336000001,0,0x01,0x5B
30.782330959999999,0,0x76,0x5B
30.782332444000001,0,0x60,0x5B
30.782333068000000,0,0x00,0x5B
30.782334555999999,0,0x00,0x5B
30.782335180000000,0,0x00,0x5B
30.782336663999999,0,0x00,0x5B
30.782337288000001,0,0x00,0x5B
30.782338771999999,0,0x00,0x5B
30.782339396000001,0,0x00,0x5B
30.782340884000000,0,0x00,0x5B
30.782341507999998,0,0x00,0x5B
30.782342992000000,0,0x00,0x5B
30.782343615999999,0,0x00,0x5B
30.782345100000001,0,0x00,0x5B
30.782345727999999,0,0x00,0x5B
30.782347212000001,0,0x00,0x5B
30.782347836000000,0,0x00,0x5B
30.782349320000002,0,0x00,0x5B
30.782349944000000,0,0x00,0x5B
30.782351427999998,0,0x00,0x5B
30.782352056000001,0,0x00,0x5B
30.782353539999999,0,0x00,0x5B
30.782354164000001,0,0x00,0x5B
30.782355647999999,0,0x04,0x5B
30.782356272000001,0,0xE0,0x5B
30.782357756000000,0,0x0E,0x5B
30.782358383999998,0,0xE1,0x5B
30.782359868000000,0,0xFF,0x5B
30.782360491999999,0,0xD3,0x5B
30.782361976000001,0,0xE2,0x5B
30.782362599999999,0,0x00,0x5B
30.782364084000001,0,0x00,0x5B
30.782364712000000,0,0x00,0x5B
30.782366196000002,0,0x00,0x5B
30.782366820000000,0,0x00,0x5B
30.782368303999998,0,0x00,0x5B
30.782368928000000,0,0x00,0x5B
30.782370411999999,0,0x00,0x5B
30.782371040000001,0,0x00,0x5B
30.782372523999999,0,0x00,0x5B
30.782373148000001,0,0xFF,0x5B
30.782374632000000,0,0xFF,0x5B
30.782375256000002,0,0xFF,0x5B
30.782376744000000,0,0xFF,0x5B
30.782377367999999,0,0xFF,0x5B
30.782378852000001,0,0xFF,0x5B
30.782379475999999,0,0xFF,0x5B
30.782380960000001,0,0xFF,0x5B
30.782381583999999,0,0xFF,0x5B
30.782383068000001,0,0xFF,0x5B
30.782383696000000,0,0xFF,0x5B
30.782385179999999,0,0xFF,0x5B
30.782385804000000,0,0xFF,0x5B
30.782387287999999,0,0xFF,0x5B
30.782387912000001,0,0xFF,0x5B
30.782389400000000,0,0xFF,0x5B
30.782390024000001,0,0x55,0x5B
30.782391508000000,0,0x55,0x5B
30.782392131999998,0,0xFF,0x00
30.802285752000000,0,0xC2,0x5B
30.802286376000001,0,0x00,0x5B
30.802287503999999,0,0x00,0x0C
30.802288128000001,0,0x00,0x5B
30.802295736000001,0,0xC2,0x5B
30.802296360000000,0,0x00,0x5B
30.802297488000001,0,0x00,0x0C
30.802298111999999,0,0x00,0x5B
30.802300423999998,0,0x41,0x5B
30.802301048000000,0,0x00,0x5B
30.802302160000000,0,0x00,0x5B
30.802302783999998,0,0x51,0x5B
30.802304876000001,0,0x00,0x5B
30.802305499999999,0,0x00,0x5B
30.802306972000000,0,0xAA,0x5B
30.802307595999999,0,0xAA,0x5B
30.802309080000001,0,0xAA,0x5B
30.802309703999999,0,0xAA,0x5B
30.802311188000001,0,0x47,0x5B
30.802311811999999,0,0x00,0x5B
30.802313300000002,0,0x00,0x5B
30.802313924000000,0,0x00,0x5B
30.802315407999998,0,0xFF,0x5B
30.802316032000000,0,0xFF,0x5B
30.802317515999999,0,0xFF,0x5B
30.802318140000001,0,0xFF,0x5B
30.802319627999999,0,0xFF,0x5B
30.802320252000001,0,0xFF,0x5B
30.802321736000000,0,0xE0,0x5B
30.802322360000002,0,0x0E,0x5B
30.802323844000000,0,0xE1,0x5B
30.802324467999998,0,0xFF,0x5B
30.802325956000001,0,0xD3,0x5B
30.802326579999999,0,0xE2,0x5B
30.802328064000001,0,0x88,0x5B
30.802328687999999,0,0xE1,0x5B
30.802330172000001,0,0x01,0x5B
30.802330796000000,0,0x76,0x5B
30.802332283999998,0,0x60,0x5B
30.802332908000000,0,0x00,0x5B
30.802334391999999,0,0x00,0x5B
30.802335016000001,0,0x00,0x5B
30.802336499999999,0,0x00,0x5B
30.802337124000001,0,0x00,0x5B
30.802338612000000,0,0x00,0x5B
30.802339236000002,0,0x00,0x5B
30.802340720000000,0,0x00,0x5B
30.802341343999998,0,0x00,0x5B
30.802342828000000,0,0x00,0x5B
30.802343451999999,0,0x00,0x5B
30.802344940000001,0,0x00,0x5B
30.802345563999999,0,0x00,0x5B
30.802347048000001,0,0x00,0x5B
30.802347672000000,0,0x00,0x5B
30.802349155999998,0,0x00,0x5B
30.802349780000000,0,0x00,0x5B
30.802351267999999,0,0x00,0x5B
30.802351892000001,0,0x00,0x5B
30.802353375999999,0,0x00,0x5B
30.802354000000001,0,0x00,0x5B
30.802355484000000,0,0x03,0x5B
30.802356108000001,0,0xE0,0x5B
30.802357596000000,0,0x0E,0x5B
30.802358219999999,0,0xE1,0x5B
30.802359704000001,0,0xFF,0x5B
30.802360327999999,0,0xD3,0x5B
30.802361812000001,0,0xE2,0x5B
30.802362435999999,0,0x00,0x5B
30.802363924000002,0,0x00,0x5B
30.802364548000000,0,0x00,0x5B
30.802366031999998,0,0x00,0x5B
30.802366656000000,0,0x00,0x5B
30.802368139999999,0,0x00,0x5B
30.802368764000001,0,0x00,0x5B
30.802370251999999,0,0x00,0x5B
30.802370876000001,0,0x00,0x5B
30.802372360000000,0,0x00,0x5B
30.802372984000002,0,0xFF,0x5B
30.802374468000000,0,0xFF,0x5B
30.802375091999998,0,0xFF,0x5B
30.802376580000001,0,0xFF,0x5B
30.802377203999999,0,0xFF,0x5B
30.802378688000001,0,0xFF,0x5B
30.802379311999999,0,0xFF,0x5B
30.802380796000001,0,0xFF,0x5B
30.802381420000000,0,0xFF,0x5B
30.802382907999998,0,0xFF,0x5B
30.802383532000000,0,0xFF,0x5B
30.802385015999999,0,0xFF,0x5B
30.802385640000001,0,0xFF,0x5B
30.802387123999999,0,0xFF,0x5B
30.802387752000001,0,0xFF,0x5B
30.802389236000000,0,0xFF,0x5B
30.802389860000002,0,0x55,0x5B
30.802391344000000,0,0x55,0x5B
30.802391967999998,0,0xFF,0x00
30.822292355999998,0,0xC2,0x5B
30.822292980000000,0,0x00,0x5B
30.822294104000001,0,0x00,0x0C
30.822294727999999,0,0x00,0x5B
30.822302340000000,0,0xC2,0x5B
30.822302963999999,0,0x00,0x5B
30.822304087999999,0,0x00,0x0C
30.822304712000001,0,0x00,0x5B
30.822307028000001,0,0x41,0x5B
30.822307651999999,0,0x00,0x5B
30.822308759999999,0,0x00,0x5B
30.822309384000000,0,0x51,0x5B
30.822311480000000,0,0x00,0x5B
30.822312104000002,0,0x00,0x5B
30.822313571999999,0,0xAA,0x5B
30.822314196000001,0,0xAA,0x5B
30.822315683999999,0,0xAA,0x5B
30.822316308000001,0,0xAA,0x5B
30.822317792000000,0,0x47,0x5B
30.822318416000002,0,0x00,0x5B
30.822319900000000,0,0x00,0x5B
30.822320523999998,0,0x00,0x5B
30.822322012000001,0,0xFF,0x5B
30.822322635999999,0,0xFF,0x5B
30.822324120000001,0,0xFF,0x5B
30.822324743999999,0,0xFF,0x5B
30.822326228000001,0,0xFF,0x5B
30.822326852000000,0,0xFF,0x5B
30.822328339999999,0,0xE0,0x5B
30.822328964000000,0,0x0E,0x5B
30.822330447999999,0,0xE1,0x5B
30.822331072000001,0,0xFF,0x5B
30.822332555999999,0,0xD3,0x5B
30.822333180000001,0,0xE2,0x5B
30.822334668000000,0,0x88,0x5B
30.822335292000002,0,0xE1,0x5B
30.822336776000000,0,0x01,0x5B
30.822337399999999,0,0x76,0x5B
30.822338884000001,0,0x60,0x5B
30.822339507999999,0,0x00,0x5B
30.822340996000001,0,0x00,0x5B
30.822341620000000,0,0x00,0x5B
30.822343104000002,0,0x00,0x5B
30.822343728000000,0,0x00,0x5B
30.822345211999998,0,0x00,0x5B
30.822345836000000,0,0x00,0x5B
30.822347323999999,0,0x00,0x5B
30.822347948000001,0,0x00,0x5B
30.822349431999999,0,0x00,0x5B
30.822350056000001,0,0x00,0x5B
30.822351540000000,0,0x00,0x5B
30.822352164000002,0,0x00,0x5B
30.822353652000000,0,0x00,0x5B
30.822354275999999,0,0x00,0x5B
30.822355760000001,0,0x00,0x5B
30.822356383999999,0,0x00,0x5B
30.822357868000001,0,0x00,0x5B
30.822358491999999,0,0x00,0x5B
30.822359980000002,0,0x00,0x5B
30.822360604000000,0,0x00,0x5B
30.822362087999998,0,0x02,0x5B
30.822362712000000,0,0xE0,0x5B
30.822364195999999,0,0x0E,0x5B
30.822364820000001,0,0xE1,0x5B
30.822366307999999,0,0xFF,0x5B
30.822366932000001,0,0xD3,0x5B
30.822368416000000,0,0xE2,0x5B
30.822369040000002,0,0x00,0x5B
30.822370524000000,0,0x00,0x5B
30.822371147999998,0,0x00,0x5B
30.822372636000001,0,0x00,0x5B
30.822373259999999,0,0x00,0x5B
30.822374744000001,0,0x00,0x5B
30.822375367999999,0,0x00,0x5B
30.822376852000001,0,0x00,0x5B
30.822377476000000,0,0x00,0x5B
30.822378963999999,0,0x00,0x5B
30.822379588000000,0,0xFF,0x5B
30.822381071999999,0,0xFF,0x5B
30.822381696000001,0,0xFF,0x5B
30.822383179999999,0,0xFF,0x5B
30.822383804000001,0,0xFF,0x5B
30.822385292000000,0,0xFF,0x5B
30.822385916000002,0,0xFF,0x5B
30.822387400000000,0,0xFF,0x5B
30.822388023999999,0,0xFF,0x5B
30.822389508000001,0,0xFF,0x5B
30.822390131999999,0,0xFF,0x5B
30.822391620000001,0,0xFF,0x5B
30.822392244000000,0,0xFF,0x5B
30.822393728000002,0,0xFF,0x5B
30.822394352000000,0,0xFF,0x5B
30.822395835999998,0,0xFF,0x5B
30.822396460000000,0,0x55,0x5B
30.822397947999999,0,0x55,0x5B
30.822398572000001,0,0xFF,0x00
30.842285300000000,0,0xC2,0x5B
30.842285923999999,0,0x00,0x5B
30.842287052000000,0,0x00,0x0C
30.842287676000002,0,0x00,0x5B
30.842295283999999,0,0xC2,0x5B
30.842295908000001,0,0x00,0x5B
30.842297036000001,0,0x00,0x0C
30.842297660000000,0,0x00,0x5B
30.842299971999999,0,0x41,0x5B
30.842300596000001,0,0x00,0x5B
30.842301708000001,0,0x00,0x5B
30.842302331999999,0,0x51,0x5B
30.842304424000002,0,0x00,0x5B
30.842305048000000,0,0x00,0x5B
30.842306520000001,0,0xAA,0x5B
30.842307143999999,0,0xAA,0x5B
30.842308628000001,0,0xAA,0x5B
30.842309252000000,0,0xAA,0x5B
30.842310736000002,0,0x47,0x5B
30.842311364000000,0,0x00,0x5B
30.842312847999999,0,0x00,0x5B
30.842313472000001,0,0x00,0x5B
30.842314955999999,0,0xFF,0x5B
30.842315580000001,0,0xFF,0x5B
30.842317064000000,0,0xFF,0x5B
30.842317692000002,0,0xFF,0x5B
30.842319176000000,0,0xFF,0x5B
30.842319799999999,0,0xFF,0x5B
30.842321284000001,0,0xE0,0x5B
30.842321907999999,0,0x0E,0x5B
30.842323396000001,0,0xE1,0x5B
30.842324020000000,0,0xFF,0x5B
30.842325504000002,0,0xD3,0x5B
30.842326128000000,0,0xE2,0x5B
30.842327611999998,0,0x88,0x5B
30.842328236000000,0,0xE1,0x5B
30.842329723999999,0,0x01,0x5B
30.842330348000001,0,0x76,0x5B
30.842331831999999,0,0x60,0x5B
30.842332456000001,0,0x00,0x5B
30.842333940000000,0,0x00,0x5B
30.842334564000002,0,0x00,0x5B
30.842336052000000,0,0x00,0x5B
30.842336675999999,0,0x00,0x5B
30.842338160000001,0,0x00,0x5B
30.842338783999999,0,0x00,0x5B
30.842340268000001,0,0x00,0x5B
30.842340891999999,0,0x00,0x5B
30.842342380000002,0,0x00,0x5B
30.842343004000000,0,0x00,0x5B
30.842344487999998,0,0x00,0x5B
30.842345112000000,0,0x00,0x5B
30.842346595999999,0,0x00,0x5B
30.842347220000001,0,0x00,0x5B
30.842348707999999,0,0x00,0x5B
30.842349332000001,0,0x00,0x5B
30.842350816000000,0,0x00,0x5B
30.842351440000002,0,0x00,0x5B
30.842352924000000,0,0x00,0x5B
30.842353547999998,0,0x00,0x5B
30.842355036000001,0,0x01,0x5B
30.842355659999999,0,0xE0,0x5B
30.842357144000001,0,0x0E,0x5B
30.842357767999999,0,0xE1,0x5B
30.842359252000001,0,0xFF,0x5B
30.842359876000000,0,0xD3,0x5B
30.842361363999999,0,0xE2,0x5B
30.842361988000000,0,0x00,0x5B
30.842363471999999,0,0x00,0x5B
30.842364096000001,0,0x00,0x5B
30.842365579999999,0,0x00,0x5B
30.842366204000001,0,0x00,0x5B
30.842367692000000,0,0x00,0x5B
30.842368316000002,0,0x00,0x5B
30.842369800000000,0,0x00,0x5B
30.842370423999999,0,0x00,0x5B
30.842371908000001,0,0x00,0x5B
30.842372531999999,0,0xFF,0x5B
30.842374020000001,0,0xFF,0x5B
30.842374644000000,0,0xFF,0x5B
30.842376128000002,0,0xFF,0x5B
30.842376752000000,0,0xFF,0x5B
30.842378235999998,0,0xFF,0x5B
30.842378860000000,0,0xFF,0x5B
30.842380347999999,0,0xFF,0x5B
30.842380972000001,0,0xFF,0x5B
30.842382455999999,0,0xFF,0x5B
30.842383080000001,0,0xFF,0x5B
30.842384564000000,0,0xFF,0x5B
30.842385188000002,0,0xFF,0x5B
30.842386676000000,0,0xFF,0x5B
30.842387299999999,0,0xFF,0x5B
30.842388784000001,0,0xFF,0x5B
30.842389407999999,0,0x55,0x5B
30.842390892000001,0,0x55,0x5B
30.842391515999999,0,0xFF,0x00
30.862301467999998,0,0xC2,0x5B
30.862302092000000,0,0x00,0x5B
30.862303216000001,0,0x00,0x0C
30.862303839999999,0,0x00,0x5B
30.862311452000000,0,0xC2,0x5B
30.862312075999998,0,0x00,0x5B
30.862313199999999,0,0x00,0x0C
30.862313824000001,0,0x00,0x5B
30.862316136000000,0,0x41,0x5B
30.862316759999999,0,0x00,0x5B
30.862317871999998,0,0x00,0x5B
30.862318496000000,0,0x51,0x5B
30.862320592000000,0,0x00,0x5B
30.862321216000002,0,0x00,0x5B
30.862322683999999,0,0xAA,0x5B
30.862323308000001,0,0xAA,0x5B
30.862324791999999,0,0xAA,0x5B
30.862325420000001,0,0xAA,0x5B
30.862326904000000,0,0x47,0x5B
30.862327528000002,0,0x00,0x5B
30.862329012000000,0,0x00,0x5B
30.862329635999998,0,0x00,0x5B
30.862331120000000,0,0xFF,0x5B
30.862331743999999,0,0xFF,0x5B
30.862333232000001,0,0xFF,0x5B
30.862333855999999,0,0xFF,0x5B
30.862335340000001,0,0xFF,0x5B
30.862335964000000,0,0xFF,0x5B
30.862337448000002,0,0xE0,0x5B
30.862338072000000,0,0x0E,0x5B
30.862339559999999,0,0xE1,0x5B
30.862340184000001,0,0xFF,0x5B
30.862341667999999,0,0xD3,0x5B
30.862342292000001,0,0xE2,0x5B
30.862343775999999,0,0x88,0x5B
30.862344404000002,0,0xE1,0x5B
30.862345888000000,0,0x01,0x5B
30.862346511999998,0,0x76,0x5B
30.862347996000000,0,0x60,0x5B
30.862348619999999,0,0x00,0x5B
30.862350104000001,0,0x00,0x5B
30.862350727999999,0,0x00,0x5B
30.862352216000001,0,0x00,0x5B
30.862352840000000,0,0x00,0x5B
30.862354323999998,0,0x00,0x5B
30.862354948000000,0,0x00,0x5B
30.862356431999999,0,0x00,0x5B
30.862357056000000,0,0x00,0x5B
30.862358543999999,0,0x00,0x5B
30.862359168000001,0,0x00,0x5B
30.862360652000000,0,0x00,0x5B
30.862361276000001,0,0x00,0x5B
30.862362760000000,0,0x00,0x5B
30.862363387999999,0,0x00,0x5B
30.862364872000001,0,0x00,0x5B
30.862365495999999,0,0x00,0x5B
30.862366980000001,0,0x00,0x5B
30.862367603999999,0,0x00,0x5B
30.862369088000001,0,0x00,0x5B
30.862369716000000,0,0x00,0x5B
30.862371199999998,0,0x00,0x5B
30.862371824000000,0,0xE0,0x5B
30.862373307999999,0,0x0E,0x5B
30.862373932000001,0,0xE1,0x5B
30.862375419999999,0,0xFF,0x5B
30.862376044000001,0,0xD3,0x5B
30.862377528000000,0,0xE2,0x5B
30.862378152000002,0,0x00,0x5B
30.862379636000000,0,0x00,0x5B
30.862380259999998,0,0x00,0x5B
30.862381744000000,0,0x00,0x5B
30.862382371999999,0,0x00,0x5B
30.862383856000001,0,0x00,0x5B
30.862384479999999,0,0x00,0x5B
30.862385964000001,0,0x00,0x5B
30.862386588000000,0,0x00,0x5B
30.862388072000002,0,0x00,0x5B
30.862388700000000,0,0xFF,0x5B
30.862390183999999,0,0xFF,0x5B
30.862390808000001,0,0xFF,0x5B
30.862392291999999,0,0xFF,0x5B
30.862392916000001,0,0xFF,0x5B
30.862394404000000,0,0xFF,0x5B
30.862395028000002,0,0xFF,0x5B
30.862396512000000,0,0xFF,0x5B
30.862397135999998,0,0xFF,0x5B
30.862398620000000,0,0xFF,0x5B
30.862399243999999,0,0xFF,0x5B
30.862400728000001,0,0xFF,0x5B
30.862401355999999,0,0xFF,0x5B
30.862402840000001,0,0xFF,0x5B
30.862403464000000,0,0xFF,0x5B
30.862404947999998,0,0xFF,0x5B
30.862405572000000,0,0x55,0x5B
30.862407059999999,0,0x55,0x5B
30.862407684000001,0,0xFF,0x00
30.882284567999999,0,0xCD,0x5B
30.882285192000001,0,0x00,0x5B
30.882286319999999,0,0x00,0x00
30.882286944000001,0,0x00,0x47
30.882288771999999,0,0x4D,0x47
30.882289396000001,0,0x00,0x47
30.882290504000000,0,0x00,0x47
30.882291131999999,0,0x00,0x47
30.882293191999999,0,0xCC,0x47
30.882293816000001,0,0x00,0x47
30.882294944000002,0,0x00,0x04
30.882295568000000,0,0x00,0x01
30.882298240000001,0,0xC3,0x01
30.882298863999999,0,0x00,0x01
30.882299988000000,0,0x00,0x00
30.882300615999998,0,0x00,0x8F
30.882302492000001,0,0x41,0x8F
30.882303115999999,0,0x00,0x8F
30.882304223999999,0,0x00,0x8F
30.882304848000000,0,0x8F,0x8F
30.882307036000000,0,0x80,0x8F
30.882307659999999,0,0x00,0x8F
30.882308804000001,0,0x00,0x00
30.882309427999999,0,0x00,0x00
30.882310864000001,0,0x00,0x00
30.882311487999999,0,0x00,0x8B
30.882312928000001,0,0x00,0xAA
30.882313551999999,0,0x00,0xAA
30.882314988000001,0,0x00,0xAA
30.882315616000000,0,0x00,0xAA
30.882317052000001,0,0x00,0x81
30.882317676000000,0,0x00,0x00
30.882319116000001,0,0x00,0x00
30.882319740000000,0,0x00,0x00
30.882321176000001,0,0x00,0xE0
30.882321800000000,0,0x00,0x0E
30.882323240000002,0,0x00,0xE1
30.882323864000000,0,0x00,0xFF
30.882325303999998,0,0x00,0xD3
30.882325928000000,0,0x00,0xE2
30.882327363999998,0,0x00,0xB8
30.882327988000000,0,0x00,0x27
30.882329427999998,0,0x00,0xEB
30.882330052000000,0,0x00,0x27
30.882331487999998,0,0x00,0x33
30.882332112000000,0,0x00,0x53
30.882333551999999,0,0x00,0x88
30.882334176000001,0,0x00,0xE1
30.882335615999999,0,0x00,0x01
30.882336240000001,0,0x00,0x6E
30.882337675999999,0,0x00,0x60
30.882338300000001,0,0x00,0x00
30.882339739999999,0,0x00,0x00
30.882340364000001,0,0x00,0x00
30.882341803999999,0,0x00,0x00
30.882342428000001,0,0x00,0xE0
30.882343863999999,0,0x00,0x0E
30.882344488000001,0,0x00,0xE1
30.882345927999999,0,0x00,0xFF
30.882346552000001,0,0x00,0xD3
30.882347987999999,0,0x00,0xE2
30.882348612000001,0,0x00,0xE0
30.882350052000000,0,0x00,0x0E
30.882350676000001,0,0x00,0xE1
30.882352116000000,0,0x00,0xFF
30.882352740000002,0,0x00,0xD3
30.882354176000000,0,0x00,0xE2
30.882354800000002,0,0x00,0x00
30.882356240000000,0,0x00,0x00
30.882356863999998,0,0x00,0x00
30.882358300000000,0,0x00,0x00
30.882358927999999,0,0x00,0x00
30.882360364000000,0,0x00,0x00
30.882360987999999,0,0x00,0x00
30.882362428000000,0,0x00,0x00
30.882363051999999,0,0x00,0x00
30.882364488000000,0,0x00,0x00
30.882365111999999,0,0x00,0x00
30.882366552000001,0,0x00,0x00
30.882367175999999,0,0x00,0x00
30.882368616000001,0,0x00,0x00
30.882369239999999,0,0x00,0x00
30.882370676000001,0,0x00,0x00
30.882371299999999,0,0x00,0x00
30.882372740000001,0,0x00,0x00
30.882373363999999,0,0x00,0x00
30.882374800000001,0,0x00,0x00
30.882375423999999,0,0x00,0x00
30.882376864000001,0,0x00,0x00
30.882377487999999,0,0x00,0x00
30.882378928000001,0,0x00,0x00
30.882379552000000,0,0x00,0x00
30.882380988000001,0,0x00,0x00
30.882381612000000,0,0x00,0x00
30.882383052000002,0,0x00,0x00
30.882383676000000,0,0x00,0x00
30.882385115999998,0,0x00,0x00
30.882385740000000,0,0x00,0x00
30.882387176000002,0,0x00,0x00
30.882387800000000,0,0x00,0x00
30.882389239999998,0,0x00,0x00
30.882389864000000,0,0x00,0x00
30.882391299999998,0,0x00,0x00
30.882391924000000,0,0x00,0x0A
30.882393363999999,0,0x00,0x3A
30.882393988000000,0,0x00,0x09
30.882395427999999,0,0x00,0x09
30.882396052000001,0,0x00,0x09
30.882397487999999,0,0x00,0x09
30.882398112000001,0,0x00,0x09
30.882399551999999,0,0x00,0x09
30.882400176000001,0,0x00,0x09
30.882401611999999,0,0x00,0x09
30.882402240000001,0,0x00,0x09
30.882403675999999,0,0x00,0x09
30.882404300000001,0,0x00,0x09
30.882405739999999,0,0x00,0x09
30.882406364000001,0,0x00,0x09
30.882407799999999,0,0x00,0x09
30.882408424000001,0,0x00,0x09
30.882409864000000,0,0x00,0x09
30.882410488000001,0,0x00,0x09
30.882411928000000,0,0x00,0x09
30.882412552000002,0,0x00,0x09
30.882413988000000,0,0x00,0x09
30.882414612000002,0,0x00,0x09
30.882416052000000,0,0x00,0x09
30.882416675999998,0,0x00,0x09
30.882418112000000,0,0x00,0x09
30.882418739999999,0,0x00,0x09
30.882420176000000,0,0x00,0x09
30.882420799999998,0,0x00,0x09
30.882422240000000,0,0x00,0x09
30.882422863999999,0,0x00,0x09
30.882424300000000,0,0x00,0x09
30.882424923999999,0,0x00,0x09
30.882426364000001,0,0x00,0x09
30.882426987999999,0,0x00,0x09
30.882428428000001,0,0x00,0x09
30.882429051999999,0,0x00,0x09
30.882430488000001,0,0x00,0x09
30.882431111999999,0,0x00,0x09
30.882432552000001,0,0x00,0x09
30.882433175999999,0,0x00,0x09
30.882434612000001,0,0x00,0x09
30.882435235999999,0,0x00,0x09
30.882436676000001,0,0x00,0x09
30.882437299999999,0,0x00,0x09
30.882438740000001,0,0x00,0x09
30.882439364000000,0,0x00,0x09
30.882440800000001,0,0x00,0x09
30.882441424000000,0,0x00,0x09
30.882442864000001,0,0x00,0x09
30.882443488000000,0,0x00,0x09
30.882444928000002,0,0x00,0x09
30.882445552000000,0,0x00,0x09
30.882446988000002,0,0x00,0x09
30.882447612000000,0,0x00,0x09
30.882449051999998,0,0x00,0x09
30.882449676000000,0,0x00,0x09
30.882451111999998,0,0x00,0x0F
30.882451736000000,0,0x00,0x13
30.882453175999999,0,0x00,0x19
30.882453800000000,0,0x00,0x55
30.882455239999999,0,0x00,0x55
30.882455864000001,0,0x00,0x00
30.882462583999999,0,0x4C,0x55
30.882463208000001,0,0x00,0x55
30.882464316000000,0,0x04,0x55
30.882464939999998,0,0x01,0x55
30.882467112000000,0,0xCD,0x55
30.882467735999999,0,0x00,0x55
30.882468864000000,0,0x00,0x00
30.882469488000002,0,0x00,0x00
30.882471332000001,0,0x4D,0x00
30.882471956000000,0,0x00,0x00
30.882473067999999,0,0x00,0x00
30.882473692000001,0,0x47,0x00
30.922291384000001,0,0xC2,0x00
30.922292007999999,0,0x00,0x00
30.922293132000000,0,0x00,0x0C
30.922293755999998,0,0x00,0x5B
30.922301212000001,0,0xC2,0x5B
30.922301835999999,0,0x00,0x5B
30.922302960000000,0,0x00,0x0C
30.922303584000002,0,0x00,0x5B
30.922305900000001,0,0x41,0x5B
30.922306524000000,0,0x00,0x5B
30.922307631999999,0,0x00,0x5B
30.922308256000001,0,0x50,0x5B
30.922310352000000,0,0x00,0x5B
30.922310975999999,0,0x00,0x5B
30.922312443999999,0,0xAA,0x5B
30.922313068000001,0,0xAA,0x5B
30.922314556000000,0,0xAA,0x5B
30.922315179999998,0,0xAA,0x5B
30.922316664000000,0,0x46,0x5B
30.922317287999999,0,0x00,0x5B
30.922318772000001,0,0x00,0x5B
30.922319395999999,0,0x00,0x5B
30.922320884000001,0,0xB8,0x5B
30.922321508000000,0,0x27,0x5B
30.922322992000002,0,0xEB,0x5B
30.922323616000000,0,0x27,0x5B
30.922325099999998,0,0x33,0x5B
30.922325724000000,0,0x53,0x5B
30.922327211999999,0,0xE0,0x5B
30.922327836000001,0,0x0E,0x5B
30.922329319999999,0,0xE1,0x5B
30.922329944000001,0,0xFF,0x5B
30.922331428000000,0,0xD3,0x5B
30.922332052000002,0,0xE2,0x5B
30.922333540000000,0,0x88,0x5B
30.922334163999999,0,0xE1,0x5B
30.922335648000001,0,0x01,0x5B
30.922336271999999,0,0x6F,0x5B
30.922337756000001,0,0x60,0x5B
30.922338379999999,0,0x00,0x5B
30.922339868000002,0,0x00,0x5B
30.922340492000000,0,0x00,0x5B
30.922341975999998,0,0x00,0x5B
30.922342600000000,0,0xE0,0x5B
30.922344083999999,0,0x0E,0x5B
30.922344708000001,0,0xE1,0x5B
30.922346195999999,0,0xFF,0x5B
30.922346820000001,0,0xD3,0x5B
30.922348304000000,0,0xE2,0x5B
30.922348928000002,0,0xE0,0x5B
30.922350412000000,0,0x0E,0x5B
30.922351035999998,0,0xE1,0x5B
30.922352524000001,0,0xFF,0x5B
30.922353147999999,0,0xD3,0x5B
30.922354632000001,0,0xE2,0x5B
30.922355255999999,0,0x00,0x5B
30.922356740000001,0,0x00,0x5B
30.922357364000000,0,0x00,0x5B
30.922358851999999,0,0x00,0x5B
30.922359476000000,0,0x00,0x5B
30.922360959999999,0,0x00,0x5B
30.922361584000001,0,0x00,0x5B
30.922363067999999,0,0x00,0x5B
30.922363692000001,0,0x00,0x5B
30.922365180000000,0,0x00,0x5B
30.922365803999998,0,0x00,0x5B
30.922367288000000,0,0x00,0x5B
30.922367911999999,0,0x00,0x5B
30.922369396000001,0,0x00,0x5B
30.922370019999999,0,0x00,0x5B
30.922371508000001,0,0x00,0x5B
30.922372132000000,0,0x00,0x5B
30.922373616000002,0,0x00,0x5B
30.922374240000000,0,0x00,0x5B
30.922375723999998,0,0x00,0x5B
30.922376348000000,0,0x00,0x5B
30.922377835999999,0,0x00,0x5B
30.922378460000001,0,0x00,0x5B
30.922379943999999,0,0x00,0x5B
30.922380568000001,0,0x00,0x5B
30.922382052000000,0,0x00,0x5B
30.922382676000002,0,0x00,0x5B
30.922384164000000,0,0x00,0x5B
30.922384787999999,0,0x00,0x5B
30.922386272000001,0,0x00,0x5B
30.922386895999999,0,0x00,0x5B
30.922388380000001,0,0x00,0x5B
30.922389003999999,0,0x00,0x5B
30.922390492000002,0,0x00,0x5B
30.922391116000000,0,0x00,0x5B
30.922392599999998,0,0x00,0x5B
30.922393224000000,0,0x00,0x5B
30.922394707999999,0,0x55,0x5B
30.922395332000001,0,0x55,0x5B
30.922396819999999,0,0x55,0x00
30.922397444000001,0,0xFF,0x00
31.822282644000001,0,0xC2,0x5B
31.822283268000000,0,0x00,0x5B
31.822284392000000,0,0x00,0x0C
31.822285015999999,0,0x00,0x5B
31.822293252000001,0,0xC2,0x5B
31.822293876000000,0,0x00,0x5B
31.822295004000001,0,0x00,0x0C
31.822295627999999,0,0x00,0x5B
31.822297939999999,0,0x41,0x5B
31.822298564000000,0,0x00,0x5B
31.822299672000000,0,0x00,0x5B
31.822300299999998,0,0x5F,0x5B
31.822302392000001,0,0x00,0x5B
31.822303015999999,0,0x00,0x5B
31.822304488000000,0,0xAA,0x5B
31.822305111999999,0,0xAA,0x5B
31.822306596000001,0,0xAA,0x5B
31.822307219999999,0,0xAA,0x5B
31.822308704000001,0,0x55,0x5B
31.822309327999999,0,0x00,0x5B
31.822310816000002,0,0x00,0x5B
31.822311440000000,0,0x00,0x5B
31.822312923999998,0,0xB8,0x5B
31.822313548000000,0,0x27,0x5B
31.822315031999999,0,0xEB,0x5B
31.822315656000001,0,0x27,0x5B
31.822317143999999,0,0x33,0x5B
31.822317768000001,0,0x53,0x5B
31.822319252000000,0,0xE0,0x5B
31.822319876000002,0,0x0E,0x5B
31.822321360000000,0,0xE1,0x5B
31.822321983999998,0,0xFF,0x5B
31.822323472000001,0,0xD3,0x5B
31.822324095999999,0,0xE2,0x5B
31.822325580000001,0,0x88,0x5B
31.822326203999999,0,0xE1,0x5B
31.822327688000001,0,0x01,0x5B
31.822328312000000,0,0x7C,0x5B
31.822329799999999,0,0x60,0x5B
31.822330424000000,0,0x00,0x5B
31.822331907999999,0,0x00,0x5B
31.822332532000001,0,0x00,0x5B
31.822334015999999,0,0x00,0x5B
31.822334640000001,0,0x3E,0x5B
31.822336128000000,0,0x00,0x5B
31.822336751999998,0,0x00,0x5B
31.822338236000000,0,0x00,0x5B
31.822338859999999,0,0x00,0x5B
31.822340344000001,0,0x00,0x5B
31.822340967999999,0,0x00,0x5B
31.822342456000001,0,0x00,0x5B
31.822343080000000,0,0x00,0x5B
31.822344564000002,0,0x00,0x5B
31.822345188000000,0,0x00,0x5B
31.822346671999998,0,0x00,0x5B
31.822347296000000,0,0x00,0x5B
31.822348783999999,0,0x00,0x5B
31.822349408000001,0,0x00,0x5B
31.822350891999999,0,0x00,0x5B
31.822351516000001,0,0x00,0x5B
31.822353000000000,0,0x00,0x5B
31.822353624000002,0,0x00,0x5B
31.822355112000000,0,0xE0,0x5B
31.822355735999999,0,0x0E,0x5B
31.822357220000001,0,0xE1,0x5B
31.822357843999999,0,0xFF,0x5B
31.822359328000001,0,0xD3,0x5B
31.822359951999999,0,0xE2,0x5B
31.822361440000002,0,0x00,0x5B
31.822362064000000,0,0x00,0x5B
31.822363547999998,0,0x00,0x5B
31.822364172000000,0,0x00,0x5B
31.822365655999999,0,0x00,0x5B
31.822366280000001,0,0x00,0x5B
31.822367767999999,0,0x00,0x5B
31.822368392000001,0,0x00,0x5B
31.822369876000000,0,0x00,0x5B
31.822370500000002,0,0x00,0x5B
31.822371984000000,0,0x00,0x5B
31.822372607999998,0,0x00,0x5B
31.822374096000001,0,0x00,0x5B
31.822374719999999,0,0x00,0x5B
31.822376204000001,0,0x00,0x5B
31.822376827999999,0,0x00,0x5B
31.822378312000001,0,0x00,0x5B
31.822378940000000,0,0xB8,0x5B
31.822380423999999,0,0x27,0x5B
31.822381048000000,0,0xEB,0x5B
31.822382531999999,0,0x27,0x5B
31.822383156000001,0,0x33,0x5B
31.822384639999999,0,0x53,0x5B
31.822385264000001,0,0xE0,0x5B
31.822386752000000,0,0x0E,0x5B
31.822387375999998,0,0xE1,0x5B
31.822388860000000,0,0xFF,0x5B
31.822389483999999,0,0xD3,0x5B
31.822390968000001,0,0xE2,0x5B
31.822391591999999,0,0x00,0x5B
31.822393080000001,0,0x00,0x5B
31.822393704000000,0,0x00,0x5B
31.822395188000002,0,0x00,0x5B
31.822395812000000,0,0x00,0x5B
31.822397295999998,0,0x00,0x5B
31.822397920000000,0,0x00,0x5B
31.822399407999999,0,0x00,0x5B
31.822400032000001,0,0x00,0x5B
31.822401515999999,0,0x00,0x5B
31.822402140000001,0,0x55,0x5B
31.822403624000000,0,0x55,0x5B
31.822404248000002,0,0x00,0x00
31.902274680000001,0,0xCD,0x5B
31.902275304000000,0,0x00,0x5B
31.902276428000000,0,0x00,0x00
31.902277051999999,0,0x00,0x47
31.902278884000001,0,0x4D,0x47
31.902279507999999,0,0x00,0x47
31.902280615999999,0,0x00,0x47
31.902281240000001,0,0x00,0x47
31.902283304000001,0,0xCC,0x47
31.902283927999999,0,0x00,0x47
31.902285052000000,0,0x00,0x04
31.902285679999999,0,0x00,0x01
31.902288351999999,0,0xC3,0x01
31.902288976000001,0,0x00,0x01
31.902290099999998,0,0x00,0x00
31.902290724000000,0,0x00,0x7B
31.902292599999999,0,0x41,0x7B
31.902293224000001,0,0x00,0x7B
31.902294336000001,0,0x00,0x7B
31.902294959999999,0,0x7B,0x7B
31.902297147999999,0,0x80,0x7B
31.902297772000001,0,0x00,0x7B
31.902298911999999,0,0x00,0x00
31.902299536000001,0,0x00,0x00
31.902300975999999,0,0x00,0x00
31.902301600000001,0,0x00,0x77
31.902303035999999,0,0x00,0xAA
31.902303660000001,0,0x00,0xAA
31.902305100000000,0,0x00,0xAA
31.902305724000001,0,0x00,0xAA
31.902307164000000,0,0x00,0x6D
31.902307788000002,0,0x00,0x00
31.902309224000000,0,0x00,0x00
31.902309848000002,0,0x00,0x00
31.902311288000000,0,0x00,0xE0
31.902311911999998,0,0x00,0x0E
31.902313352000000,0,0x00,0xE1
31.902313975999999,0,0x00,0xFF
31.902315412000000,0,0x00,0xD3
31.902316035999998,0,0x00,0xE2
31.902317476000000,0,0x00,0xB8
31.902318099999999,0,0x00,0x27
31.902319536000000,0,0x00,0xEB
31.902320159999999,0,0x00,0x27
31.902321600000001,0,0x00,0x33
31.902322223999999,0,0x00,0x53
31.902323664000001,0,0x00,0x88
31.902324287999999,0,0x00,0xE1
31.902325724000001,0,0x00,0x01
31.902326347999999,0,0x00,0x7D
31.902327788000001,0,0x00,0x60
31.902328411999999,0,0x00,0x00
31.902329848000001,0,0x00,0x00
31.902330475999999,0,0x00,0x00
31.902331912000001,0,0x00,0x00
31.902332535999999,0,0x00,0x56
31.902333976000001,0,0x00,0x00
31.902334600000000,0,0x00,0x00
31.902336036000001,0,0x00,0x00
31.902336660000000,0,0x00,0x00
31.902338100000001,0,0x00,0x00
31.902338724000000,0,0x00,0x00
31.902340164000002,0,0x00,0x00
31.902340788000000,0,0x00,0x00
31.902342224000002,0,0x00,0x00
31.902342848000000,0,0x00,0x00
31.902344287999998,0,0x00,0x00
31.902344912000000,0,0x00,0x00
31.902346347999998,0,0x00,0x00
31.902346976000000,0,0x00,0x00
31.902348411999998,0,0x00,0x00
31.902349036000000,0,0x00,0x00
31.902350475999999,0,0x00,0x00
31.902351100000001,0,0x00,0x00
31.902352535999999,0,0x00,0xE0
31.902353160000001,0,0x00,0x0E
31.902354599999999,0,0x00,0xE1
31.902355224000001,0,0x00,0xFF
31.902356663999999,0,0x00,0xD3
31.902357288000001,0,0x00,0xE2
31.902358723999999,0,0x00,0x00
31.902359348000001,0,0x00,0x00
31.902360787999999,0,0x00,0x00
31.902361412000001,0,0x00,0x00
31.902362847999999,0,0x00,0x00
31.902363472000001,0,0x00,0x00
31.902364911999999,0,0x00,0x00
31.902365536000001,0,0x00,0x00
31.902366976000000,0,0x00,0x00
31.902367600000002,0,0x00,0x00
31.902369036000000,0,0x00,0x00
31.902369660000002,0,0x00,0x00
31.902371100000000,0,0x00,0x00
31.902371724000002,0,0x00,0x00
31.902373160000000,0,0x00,0x00
31.902373787999998,0,0x00,0x00
31.902375224000000,0,0x00,0x00
31.902375847999998,0,0x00,0xB8
31.902377288000000,0,0x00,0x27
31.902377911999999,0,0x00,0xEB
31.902379348000000,0,0x00,0x27
31.902379971999999,0,0x00,0x33
31.902381412000000,0,0x00,0x53
31.902382035999999,0,0x00,0xE0
31.902383476000001,0,0x00,0x0E
31.902384099999999,0,0x00,0xE1
31.902385536000001,0,0x00,0xFF
31.902386159999999,0,0x00,0xD3
31.902387600000001,0,0x00,0xE2
31.902388223999999,0,0x00,0x00
31.902389660000001,0,0x00,0x00
31.902390287999999,0,0x00,0x00
31.902391724000001,0,0x00,0x00
31.902392347999999,0,0x00,0x00
31.902393788000001,0,0x00,0x00
31.902394412000000,0,0x00,0x00
31.902395848000001,0,0x00,0x00
31.902396472000000,0,0x00,0x00
31.902397912000001,0,0x00,0x00
31.902398536000000,0,0x00,0x01
31.902399976000002,0,0x00,0x02
31.902400600000000,0,0x00,0x03
31.902402036000002,0,0x00,0x04
31.902402660000000,0,0x00,0x05
31.902404099999998,0,0x00,0x06
31.902404724000000,0,0x00,0x07
31.902406160000002,0,0x00,0x00
31.902406784000000,0,0x00,0x77
31.902408223999998,0,0x00,0x77
31.902408848000000,0,0x00,0x62
31.902410287999999,0,0x00,0x08
31.902410912000001,0,0x00,0x77
31.902412347999999,0,0x00,0x77
31.902412972000000,0,0x00,0x77
31.902414411999999,0,0x00,0x77
31.902415036000001,0,0x00,0x77
31.902416475999999,0,0x00,0x77
31.902417100000001,0,0x00,0x77
31.902418535999999,0,0x00,0x77
31.902419160000001,0,0x00,0x77
31.902420599999999,0,0x00,0x77
31.902421224000001,0,0x00,0x77
31.902422659999999,0,0x00,0x77
31.902423284000001,0,0x00,0x55
31.902424723999999,0,0x00,0x55
31.902425348000001,0,0x00,0x00
31.902431832000001,0,0x4C,0x55
31.902432456000000,0,0x00,0x55
31.902433567999999,0,0x04,0x55
31.902434192000001,0,0x01,0x55
31.902436364000000,0,0xCD,0x55
31.902436988000002,0,0x00,0x55
31.902438115999999,0,0x00,0x00
31.902438740000001,0,0x00,0x00
31.902440584000001,0,0x4D,0x00
31.902441207999999,0,0x00,0x00
31.902442315999998,0,0x00,0x00
31.902442944000001,0,0x47,0x00
31.932263156000001,0,0xC2,0x00
31.932263775999999,0,0x00,0x00
31.932264904000000,0,0x00,0x0C
31.932265527999999,0,0x00,0x5B
31.932272888000000,0,0xC2,0x5B
31.932273511999998,0,0x00,0x5B
31.932274635999999,0,0x00,0x0C
31.932275264000001,0,0x00,0x5B
31.932277576000001,0,0x41,0x5B
31.932278199999999,0,0x00,0x5B
31.932279307999998,0,0x00,0x5B
31.932279932000000,0,0x46,0x5B
31.932282027999999,0,0x00,0x5B
31.932282652000001,0,0x00,0x5B
31.932284123999999,0,0xAA,0x5B
31.932284748000001,0,0xAA,0x5B
31.932286231999999,0,0xAA,0x5B
31.932286856000001,0,0xAA,0x5B
31.932288339999999,0,0x3C,0x5B
31.932288964000001,0,0x00,0x5B
31.932290448000000,0,0x00,0x5B
31.932291075999998,0,0x00,0x5B
31.932292560000000,0,0x00,0x5B
31.932293183999999,0,0xB0,0x5B
31.932294668000001,0,0x52,0x5B
31.932295291999999,0,0x00,0x5B
31.932296780000001,0,0x00,0x5B
31.932297404000000,0,0x01,0x5B
31.932298887999998,0,0xE0,0x5B
31.932299512000000,0,0x0E,0x5B
31.932300995999999,0,0xE1,0x5B
31.932301620000000,0,0xFF,0x5B
31.932303103999999,0,0xD3,0x5B
31.932303732000001,0,0xE2,0x5B
31.932305216000000,0,0x88,0x5B
31.932305840000001,0,0xE1,0x5B
31.932307324000000,0,0x01,0x5B
31.932307947999998,0,0x08,0x5B
31.932309432000000,0,0x60,0x5B
31.932310059999999,0,0x00,0x5B
31.932311544000001,0,0x00,0x5B
31.932312167999999,0,0x01,0x5B
31.932313652000001,0,0x00,0x5B
31.932314276000000,0,0x00,0x5B
31.932315763999998,0,0x00,0x5B
31.932316388000000,0,0x00,0x5B
31.932317871999999,0,0x00,0x5B
31.932318496000001,0,0x00,0x5B
31.932319979999999,0,0x00,0x5B
31.932320604000001,0,0x00,0x5B
31.932322092000000,0,0x04,0x5B
31.932322716000002,0,0x00,0x5B
31.932324200000000,0,0x00,0x5B
31.932324823999998,0,0x00,0x5B
31.932326308000000,0,0x00,0x5B
31.932326931999999,0,0x01,0x5B
31.932328420000001,0,0x02,0x5B
31.932329043999999,0,0x03,0x5B
31.932330528000001,0,0x04,0x5B
31.932331152000000,0,0x05,0x5B
31.932332636000002,0,0x06,0x5B
31.932333260000000,0,0x07,0x5B
31.932334747999999,0,0x01,0x5B
31.932335372000001,0,0x77,0x5B
31.932336855999999,0,0x77,0x5B
31.932337480000001,0,0x62,0x5B
31.932338963999999,0,0x08,0x5B
31.932339588000001,0,0x77,0x5B
31.932341076000000,0,0x77,0x5B
31.932341699999998,0,0x77,0x5B
31.932343184000000,0,0x77,0x5B
31.932343807999999,0,0x77,0x5B
31.932345292000001,0,0x77,0x5B
31.932345915999999,0,0x77,0x5B
31.932347404000001,0,0x77,0x5B
31.932348028000000,0,0x77,0x5B
31.932349511999998,0,0x77,0x5B
31.932350136000000,0,0x77,0x5B
31.932351619999999,0,0x77,0x5B
31.932352244000000,0,0x00,0x5B
31.932353731999999,0,0x00,0x5B
31.932354356000001,0,0x00,0x5B
31.932355840000000,0,0x55,0x5B
31.932356464000001,0,0x55,0x5B
31.932357948000000,0,0x00,0x00
31.932358571999998,0,0xB8,0x00
31.942274340000001,0,0xCD,0x5B
31.942274963999999,0,0x00,0x5B
31.942276088000000,0,0x00,0x00
31.942276712000002,0,0x00,0x47
31.942278540000000,0,0x4D,0x47
31.942279163999999,0,0x00,0x47
31.942280276000002,0,0x00,0x47
31.942280900000000,0,0x00,0x47
31.942282964000000,0,0xCC,0x47
31.942283587999999,0,0x00,0x47
31.942284711999999,0,0x00,0x04
31.942285336000001,0,0x00,0x01
31.942288007999998,0,0xC3,0x01
31.942288632000000,0,0x00,0x01
31.942289760000001,0,0x00,0x00
31.942290384000000,0,0x00,0x4A
31.942292259999999,0,0x41,0x4A
31.942292884000000,0,0x00,0x4A
31.942293992000000,0,0x00,0x4A
31.942294616000002,0,0x4A,0x4A
31.942296775999999,0,0x80,0x4A
31.942297400000001,0,0x00,0x4A
31.942298539999999,0,0x00,0x00
31.942299164000001,0,0x00,0x00
31.942300604000000,0,0x00,0x00
31.942301228000002,0,0x00,0x46
31.942302664000000,0,0x00,0xAA
31.942303288000002,0,0x00,0xAA
31.942304728000000,0,0x00,0xAA
31.942305352000002,0,0x00,0xAA
31.942306792000000,0,0x00,0x3C
31.942307415999998,0,0x00,0x00
31.942308852000000,0,0x00,0x00
31.942309475999998,0,0x00,0x00
31.942310916000000,0,0x00,0xE0
31.942311539999999,0,0x00,0x0E
31.942312976000000,0,0x00,0xE1
31.942313599999999,0,0x00,0xFF
31.942315040000000,0,0x00,0xD3
31.942315663999999,0,0x00,0xE2
31.942317104000001,0,0x00,0x04
31.942317727999999,0,0x00,0x65
31.942319164000001,0,0x00,0x65
31.942319787999999,0,0x00,0xFF
31.942321228000001,0,0x00,0xFF
31.942321851999999,0,0x00,0xFF
31.942323292000001,0,0x00,0x88
31.942323915999999,0,0x00,0xE1
31.942325352000001,0,0x00,0x01
31.942325975999999,0,0x00,0x09
31.942327416000001,0,0x00,0x60
31.942328040000000,0,0x00,0x00
31.942329476000001,0,0x00,0x00
31.942330100000000,0,0x00,0x01
31.942331540000001,0,0x00,0xFC
31.942332164000000,0,0x00,0x27
31.942333604000002,0,0x00,0xEA
31.942334228000000,0,0x00,0x3D
31.942335664000002,0,0x00,0x00
31.942336288000000,0,0x00,0x00
31.942337727999998,0,0x00,0x00
31.942338352000000,0,0x00,0x00
31.942339788000002,0,0x00,0x04
31.942340416000000,0,0x00,0x00
31.942341851999998,0,0x00,0x00
31.942342476000000,0,0x00,0xFF
31.942343915999999,0,0x00,0x00
31.942344540000001,0,0x00,0x00
31.942345975999999,0,0x00,0x00
31.942346600000000,0,0x00,0x00
31.942348039999999,0,0x00,0x00
31.942348664000001,0,0x00,0x00
31.942350103999999,0,0x00,0x00
31.942350728000001,0,0x00,0x00
31.942352163999999,0,0x00,0x00
31.942352788000001,0,0x00,0x00
31.942354227999999,0,0x00,0x00
31.942354852000001,0,0x00,0x00
31.942356287999999,0,0x00,0x00
31.942356912000001,0,0x00,0x00
31.942358351999999,0,0x00,0x00
31.942358976000001,0,0x00,0x00
31.942360416000000,0,0x00,0x00
31.942361040000002,0,0x00,0x00
31.942362476000000,0,0x00,0x00
31.942363100000001,0,0x00,0x00
31.942364540000000,0,0x00,0x00
31.942365164000002,0,0x00,0x00
31.942366604000000,0,0x00,0x00
31.942367227999998,0,0x00,0x00
31.942368664000000,0,0x00,0x00
31.942369287999998,0,0x00,0x00
31.942370728000000,0,0x00,0x00
31.942371351999999,0,0x00,0x00
31.942372788000000,0,0x00,0x55
31.942373411999998,0,0x00,0x55
31.942379211999999,0,0x4C,0x55
31.942379836000001,0,0x00,0x55
31.942380944000000,0,0x04,0x55
31.942381571999999,0,0x01,0x55
31.942383744000001,0,0xCD,0x55
31.942384367999999,0,0x00,0x55
31.942385492000000,0,0x00,0x00
31.942386116000002,0,0x00,0x00
31.942387960000001,0,0x4D,0x00
31.942388584000000,0,0x00,0x00
31.942389695999999,0,0x00,0x00
31.942390320000001,0,0x47,0x00
36.012223632000001,0,0xC2,0x00
36.012224256000003,0,0x00,0x00
36.012225379999997,0,0x00,0x0C
36.012226003999999,0,0x00,0x5B
36.012233739999999,0,0xC2,0x5B
36.012234364000001,0,0x00,0x5B
36.012235492000002,0,0x00,0x0C
36.012236115999997,0,0x00,0x5B
36.012238428000003,0,0x41,0x5B
36.012239051999998,0,0x00,0x5B
36.012240163999998,0,0x00,0x5B
36.012240788000000,0,0x52,0x5B
36.012242880000002,0,0x00,0x5B
36.012243503999997,0,0x00,0x5B
36.012244975999998,0,0xAA,0x5B
36.012245600000000,0,0xAA,0x5B
36.012247084000002,0,0xAA,0x5B
36.012247707999997,0,0xAA,0x5B
36.012249191999999,0,0x48,0x5B
36.012249816000001,0,0x00,0x5B
36.012251304000003,0,0x00,0x5B
36.012251927999998,0,0x00,0x5B
36.012253412000000,0,0x33,0x5B
36.012254036000002,0,0x33,0x5B
36.012255519999997,0,0x00,0x5B
36.012256143999998,0,0x00,0x5B
36.012257632000001,0,0x00,0x5B
36.012258256000003,0,0x01,0x5B
36.012259739999998,0,0xE0,0x5B
36.012260363999999,0,0x0E,0x5B
36.012261848000001,0,0xE1,0x5B
36.012262472000003,0,0xFF,0x5B
36.012263959999999,0,0xD3,0x5B
36.012264584000000,0,0xE2,0x5B
36.012266068000002,0,0x86,0x5B
36.012266691999997,0,0xDD,0x5B
36.012268175999999,0,0x60,0x5B
36.012268800000001,0,0x00,0x5B
36.012270288000003,0,0x00,0x5B
36.012270911999998,0,0x00,0x5B
36.012272396000000,0,0x00,0x5B
36.012273020000002,0,0x12,0x5B
36.012274503999997,0,0x11,0x5B
36.012275131999999,0,0x0A,0x5B
36.012276616000001,0,0xFE,0x5B
36.012277240000003,0,0x80,0x5B
36.012278723999998,0,0x00,0x5B
36.012279348000000,0,0x00,0x5B
36.012280832000002,0,0x00,0x5B
36.012281459999997,0,0x00,0x5B
36.012282943999999,0,0x00,0x5B
36.012283568000001,0,0x00,0x5B
36.012285052000003,0,0xE2,0x5B
36.012285675999998,0,0x0E,0x5B
36.012287160000000,0,0xE1,0x5B
36.012287788000002,0,0xFF,0x5B
36.012289271999997,0,0xFE,0x5B
36.012289895999999,0,0xFF,0x5B
36.012291380000001,0,0xD3,0x5B
36.012292004000003,0,0xE2,0x5B
36.012293491999998,0,0xFF,0x5B
36.012294116000000,0,0x02,0x5B
36.012295600000002,0,0x00,0x5B
36.012296224000004,0,0x00,0x5B
36.012297707999998,0,0x00,0x5B
36.012298332000000,0,0x00,0x5B
36.012299816000002,0,0x00,0x5B
36.012300443999997,0,0x00,0x5B
36.012301927999999,0,0x00,0x5B
36.012302552000001,0,0x00,0x5B
36.012304036000003,0,0x00,0x5B
36.012304659999998,0,0x00,0x5B
36.012306144000000,0,0x00,0x5B
36.012306772000002,0,0x00,0x5B
36.012308255999997,0,0x00,0x5B
36.012308879999999,0,0x01,0x5B
36.012310364000001,0,0xCC,0x5B
36.012310988000003,0,0x3D,0x5B
36.012312475999998,0,0x3B,0x5B
36.012313100000000,0,0x0E,0x5B
36.012314584000002,0,0x00,0x5B
36.012315207999997,0,0x12,0x5B
36.012316691999999,0,0xC2,0x5B
36.012317316000001,0,0x07,0x5B
36.012318804000003,0,0x01,0x5B
36.012319427999998,0,0xFE,0x5B
36.012320912000000,0,0x90,0x5B
36.012321536000002,0,0x00,0x5B
36.012323019999997,0,0x00,0x5B
36.012323643999999,0,0x00,0x5B
36.012325132000001,0,0x00,0x5B
36.012325756000003,0,0x02,0x5B
36.012327239999998,0,0x10,0x5B
36.012327864000000,0,0x00,0x5B
36.012329348000002,0,0x55,0x5B
36.012329972000003,0,0x55,0x5B
36.012331459999999,0,0xE2,0x00
36.012332084000001,0,0x00,0x00
36.082234204000002,0,0xCD,0x5B
36.082234827999997,0,0x00,0x5B
36.082235955999998,0,0x00,0x00
36.082236580000000,0,0x00,0x47
36.082238408000002,0,0x4D,0x47
36.082239031999997,0,0x00,0x47
36.082240143999996,0,0x00,0x47
36.082240767999998,0,0x00,0x47
36.082242831999999,0,0xCC,0x47
36.082243456000000,0,0x00,0x47
36.082244580000001,0,0x00,0x04
36.082245204000003,0,0x00,0x01
36.082247875999997,0,0xC3,0x01
36.082248499999999,0,0x00,0x01
36.082249628000000,0,0x00,0x00
36.082250252000001,0,0x00,0x68
36.082252128000000,0,0x41,0x68
36.082252752000002,0,0x00,0x68
36.082253860000002,0,0x00,0x68
36.082254484000003,0,0x68,0x68
36.082256643999997,0,0x80,0x68
36.082257267999999,0,0x00,0x68
36.082258408000001,0,0x00,0x00
36.082259032000003,0,0x00,0x00
36.082260472000002,0,0x00,0x00
36.082261096000003,0,0x00,0x64
36.082262532000001,0,0x00,0xAA
36.082263156000003,0,0x00,0xAA
36.082264596000002,0,0x00,0xAA
36.082265219999996,0,0x00,0xAA
36.082266656000002,0,0x00,0x5A
36.082267280000003,0,0x00,0x00
36.082268720000002,0,0x00,0x00
36.082269343999997,0,0x00,0x00
36.082270784000002,0,0x00,0xE0
36.082271407999997,0,0x00,0x0E
36.082272844000002,0,0x00,0xE1
36.082273467999997,0,0x00,0xFF
36.082274908000002,0,0x00,0xD3
36.082275531999997,0,0x00,0xE2
36.082276968000002,0,0x00,0xB8
36.082277595999997,0,0x00,0x27
36.082279032000002,0,0x00,0xEB
36.082279655999997,0,0x00,0x27
36.082281096000003,0,0x00,0x33
36.082281719999997,0,0x00,0x53
36.082283156000003,0,0x00,0x86
36.082283779999997,0,0x00,0xDD
36.082285220000003,0,0x00,0x60
36.082285843999998,0,0x00,0x00
36.082287284000003,0,0x00,0x00
36.082287907999998,0,0x00,0x00
36.082289344000003,0,0x00,0x00
36.082289967999998,0,0x00,0x24
36.082291408000003,0,0x00,0x11
36.082292031999998,0,0x00,0x0A
36.082293468000003,0,0x00,0xFE
36.082294095999998,0,0x00,0x80
36.082295532000003,0,0x00,0x00
36.082296155999998,0,0x00,0x00
36.082297595999997,0,0x00,0x00
36.082298219999998,0,0x00,0x00
36.082299656000004,0,0x00,0x00
36.082300279999998,0,0x00,0x00
36.082301719999997,0,0x00,0x18
36.082302343999999,0,0x00,0x1F
36.082303783999997,0,0x00,0xEF
36.082304407999999,0,0x00,0xDF
36.082305843999997,0,0x00,0x97
36.082306467999999,0,0x00,0xE5
36.082307907999997,0,0x00,0x21
36.082308531999999,0,0x00,0x91
36.082309967999997,0,0x00,0xFE
36.082310591999999,0,0x00,0x80
36.082312031999997,0,0x00,0x00
36.082312655999999,0,0x00,0x00
36.082314095999998,0,0x00,0x00
36.082314719999999,0,0x00,0x00
36.082316155999997,0,0x00,0x00
36.082316779999999,0,0x00,0x00
36.082318219999998,0,0x00,0xE2
36.082318844000000,0,0x00,0x0E
36.082320283999998,0,0x00,0xE1
36.082320908000000,0,0x00,0xFF
36.082322343999998,0,0x00,0xFE
36.082322968000000,0,0x00,0xFF
36.082324407999998,0,0x00,0xD3
36.082325032000000,0,0x00,0xE2
36.082326467999998,0,0x00,0x3B
36.082327092000000,0,0x00,0x0E
36.082328531999998,0,0x00,0xCC
36.082329156000000,0,0x00,0x3D
36.082330595999998,0,0x00,0x00
36.082331220000000,0,0x00,0x24
36.082332655999998,0,0x00,0x05
36.082333280000000,0,0x00,0xD9
36.082334719999999,0,0x00,0x01
36.082335344000001,0,0x00,0xFE
36.082336779999999,0,0x00,0x90
36.082337408000001,0,0x00,0x01
36.082338843999999,0,0x00,0x00
36.082339468000001,0,0x00,0x00
36.082340907999999,0,0x00,0x00
36.082341532000001,0,0x00,0x14
36.082342967999999,0,0x00,0xFE
36.082343592000001,0,0x00,0x80
36.082345031999999,0,0x00,0x00
36.082345656000001,0,0x00,0x00
36.082347095999999,0,0x00,0x00
36.082347720000001,0,0x00,0x00
36.082349155999999,0,0x00,0x00
36.082349780000001,0,0x00,0x00
36.082351220000000,0,0x00,0x18
36.082351844000002,0,0x00,0x1F
36.082353280000000,0,0x00,0xEF
36.082353904000001,0,0x00,0xDF
36.082355344000000,0,0x00,0x97
36.082355968000002,0,0x00,0xE5
36.082357408000000,0,0x00,0x21
36.082358032000002,0,0x00,0x91
36.082359468000000,0,0x00,0x3B
36.082360092000002,0,0x00,0x0E
36.082361532000000,0,0x00,0x10
36.082362156000002,0,0x00,0x00
36.082363596000000,0,0x00,0x55
36.082364220000002,0,0x00,0x55
36.082370687999997,0,0x4C,0x55
36.082371311999999,0,0x00,0x55
36.082372423999999,0,0x04,0x55
36.082373048000001,0,0x01,0x55
36.082375220000003,0,0xCD,0x55
36.082375843999998,0,0x00,0x55
36.082376967999998,0,0x00,0x00
36.082377592000000,0,0x00,0x00
36.082379435999997,0,0x4D,0x00
36.082380063999999,0,0x00,0x00
36.082381171999998,0,0x00,0x00
36.082381796000000,0,0x47,0x00
36.652217448000002,0,0xC2,0x00
36.652218071999997,0,0x00,0x00
36.652219199999998,0,0x00,0x0C
36.652219823999999,0,0x00,0x5B
36.652227775999997,0,0xC2,0x5B
36.652228399999998,0,0x00,0x5B
36.652229527999999,0,0x00,0x0C
36.652230152000001,0,0x00,0x5B
36.652232464000001,0,0x41,0x5B
36.652233088000003,0,0x00,0x5B
36.652234200000002,0,0x00,0x5B
36.652234823999997,0,0x60,0x5B
36.652236916000000,0,0x00,0x5B
36.652237540000002,0,0x00,0x5B
36.652239012000003,0,0xAA,0x5B
36.652239635999997,0,0xAA,0x5B
36.652241119999999,0,0xAA,0x5B
36.652241744000001,0,0xAA,0x5B
36.652243228000003,0,0x56,0x5B
36.652243851999998,0,0x00,0x5B
36.652245340000000,0,0x00,0x5B
36.652245964000002,0,0x00,0x5B
36.652247447999997,0,0x33,0x5B
36.652248071999999,0,0x33,0x5B
36.652249556000001,0,0xFF,0x5B
36.652250180000003,0,0xE5,0x5B
36.652251667999998,0,0x21,0x5B
36.652252292000000,0,0x91,0x5B
36.652253776000002,0,0xE0,0x5B
36.652254399999997,0,0x0E,0x5B
36.652255883999999,0,0xE1,0x5B
36.652256512000001,0,0xFF,0x5B
36.652257996000003,0,0xD3,0x5B
36.652258619999998,0,0xE2,0x5B
36.652260104000000,0,0x86,0x5B
36.652260728000002,0,0xDD,0x5B
36.652262211999997,0,0x60,0x5B
36.652262839999999,0,0x00,0x5B
36.652264324000001,0,0x00,0x5B
36.652264948000003,0,0x00,0x5B
36.652266431999998,0,0x00,0x5B
36.652267055999999,0,0x20,0x5B
36.652268540000001,0,0x3A,0x5B
36.652269167999997,0,0xFF,0x5B
36.652270651999999,0,0xFE,0x5B
36.652271276000000,0,0x80,0x5B
36.652272760000002,0,0x00,0x5B
36.652273383999997,0,0x00,0x5B
36.652274867999999,0,0x00,0x5B
36.652275496000001,0,0x00,0x5B
36.652276980000003,0,0x00,0x5B
36.652277603999998,0,0x00,0x5B
36.652279088000000,0,0xE2,0x5B
36.652279712000002,0,0x0E,0x5B
36.652281199999997,0,0xE1,0x5B
36.652281823999999,0,0xFF,0x5B
36.652283308000001,0,0xFE,0x5B
36.652283932000003,0,0xFF,0x5B
36.652285415999998,0,0xD3,0x5B
36.652286040000000,0,0xE2,0x5B
36.652287528000002,0,0xFF,0x5B
36.652288151999997,0,0x02,0x5B
36.652289635999999,0,0x00,0x5B
36.652290260000001,0,0x00,0x5B
36.652291744000003,0,0x00,0x5B
36.652292367999998,0,0x00,0x5B
36.652293856000000,0,0x00,0x5B
36.652294480000002,0,0x00,0x5B
36.652295963999997,0,0x00,0x5B
36.652296587999999,0,0x00,0x5B
36.652298072000001,0,0x00,0x5B
36.652298696000003,0,0x01,0x5B
36.652300183999998,0,0xFF,0x5B
36.652300808000000,0,0xE5,0x5B
36.652302292000002,0,0x21,0x5B
36.652302915999996,0,0x91,0x5B
36.652304399999998,0,0x87,0x5B
36.652305024000000,0,0x00,0x5B
36.652306512000003,0,0x6B,0x5B
36.652307135999997,0,0xCE,0x5B
36.652308619999999,0,0x00,0x5B
36.652309244000001,0,0x00,0x5B
36.652310728000003,0,0x00,0x5B
36.652311351999998,0,0x00,0x5B
36.652312840000000,0,0xFE,0x5B
36.652313464000002,0,0x80,0x5B
36.652314947999997,0,0x00,0x5B
36.652315571999999,0,0x00,0x5B
36.652317056000001,0,0x00,0x5B
36.652317680000003,0,0x00,0x5B
36.652319167999998,0,0x00,0x5B
36.652319792000000,0,0x00,0x5B
36.652321276000002,0,0x18,0x5B
36.652321899999997,0,0x1F,0x5B
36.652323383999999,0,0xEF,0x5B
36.652324008000001,0,0xDF,0x5B
36.652325496000003,0,0x97,0x5B
36.652326119999998,0,0xE5,0x5B
36.652327604000000,0,0x21,0x5B
36.652328228000002,0,0x91,0x5B
36.652329711999997,0,0x01,0x5B
36.652330335999999,0,0x01,0x5B
36.652331824000001,0,0xE0,0x5B
36.652332448000003,0,0x0E,0x5B
36.652333931999998,0,0xE1,0x5B
36.652334556000000,0,0xFF,0x5B
36.652336040000002,0,0xD3,0x5B
36.652336664000003,0,0xE2,0x5B
36.652338151999999,0,0x55,0x5B
36.652338776000001,0,0x55,0x5B
36.652340260000003,0,0x00,0x00
36.652340883999997,0,0x00,0x00
36.662244960000002,0,0xCD,0x5B
36.662245583999997,0,0x00,0x5B
36.662246711999998,0,0x00,0x00
36.662247336000000,0,0x00,0x47
36.662249164000002,0,0x4D,0x47
36.662249787999997,0,0x00,0x47
36.662250899999997,0,0x00,0x47
36.662251523999998,0,0x00,0x47
36.662253587999999,0,0xCC,0x47
36.662254212000001,0,0x00,0x47
36.662255336000001,0,0x00,0x04
36.662255960000003,0,0x00,0x01
36.662258631999997,0,0xC3,0x01
36.662259255999999,0,0x00,0x01
36.662260384000000,0,0x00,0x00
36.662261008000002,0,0x00,0x64
36.662262884000000,0,0x41,0x64
36.662263508000002,0,0x00,0x64
36.662264616000002,0,0x00,0x64
36.662265240000004,0,0x64,0x64
36.662267399999998,0,0x80,0x64
36.662268023999999,0,0x00,0x64
36.662269164000001,0,0x00,0x00
36.662269788000003,0,0x00,0x00
36.662271228000002,0,0x00,0x00
36.662271852000003,0,0x00,0x60
36.662273288000002,0,0x00,0xAA
36.662273912000003,0,0x00,0xAA
36.662275352000002,0,0x00,0xAA
36.662275975999997,0,0x00,0xAA
36.662277412000002,0,0x00,0x56
36.662278039999997,0,0x00,0x00
36.662279476000002,0,0x00,0x00
36.662280099999997,0,0x00,0x00
36.662281540000002,0,0x00,0xE0
36.662282163999997,0,0x00,0x0E
36.662283600000002,0,0x00,0xE1
36.662284223999997,0,0x00,0xFF
36.662285664000002,0,0x00,0xD3
36.662286287999997,0,0x00,0xE2
36.662287728000003,0,0x00,0xB8
36.662288351999997,0,0x00,0x27
36.662289788000002,0,0x00,0xEB
36.662290411999997,0,0x00,0x27
36.662291852000003,0,0x00,0x33
36.662292475999998,0,0x00,0x53
36.662293912000003,0,0x00,0x86
36.662294535999997,0,0x00,0xDD
36.662295976000003,0,0x00,0x60
36.662296599999998,0,0x00,0x00
36.662298040000003,0,0x00,0x00
36.662298663999998,0,0x00,0x00
36.662300100000003,0,0x00,0x00
36.662300723999998,0,0x00,0x20
36.662302164000003,0,0x00,0x3A
36.662302787999998,0,0x00,0xFF
36.662304228000004,0,0x00,0xFE
36.662304851999998,0,0x00,0x80
36.662306288000003,0,0x00,0x00
36.662306911999998,0,0x00,0x00
36.662308351999997,0,0x00,0x00
36.662308975999998,0,0x00,0x00
36.662310411999997,0,0x00,0x00
36.662311035999998,0,0x00,0x00
36.662312475999997,0,0x00,0x18
36.662313099999999,0,0x00,0x1F
36.662314539999997,0,0x00,0xEF
36.662315163999999,0,0x00,0xDF
36.662316599999997,0,0x00,0x97
36.662317223999999,0,0x00,0xE5
36.662318663999997,0,0x00,0x21
36.662319287999999,0,0x00,0x91
36.662320727999997,0,0x00,0xFE
36.662321351999999,0,0x00,0x80
36.662322787999997,0,0x00,0x00
36.662323411999999,0,0x00,0x00
36.662324851999998,0,0x00,0x00
36.662325475999999,0,0x00,0x00
36.662326911999997,0,0x00,0x00
36.662327535999999,0,0x00,0x00
36.662328975999998,0,0x00,0xE2
36.662329600000000,0,0x00,0x0E
36.662331039999998,0,0x00,0xE1
36.662331664000000,0,0x00,0xFF
36.662333099999998,0,0x00,0xFE
36.662333724000000,0,0x00,0xFF
36.662335163999998,0,0x00,0xD3
36.662335788000000,0,0x00,0xE2
36.662337223999998,0,0x00,0x88
36.662337848000000,0,0x00,0x00
36.662339287999998,0,0x00,0x29
36.662339912000000,0,0x00,0xA1
36.662341351999999,0,0x00,0x60
36.662341976000000,0,0x00,0x00
36.662343411999998,0,0x00,0x00
36.662344036000000,0,0x00,0x00
36.662345475999999,0,0x00,0xFE
36.662346100000001,0,0x00,0x80
36.662347539999999,0,0x00,0x00
36.662348164000001,0,0x00,0x00
36.662349599999999,0,0x00,0x00
36.662350224000001,0,0x00,0x00
36.662351663999999,0,0x00,0x00
36.662352288000001,0,0x00,0x00
36.662353723999999,0,0x00,0x18
36.662354348000001,0,0x00,0x1F
36.662355787999999,0,0x00,0xEF
36.662356412000001,0,0x00,0xDF
36.662357852000000,0,0x00,0x97
36.662358476000001,0,0x00,0xE5
36.662359911999999,0,0x00,0x21
36.662360536000001,0,0x00,0x91
36.662361976000000,0,0x00,0x02
36.662362600000002,0,0x00,0x01
36.662364040000000,0,0x00,0xB8
36.662364664000002,0,0x00,0x27
36.662366100000000,0,0x00,0xEB
36.662366724000002,0,0x00,0x27
36.662368164000000,0,0x00,0x33
36.662368788000002,0,0x00,0x53
36.662370224000000,0,0x00,0x55
36.662370848000002,0,0x00,0x55
36.662377147999997,0,0x4C,0x55
36.662377771999999,0,0x00,0x55
36.662378879999999,0,0x04,0x55
36.662379508000001,0,0x01,0x55
36.662381680000003,0,0xCD,0x55
36.662382303999998,0,0x00,0x55
36.662383427999998,0,0x00,0x00
36.662384052000000,0,0x00,0x00
36.662385896000004,0,0x4D,0x00
36.662386519999998,0,0x00,0x00
36.662387631999998,0,0x00,0x00
36.662388256000000,0,0x47,0x00
36.692217063999998,0,0xC2,0x00
36.692217687999999,0,0x00,0x00
36.692218812000000,0,0x00,0x0C
36.692219436000002,0,0x00,0x5B
36.692227264000003,0,0xC2,0x5B
36.692227887999998,0,0x00,0x5B
36.692229015999999,0,0x00,0x0C
36.692229640000001,0,0x00,0x5B
36.692231952000000,0,0x41,0x5B
36.692232576000002,0,0x00,0x5B
36.692233688000002,0,0x00,0x5B
36.692234311999997,0,0x5C,0x5B
36.692236403999999,0,0x00,0x5B
36.692237032000001,0,0x00,0x5B
36.692238500000002,0,0xAA,0x5B
36.692239123999997,0,0xAA,0x5B
36.692240607999999,0,0xAA,0x5B
36.692241232000001,0,0xAA,0x5B
36.692242720000003,0,0x52,0x5B
36.692243343999998,0,0x00,0x5B
36.692244828000000,0,0x00,0x5B
36.692245452000002,0,0x00,0x5B
36.692246935999997,0,0xB8,0x5B
36.692247559999998,0,0x27,0x5B
36.692249048000001,0,0xEB,0x5B
36.692249672000003,0,0x27,0x5B
36.692251155999998,0,0x33,0x5B
36.692251779999999,0,0x53,0x5B
36.692253264000001,0,0xE0,0x5B
36.692253888000003,0,0x0E,0x5B
36.692255375999999,0,0xE1,0x5B
36.692256000000000,0,0xFF,0x5B
36.692257484000002,0,0xD3,0x5B
36.692258107999997,0,0xE2,0x5B
36.692259591999999,0,0x86,0x5B
36.692260216000001,0,0xDD,0x5B
36.692261704000003,0,0x60,0x5B
36.692262327999998,0,0x00,0x5B
36.692263812000000,0,0x00,0x5B
36.692264436000002,0,0x00,0x5B
36.692265919999997,0,0x00,0x5B
36.692266543999999,0,0x1C,0x5B
36.692268032000001,0,0x06,0x5B
36.692268656000003,0,0x0A,0x5B
36.692270139999998,0,0xFE,0x5B
36.692270764000000,0,0x80,0x5B
36.692272248000002,0,0x00,0x5B
36.692272871999997,0,0x00,0x5B
36.692274359999999,0,0x00,0x5B
36.692274984000001,0,0x00,0x5B
36.692276468000003,0,0x00,0x5B
36.692277091999998,0,0x00,0x5B
36.692278576000000,0,0xE2,0x5B
36.692279200000002,0,0x0E,0x5B
36.692280687999997,0,0xE1,0x5B
36.692281311999999,0,0xFF,0x5B
36.692282796000001,0,0xFE,0x5B
36.692283420000003,0,0xFF,0x5B
36.692284903999997,0,0xD3,0x5B
36.692285527999999,0,0xE2,0x5B
36.692287016000002,0,0xFE,0x5B
36.692287640000004,0,0x80,0x5B
36.692289123999998,0,0x00,0x5B
36.692289748000000,0,0x00,0x5B
36.692291232000002,0,0x00,0x5B
36.692291855999997,0,0x00,0x5B
36.692293343999999,0,0x00,0x5B
36.692293968000001,0,0x00,0x5B
36.692295452000003,0,0x18,0x5B
36.692296075999998,0,0x1F,0x5B
36.692297560000000,0,0xEF,0x5B
36.692298184000002,0,0xDF,0x5B
36.692299671999997,0,0x97,0x5B
36.692300295999999,0,0xE5,0x5B
36.692301780000001,0,0x21,0x5B
36.692302404000003,0,0x91,0x5B
36.692303887999998,0,0xCC,0x5B
36.692304512000000,0,0x7F,0x5B
36.692306000000002,0,0x3B,0x5B
36.692306623999997,0,0x0E,0x5B
36.692308107999999,0,0x00,0x5B
36.692308732000001,0,0x00,0x5B
36.692310216000003,0,0x18,0x5B
36.692310843999998,0,0xFD,0x5B
36.692312328000000,0,0x00,0x5B
36.692312952000002,0,0x00,0x5B
36.692314435999997,0,0x00,0x5B
36.692315059999999,0,0x00,0x5B
36.692316544000001,0,0x70,0x5B
36.692317168000002,0,0x02,0x5B
36.692318655999998,0,0x05,0x5B
36.692319280000000,0,0xDC,0x5B
36.692320764000002,0,0x10,0x5B
36.692321388000003,0,0xA9,0x5B
36.692322871999998,0,0x00,0x5B
36.692323496000000,0,0x00,0x5B
36.692324984000003,0,0x02,0x5B
36.692325607999997,0,0x04,0x5B
36.692327091999999,0,0x01,0x5B
36.692327716000001,0,0x5E,0x5B
36.692329200000003,0,0x00,0x5B
36.692329827999998,0,0x00,0x5B
36.692331312000000,0,0x00,0x5B
36.692331936000002,0,0x00,0x5B
36.692333419999997,0,0x55,0x5B
36.692334043999999,0,0x55,0x5B
36.692335528000001,0,0xD3,0x00
36.692336156000003,0,0xE2,0x00
36.702228216000002,0,0xCD,0x5B
36.702228839999997,0,0x00,0x5B
36.702229963999997,0,0x00,0x00
36.702230591999999,0,0x00,0x47
36.702232420000001,0,0x4D,0x47
36.702233044000003,0,0x00,0x47
36.702234152000003,0,0x00,0x47
36.702234775999997,0,0x00,0x47
36.702236839999998,0,0xCC,0x47
36.702237464000000,0,0x00,0x47
36.702238592000000,0,0x00,0x04
36.702239216000002,0,0x00,0x01
36.702241888000003,0,0xC3,0x01
36.702242511999998,0,0x00,0x01
36.702243635999999,0,0x00,0x00
36.702244260000001,0,0x00,0x5C
36.702246135999999,0,0x41,0x5C
36.702246760000001,0,0x00,0x5C
36.702247872000001,0,0x00,0x5C
36.702248496000003,0,0x5C,0x5C
36.702250651999996,0,0x80,0x5C
36.702251275999998,0,0x00,0x5C
36.702252420000001,0,0x00,0x00
36.702253044000003,0,0x00,0x00
36.702254480000001,0,0x00,0x00
36.702255104000002,0,0x00,0x58
36.702256544000001,0,0x00,0xAA
36.702257168000003,0,0x00,0xAA
36.702258604000001,0,0x00,0xAA
36.702259232000003,0,0x00,0xAA
36.702260668000001,0,0x00,0x4E
36.702261292000003,0,0x00,0x00
36.702262732000001,0,0x00,0x00
36.702263356000003,0,0x00,0x00
36.702264792000001,0,0x00,0xE0
36.702265416000003,0,0x00,0x0E
36.702266856000001,0,0x00,0xE1
36.702267480000003,0,0x00,0xFF
36.702268920000002,0,0x00,0xD3
36.702269544000004,0,0x00,0xE2
36.702270980000002,0,0x00,0xB8
36.702271604000003,0,0x00,0x27
36.702273044000002,0,0x00,0xEB
36.702273667999997,0,0x00,0x27
36.702275104000002,0,0x00,0x33
36.702275727999996,0,0x00,0x53
36.702277168000002,0,0x00,0x86
36.702277791999997,0,0x00,0xDD
36.702279232000002,0,0x00,0x60
36.702279855999997,0,0x00,0x03
36.702281292000002,0,0x00,0xB3
36.702281915999997,0,0x00,0x51
36.702283356000002,0,0x00,0x00
36.702283979999997,0,0x00,0x18
36.702285420000003,0,0x00,0x06
36.702286043999997,0,0x00,0x40
36.702287480000003,0,0x00,0xFE
36.702288103999997,0,0x00,0x80
36.702289544000003,0,0x00,0x00
36.702290167999998,0,0x00,0x00
36.702291604000003,0,0x00,0x00
36.702292227999997,0,0x00,0x00
36.702293668000003,0,0x00,0x00
36.702294291999998,0,0x00,0x00
36.702295732000003,0,0x00,0x18
36.702296355999998,0,0x00,0x1F
36.702297792000003,0,0x00,0xEF
36.702298415999998,0,0x00,0xDF
36.702299856000003,0,0x00,0x97
36.702300479999998,0,0x00,0xE5
36.702301919999996,0,0x00,0x21
36.702302543999998,0,0x00,0x91
36.702303980000003,0,0x00,0xFE
36.702304603999998,0,0x00,0x80
36.702306043999997,0,0x00,0x00
36.702306667999999,0,0x00,0x00
36.702308103999997,0,0x00,0x00
36.702308727999998,0,0x00,0x00
36.702310167999997,0,0x00,0x00
36.702310791999999,0,0x00,0x00
36.702312231999997,0,0x00,0xE2
36.702312855999999,0,0x00,0x0E
36.702314291999997,0,0x00,0xE1
36.702314915999999,0,0x00,0xFF
36.702316355999997,0,0x00,0xFE
36.702316979999999,0,0x00,0xFF
36.702318415999997,0,0x00,0xD3
36.702319039999999,0,0x00,0xE2
36.702320479999997,0,0x00,0x3B
36.702321103999999,0,0x00,0x0E
36.702322543999998,0,0x00,0xCC
36.702323167999999,0,0x00,0x7F
36.702324603999998,0,0x00,0x84
36.702325227999999,0,0x00,0x4F
36.702326667999998,0,0x00,0x61
36.702327292000000,0,0x00,0xA7
36.702328731999998,0,0x00,0x00
36.702329356000000,0,0x00,0x00
36.702330791999998,0,0x00,0x18
36.702331416000000,0,0x00,0xFE
36.702332855999998,0,0x00,0x60
36.702333480000000,0,0x00,0x12
36.702334915999998,0,0x00,0x70
36.702335540000000,0,0x00,0x80
36.702336979999998,0,0x00,0xCB
36.702337604000000,0,0x00,0xBE
36.702339043999999,0,0x00,0x00
36.702339668000000,0,0x00,0x00
36.702341103999998,0,0x00,0x02
36.702341728000000,0,0x00,0x04
36.702343167999999,0,0x00,0x05
36.702343792000001,0,0x00,0xA0
36.702345231999999,0,0x00,0x55
36.702345856000001,0,0x00,0x55
36.702352152000003,0,0x4C,0x55
36.702352775999998,0,0x00,0x55
36.702353887999998,0,0x04,0x55
36.702354511999999,0,0x01,0x55
36.702356684000002,0,0xCD,0x55
36.702357308000003,0,0x00,0x55
36.702358431999997,0,0x00,0x00
36.702359055999999,0,0x00,0x00
36.702360900000002,0,0x4D,0x00
36.702361527999997,0,0x00,0x00
36.702362635999997,0,0x00,0x00
36.702363259999998,0,0x47,0x00
36.732216676000000,0,0xC2,0x00
36.732217300000002,0,0x00,0x00
36.732218428000003,0,0x00,0x0C
36.732219051999998,0,0x00,0x5B
36.732226627999999,0,0xC2,0x5B
36.732227252000001,0,0x00,0x5B
36.732228380000002,0,0x00,0x0C
36.732229003999997,0,0x00,0x5B
36.732231315999996,0,0x41,0x5B
36.732231939999998,0,0x00,0x5B
36.732233051999998,0,0x00,0x5B
36.732233676000000,0,0x54,0x5B
36.732235768000002,0,0x00,0x5B
36.732236395999998,0,0x00,0x5B
36.732237863999998,0,0xAA,0x5B
36.732238488000000,0,0xAA,0x5B
36.732239972000002,0,0xAA,0x5B
36.732240595999997,0,0xAA,0x5B
36.732242083999999,0,0x4A,0x5B
36.732242708000001,0,0x00,0x5B
36.732244192000003,0,0x00,0x5B
36.732244815999998,0,0x00,0x5B
36.732246300000000,0,0xB8,0x5B
36.732246924000002,0,0x27,0x5B
36.732248411999997,0,0xEB,0x5B
36.732249035999999,0,0x27,0x5B
36.732250520000001,0,0x33,0x5B
36.732251144000003,0,0x53,0x5B
36.732252627999998,0,0xE0,0x5B
36.732253252000000,0,0x0E,0x5B
36.732254740000002,0,0xE1,0x5B
36.732255363999997,0,0xFF,0x5B
36.732256847999999,0,0xD3,0x5B
36.732257472000001,0,0xE2,0x5B
36.732258956000003,0,0x86,0x5B
36.732259579999997,0,0xDD,0x5B
36.732261068000000,0,0x60,0x5B
36.732261692000002,0,0x00,0x5B
36.732263175999996,0,0x00,0x5B
36.732263799999998,0,0x00,0x5B
36.732265284000000,0,0x00,0x5B
36.732265908000002,0,0x14,0x5B
36.732267395999997,0,0x06,0x5B
36.732268019999999,0,0x0A,0x5B
36.732269504000001,0,0xFE,0x5B
36.732270128000003,0,0x80,0x5B
36.732271611999998,0,0x00,0x5B
36.732272236000000,0,0x00,0x5B
36.732273724000002,0,0x00,0x5B
36.732274347999997,0,0x00,0x5B
36.732275831999999,0,0x00,0x5B
36.732276456000001,0,0x00,0x5B
36.732277940000003,0,0xE2,0x5B
36.732278563999998,0,0x0E,0x5B
36.732280052000000,0,0xE1,0x5B
36.732280676000002,0,0xFF,0x5B
36.732282159999997,0,0xFE,0x5B
36.732282783999999,0,0xFF,0x5B
36.732284268000001,0,0xD3,0x5B
36.732284892000003,0,0xE2,0x5B
36.732286379999998,0,0xFE,0x5B
36.732287004000000,0,0x80,0x5B
36.732288488000002,0,0x00,0x5B
36.732289111999997,0,0x00,0x5B
36.732290595999999,0,0x00,0x5B
36.732291220000000,0,0x00,0x5B
36.732292708000003,0,0x00,0x5B
36.732293331999998,0,0x00,0x5B
36.732294816000000,0,0x18,0x5B
36.732295440000001,0,0x1F,0x5B
36.732296924000003,0,0xEF,0x5B
36.732297547999998,0,0xDF,0x5B
36.732299036000001,0,0x97,0x5B
36.732299660000002,0,0xE5,0x5B
36.732301143999997,0,0x21,0x5B
36.732301767999999,0,0x91,0x5B
36.732303252000001,0,0xCC,0x5B
36.732303876000003,0,0x7F,0x5B
36.732305363999998,0,0x3B,0x5B
36.732305988000000,0,0x0E,0x5B
36.732307472000002,0,0x00,0x5B
36.732308095999997,0,0x00,0x5B
36.732309579999999,0,0x18,0x5B
36.732310204000001,0,0xFE,0x5B
36.732311692000003,0,0x84,0x5B
36.732312315999998,0,0x4F,0x5B
36.732313800000000,0,0x61,0x5B
36.732314424000002,0,0xA8,0x5B
36.732315907999997,0,0x50,0x5B
36.732316531999999,0,0x10,0x5B
36.732318020000001,0,0x05,0x5B
36.732318644000003,0,0xDC,0x5B
36.732320127999998,0,0x4E,0x5B
36.732320752000000,0,0x0C,0x5B
36.732322236000002,0,0x00,0x5B
36.732322859999996,0,0x00,0x5B
36.732324347999999,0,0x55,0x5B
36.732324972000001,0,0x55,0x5B
36.732326456000003,0,0x01,0x00
36.732327079999997,0,0x5E,0x00
36.952214552000001,0,0xC2,0x5B
36.952215176000003,0,0x00,0x5B
36.952216303999997,0,0x00,0x0C
36.952216927999999,0,0x00,0x5B
36.952226035999999,0,0xC2,0x5B
36.952226660000001,0,0x00,0x5B
36.952227788000002,0,0x00,0x0C
36.952228411999997,0,0x00,0x5B
36.952230724000003,0,0x41,0x5B
36.952231347999998,0,0x00,0x5B
36.952232459999998,0,0x00,0x5B
36.952233084000000,0,0x7E,0x5B
36.952235176000002,0,0x00,0x5B
36.952235799999997,0,0x00,0x5B
36.952237271999998,0,0xAA,0x5B
36.952237896000000,0,0xAA,0x5B
36.952239380000002,0,0xAA,0x5B
36.952240003999997,0,0xAA,0x5B
36.952241487999999,0,0x74,0x5B
36.952242112000000,0,0x00,0x5B
36.952243600000003,0,0x00,0x5B
36.952244223999998,0,0x00,0x5B
36.952245708000000,0,0xB8,0x5B
36.952246332000001,0,0x27,0x5B
36.952247816000003,0,0xEB,0x5B
36.952248439999998,0,0x27,0x5B
36.952249928000001,0,0x33,0x5B
36.952250552000002,0,0x53,0x5B
36.952252035999997,0,0xE0,0x5B
36.952252659999999,0,0x0E,0x5B
36.952254144000001,0,0xE1,0x5B
36.952254768000003,0,0xFF,0x5B
36.952256255999998,0,0xD3,0x5B
36.952256880000000,0,0xE2,0x5B
36.952258364000002,0,0x86,0x5B
36.952258987999997,0,0xDD,0x5B
36.952260471999999,0,0x60,0x5B
36.952261096000001,0,0x00,0x5B
36.952262584000003,0,0x00,0x5B
36.952263207999998,0,0x00,0x5B
36.952264692000000,0,0x00,0x5B
36.952265316000002,0,0x3E,0x5B
36.952266799999997,0,0x06,0x5B
36.952267423999999,0,0x0A,0x5B
36.952268912000001,0,0xFE,0x5B
36.952269536000003,0,0x80,0x5B
36.952271019999998,0,0x00,0x5B
36.952271644000000,0,0x00,0x5B
36.952273128000002,0,0x00,0x5B
36.952273752000004,0,0x00,0x5B
36.952275239999999,0,0x00,0x5B
36.952275864000001,0,0x00,0x5B
36.952277348000003,0,0xE2,0x5B
36.952277971999997,0,0x0E,0x5B
36.952279455999999,0,0xE1,0x5B
36.952280080000001,0,0xFF,0x5B
36.952281567999997,0,0xFE,0x5B
36.952282191999998,0,0xFF,0x5B
36.952283676000000,0,0xD3,0x5B
36.952284300000002,0,0xE2,0x5B
36.952285783999997,0,0xFE,0x5B
36.952286407999999,0,0x80,0x5B
36.952287896000001,0,0x00,0x5B
36.952288520000003,0,0x00,0x5B
36.952290003999998,0,0x00,0x5B
36.952290628000000,0,0x00,0x5B
36.952292112000002,0,0x00,0x5B
36.952292735999997,0,0x00,0x5B
36.952294223999999,0,0x18,0x5B
36.952294848000001,0,0x1F,0x5B
36.952296332000003,0,0xEF,0x5B
36.952296955999998,0,0xDF,0x5B
36.952298440000000,0,0x97,0x5B
36.952299064000002,0,0xE5,0x5B
36.952300551999997,0,0x21,0x5B
36.952301175999999,0,0x91,0x5B
36.952302660000001,0,0xCC,0x5B
36.952303284000003,0,0x7F,0x5B
36.952304767999998,0,0x3B,0x5B
36.952305392000000,0,0x0E,0x5B
36.952306880000002,0,0x00,0x5B
36.952307503999997,0,0x00,0x5B
36.952308987999999,0,0x18,0x5B
36.952309612000001,0,0xFE,0x5B
36.952311096000003,0,0x84,0x5B
36.952311723999998,0,0x4F,0x5B
36.952313208000000,0,0x61,0x5B
36.952313832000002,0,0xA8,0x5B
36.952315316000004,0,0x50,0x5B
36.952315939999998,0,0x18,0x5B
36.952317424000000,0,0x05,0x5B
36.952318052000003,0,0xDC,0x5B
36.952319535999997,0,0x21,0x5B
36.952320159999999,0,0x18,0x5B
36.952321644000001,0,0x00,0x5B
36.952322268000003,0,0x00,0x5B
36.952323755999998,0,0x01,0x5B
36.952324380000000,0,0xFE,0x5B
36.952325864000002,0,0x80,0x5B
36.952326487999997,0,0x01,0x5B
36.952327971999999,0,0x00,0x5B
36.952328596000001,0,0x00,0x5B
36.952330080000003,0,0x00,0x5B
36.952330707999998,0,0x22,0x5B
36.952332192000000,0,0x80,0x5B
36.952332816000002,0,0x00,0x5B
36.952334299999997,0,0xDB,0x5B
36.952334923999999,0,0xAB,0x5B
36.952336408000001,0,0x93,0x5B
36.952337036000003,0,0x71,0x5B
36.952338519999998,0,0xD3,0x5B
36.952339144000000,0,0x23,0x5B
36.952340628000002,0,0x4B,0x5B
36.952341251999997,0,0x71,0x5B
36.952342739999999,0,0xD1,0x5B
36.952343364000001,0,0xB9,0x5B
36.952344848000003,0,0x81,0x5B
36.952345471999998,0,0x89,0x5B
36.952346956000000,0,0x91,0x5B
36.952347580000001,0,0x89,0x5B
36.952349067999997,0,0xD1,0x5B
36.952349691999999,0,0x91,0x5B
36.952351176000001,0,0x81,0x5B
36.952351800000002,0,0x89,0x5B
36.952353283999997,0,0x91,0x5B
36.952353907999999,0,0xD2,0x5B
36.952355396000002,0,0x6B,0x5B
36.952356020000003,0,0x9B,0x5B
36.952357503999998,0,0x3A,0x5B
36.952358128000000,0,0x23,0x5B
36.952359612000002,0,0x2B,0x5B
36.952360235999997,0,0x30,0x5B
36.952361723999999,0,0x02,0x5B
36.952362348000001,0,0x00,0x5B
36.952363832000003,0,0x00,0x5B
36.952364455999998,0,0x04,0x5B
36.952365940000000,0,0x00,0x5B
36.952366564000002,0,0x40,0x5B
36.952368051999997,0,0x55,0x5B
36.952368675999999,0,0x55,0x5B
36.952370160000001,0,0x00,0x00
36.952370784000003,0,0x00,0x00
36.962242064000002,0,0xCD,0x5B
36.962242688000003,0,0x00,0x5B
36.962243815999997,0,0x00,0x00
36.962244439999999,0,0x00,0x47
36.962246268000001,0,0x4D,0x47
36.962246892000003,0,0x00,0x47
36.962248004000003,0,0x00,0x47
36.962248627999998,0,0x00,0x47
36.962250687999997,0,0xCC,0x47
36.962251311999999,0,0x00,0x47
36.962252440000000,0,0x00,0x04
36.962253064000002,0,0x00,0x01
36.962255736000003,0,0xC3,0x01
36.962256359999998,0,0x00,0x01
36.962257487999999,0,0x00,0x00
36.962258112000001,0,0x00,0x58
36.962259988000000,0,0x41,0x58
36.962260612000001,0,0x00,0x58
36.962261720000001,0,0x00,0x58
36.962262344000003,0,0x58,0x58
36.962264500000003,0,0x80,0x58
36.962265123999998,0,0x00,0x58
36.962266268000000,0,0x00,0x00
36.962266892000002,0,0x00,0x00
36.962268328000000,0,0x00,0x00
36.962268952000002,0,0x00,0x54
36.962270392000001,0,0x00,0xAA
36.962271016000003,0,0x00,0xAA
36.962272456000001,0,0x00,0xAA
36.962273080000003,0,0x00,0xAA
36.962274516000001,0,0x00,0x4A
36.962275140000003,0,0x00,0x00
36.962276580000001,0,0x00,0x00
36.962277204000003,0,0x00,0x00
36.962278644000001,0,0x00,0xE0
36.962279268000003,0,0x00,0x0E
36.962280704000001,0,0x00,0xE1
36.962281328000003,0,0x00,0xFF
36.962282768000001,0,0x00,0xD3
36.962283392000003,0,0x00,0xE2
36.962284828000001,0,0x00,0xB8
36.962285452000003,0,0x00,0x27
36.962286892000002,0,0x00,0xEB
36.962287516000004,0,0x00,0x27
36.962288956000002,0,0x00,0x33
36.962289579999997,0,0x00,0x53
36.962291016000002,0,0x00,0x86
36.962291639999997,0,0x00,0xDD
36.962293080000002,0,0x00,0x60
36.962293703999997,0,0x00,0x03
36.962295144000002,0,0x00,0xB3
36.962295767999997,0,0x00,0x51
36.962297204000002,0,0x00,0x00
36.962297827999997,0,0x00,0x14
36.962299268000002,0,0x00,0x06
36.962299891999997,0,0x00,0x40
36.962301328000002,0,0x00,0xFE
36.962301951999997,0,0x00,0x80
36.962303392000003,0,0x00,0x00
36.962304015999997,0,0x00,0x00
36.962305456000003,0,0x00,0x00
36.962306079999998,0,0x00,0x00
36.962307516000003,0,0x00,0x00
36.962308139999998,0,0x00,0x00
36.962309580000003,0,0x00,0x18
36.962310203999998,0,0x00,0x1F
36.962311640000003,0,0x00,0xEF
36.962312267999998,0,0x00,0xDF
36.962313704000003,0,0x00,0x97
36.962314327999998,0,0x00,0xE5
36.962315768000003,0,0x00,0x21
36.962316391999998,0,0x00,0x91
36.962317828000003,0,0x00,0xFE
36.962318451999998,0,0x00,0x80
36.962319891999996,0,0x00,0x00
36.962320515999998,0,0x00,0x00
36.962321955999997,0,0x00,0x00
36.962322579999999,0,0x00,0x00
36.962324015999997,0,0x00,0x00
36.962324639999999,0,0x00,0x00
36.962326079999997,0,0x00,0xE2
36.962326703999999,0,0x00,0x0E
36.962328139999997,0,0x00,0xE1
36.962328763999999,0,0x00,0xFF
36.962330203999997,0,0x00,0xFE
36.962330827999999,0,0x00,0xFF
36.962332267999997,0,0x00,0xD3
36.962332891999999,0,0x00,0xE2
36.962334327999997,0,0x00,0x3B
36.962334951999999,0,0x00,0x0E
36.962336391999997,0,0x00,0xCC
36.962337015999999,0,0x00,0x7F
36.962338455999998,0,0x00,0x84
36.962339080000000,0,0x00,0x4F
36.962340515999998,0,0x00,0x61
36.962341139999999,0,0x00,0xA8
36.962342579999998,0,0x00,0x00
36.962343204000000,0,0x00,0x00
36.962344639999998,0,0x00,0x19
36.962345264000000,0,0x00,0x28
36.962346703999998,0,0x00,0x50
36.962347328000000,0,0x00,0x10
36.962348767999998,0,0x00,0x70
36.962349392000000,0,0x00,0x80
36.962350827999998,0,0x00,0xE3
36.962351452000000,0,0x00,0x3D
36.962352891999998,0,0x00,0x00
36.962353516000000,0,0x00,0x00
36.962354951999998,0,0x00,0x55
36.962355580000001,0,0x00,0x55
36.962361811999997,0,0x4C,0x55
36.962362435999999,0,0x00,0x55
36.962363547999999,0,0x04,0x55
36.962364172000001,0,0x01,0x55
36.962366344000003,0,0xCD,0x55
36.962366967999998,0,0x00,0x55
36.962368095999999,0,0x00,0x00
36.962368720000001,0,0x00,0x00
36.962370563999997,0,0x4D,0x00
36.962371187999999,0,0x00,0x00
36.962372295999998,0,0x00,0x00
36.962372920000000,0,0x47,0x00
37.002225320000001,0,0xCD,0x00
37.002225944000003,0,0x00,0x00
37.002227068000003,0,0x00,0x00
37.002227691999998,0,0x00,0x47
37.002229524000001,0,0x4D,0x47
37.002230148000002,0,0x00,0x47
37.002231256000002,0,0x00,0x47
37.002231879999997,0,0x00,0x47
37.002233943999997,0,0xCC,0x47
37.002234567999999,0,0x00,0x47
37.002235696000000,0,0x00,0x04
37.002236320000002,0,0x00,0x01
37.002238992000002,0,0xC3,0x01
37.002239615999997,0,0x00,0x01
37.002240739999998,0,0x00,0x00
37.002241364000000,0,0x00,0x64
37.002243239999999,0,0x41,0x64
37.002243864000000,0,0x00,0x64
37.002244976000000,0,0x00,0x64
37.002245600000002,0,0x64,0x64
37.002247756000003,0,0x80,0x64
37.002248379999997,0,0x00,0x64
37.002249519999999,0,0x00,0x00
37.002250148000002,0,0x00,0x00
37.002251584000000,0,0x00,0x00
37.002252208000002,0,0x00,0x60
37.002253648000000,0,0x00,0xAA
37.002254272000002,0,0x00,0xAA
37.002255708000000,0,0x00,0xAA
37.002256332000002,0,0x00,0xAA
37.002257772000000,0,0x00,0x56
37.002258396000002,0,0x00,0x00
37.002259836000000,0,0x00,0x00
37.002260460000002,0,0x00,0x00
37.002261896000000,0,0x00,0xE0
37.002262520000002,0,0x00,0x0E
37.002263960000001,0,0x00,0xE1
37.002264584000002,0,0x00,0xFF
37.002266020000000,0,0x00,0xD3
37.002266648000003,0,0x00,0xE2
37.002268084000001,0,0x00,0xB8
37.002268708000003,0,0x00,0x27
37.002270148000001,0,0x00,0xEB
37.002270772000003,0,0x00,0x27
37.002272208000001,0,0x00,0x33
37.002272832000003,0,0x00,0x53
37.002274272000001,0,0x00,0x86
37.002274896000003,0,0x00,0xDD
37.002276336000001,0,0x00,0x60
37.002276960000003,0,0x00,0x03
37.002278396000001,0,0x00,0xB3
37.002279020000003,0,0x00,0x51
37.002280460000001,0,0x00,0x00
37.002281084000003,0,0x00,0x20
37.002282520000001,0,0x00,0x06
37.002283144000003,0,0x00,0x40
37.002284584000002,0,0x00,0xFE
37.002285208000004,0,0x00,0x80
37.002286648000002,0,0x00,0x00
37.002287271999997,0,0x00,0x00
37.002288708000002,0,0x00,0x00
37.002289331999997,0,0x00,0x00
37.002290772000002,0,0x00,0x00
37.002291395999997,0,0x00,0x00
37.002292836000002,0,0x00,0x18
37.002293459999997,0,0x00,0x1F
37.002294896000002,0,0x00,0xEF
37.002295519999997,0,0x00,0xDF
37.002296960000002,0,0x00,0x97
37.002297583999997,0,0x00,0xE5
37.002299020000002,0,0x00,0x21
37.002299643999997,0,0x00,0x91
37.002301084000003,0,0x00,0xFE
37.002301707999997,0,0x00,0x80
37.002303148000003,0,0x00,0x00
37.002303771999998,0,0x00,0x00
37.002305208000003,0,0x00,0x00
37.002305831999998,0,0x00,0x00
37.002307272000003,0,0x00,0x00
37.002307895999998,0,0x00,0x00
37.002309332000003,0,0x00,0xE2
37.002309959999998,0,0x00,0x0E
37.002311396000003,0,0x00,0xE1
37.002312019999998,0,0x00,0xFF
37.002313460000003,0,0x00,0xFE
37.002314083999998,0,0x00,0xFF
37.002315520000003,0,0x00,0xD3
37.002316143999998,0,0x00,0xE2
37.002317583999996,0,0x00,0x3B
37.002318207999998,0,0x00,0x0E
37.002319647999997,0,0x00,0xCC
37.002320271999999,0,0x00,0x7F
37.002321707999997,0,0x00,0x84
37.002322331999999,0,0x00,0x4F
37.002323771999997,0,0x00,0x61
37.002324395999999,0,0x00,0xA8
37.002325831999997,0,0x00,0x00
37.002326455999999,0,0x00,0x00
37.002327895999997,0,0x00,0x19
37.002328519999999,0,0x00,0x28
37.002329959999997,0,0x00,0x50
37.002330583999999,0,0x00,0x18
37.002332019999997,0,0x00,0x70
37.002332643999999,0,0x00,0x80
37.002334083999997,0,0x00,0xE0
37.002334707999999,0,0x00,0xA5
37.002336147999998,0,0x00,0x00
37.002336772000000,0,0x00,0x00
37.002338207999998,0,0x00,0x01
37.002338832000000,0,0x00,0xFE
37.002340271999998,0,0x00,0x80
37.002340896000000,0,0x00,0x01
37.002342331999998,0,0x00,0x00
37.002342956000000,0,0x00,0x00
37.002344395999998,0,0x00,0x00
37.002345020000000,0,0x00,0x04
37.002346459999998,0,0x00,0x80
37.002347084000000,0,0x00,0x40
37.002348519999998,0,0x00,0x00
37.002349144000000,0,0x00,0x40
37.002350583999998,0,0x00,0x55
37.002351208000000,0,0x00,0x55
37.002357504000003,0,0x4C,0x55
37.002358127999997,0,0x00,0x55
37.002359239999997,0,0x04,0x55
37.002359863999999,0,0x01,0x55
37.002362036000001,0,0xCD,0x55
37.002362660000003,0,0x00,0x55
37.002363787999997,0,0x00,0x00
37.002364411999999,0,0x00,0x00
37.002366256000002,0,0x4D,0x00
37.002366879999997,0,0x00,0x00
37.002367988000003,0,0x00,0x00
37.002368611999998,0,0x47,0x00
37.022232359999997,0,0xC2,0x00
37.022232983999999,0,0x00,0x00
37.022234112000000,0,0x00,0x0C
37.022234736000001,0,0x00,0x5B
37.022242312000003,0,0xC2,0x5B
37.022242935999998,0,0x00,0x5B
37.022244063999999,0,0x00,0x0C
37.022244688000001,0,0x00,0x5B
37.022247000000000,0,0x41,0x5B
37.022247624000002,0,0x00,0x5B
37.022248736000002,0,0x00,0x5B
37.022249360000004,0,0x54,0x5B
37.022251455999999,0,0x00,0x5B
37.022252080000001,0,0x00,0x5B
37.022253548000002,0,0xAA,0x5B
37.022254171999997,0,0xAA,0x5B
37.022255655999999,0,0xAA,0x5B
37.022256280000001,0,0xAA,0x5B
37.022257768000003,0,0x4A,0x5B
37.022258391999998,0,0x00,0x5B
37.022259876000000,0,0x00,0x5B
37.022260500000002,0,0x00,0x5B
37.022261983999996,0,0xB8,0x5B
37.022262607999998,0,0x27,0x5B
37.022264096000001,0,0xEB,0x5B
37.022264720000003,0,0x27,0x5B
37.022266203999997,0,0x33,0x5B
37.022266827999999,0,0x53,0x5B
37.022268312000001,0,0xE0,0x5B
37.022268936000003,0,0x0E,0x5B
37.022270423999998,0,0xE1,0x5B
37.022271048000000,0,0xFF,0x5B
37.022272532000002,0,0xD3,0x5B
37.022273155999997,0,0xE2,0x5B
37.022274639999999,0,0x86,0x5B
37.022275264000001,0,0xDD,0x5B
37.022276752000003,0,0x60,0x5B
37.022277375999998,0,0x00,0x5B
37.022278860000000,0,0x00,0x5B
37.022279484000002,0,0x00,0x5B
37.022280967999997,0,0x00,0x5B
37.022281591999999,0,0x14,0x5B
37.022283080000001,0,0x06,0x5B
37.022283704000003,0,0x0A,0x5B
37.022285187999998,0,0xFE,0x5B
37.022285812000000,0,0x80,0x5B
37.022287296000002,0,0x00,0x5B
37.022287919999997,0,0x00,0x5B
37.022289407999999,0,0x00,0x5B
37.022290032000001,0,0x00,0x5B
37.022291516000003,0,0x00,0x5B
37.022292139999998,0,0x00,0x5B
37.022293624000000,0,0xE2,0x5B
37.022294248000001,0,0x0E,0x5B
37.022295735999997,0,0xE1,0x5B
37.022296359999999,0,0xFF,0x5B
37.022297844000001,0,0xFE,0x5B
37.022298468000002,0,0xFF,0x5B
37.022299951999997,0,0xD3,0x5B
37.022300575999999,0,0xE2,0x5B
37.022302064000002,0,0xFE,0x5B
37.022302688000003,0,0x80,0x5B
37.022304171999998,0,0x00,0x5B
37.022304796000000,0,0x00,0x5B
37.022306280000002,0,0x00,0x5B
37.022306903999997,0,0x00,0x5B
37.022308391999999,0,0x00,0x5B
37.022309016000001,0,0x00,0x5B
37.022310500000003,0,0x18,0x5B
37.022311123999998,0,0x1F,0x5B
37.022312608000000,0,0xEF,0x5B
37.022313232000002,0,0xDF,0x5B
37.022314719999997,0,0x97,0x5B
37.022315343999999,0,0xE5,0x5B
37.022316828000001,0,0x21,0x5B
37.022317452000003,0,0x91,0x5B
37.022318935999998,0,0xCC,0x5B
37.022319560000000,0,0x7F,0x5B
37.022321048000002,0,0x3B,0x5B
37.022321671999997,0,0x0E,0x5B
37.022323155999999,0,0x00,0x5B
37.022323780000001,0,0x00,0x5B
37.022325264000003,0,0x19,0x5B
37.022325891999998,0,0x28,0x5B
37.022327376000000,0,0x84,0x5B
37.022328000000002,0,0x4F,0x5B
37.022329483999997,0,0x61,0x5B
37.022330107999998,0,0xB4,0x5B
37.022331592000000,0,0x50,0x5B
37.022332216000002,0,0x10,0x5B
37.022333703999998,0,0x05,0x5B
37.022334327999999,0,0xDC,0x5B
37.022335812000001,0,0x4D,0x5B
37.022336436000003,0,0xD6,0x5B
37.022337919999998,0,0x00,0x5B
37.022338548000000,0,0x00,0x5B
37.022340032000002,0,0x55,0x5B
37.022340655999997,0,0x55,0x5B
37.022342139999999,0,0x80,0x00
37.022342764000001,0,0x01,0x00
37.262239528000002,0,0xC2,0x5B
37.262240151999997,0,0x00,0x5B
37.262241279999998,0,0x00,0x0C
37.262241904000000,0,0x00,0x5B
37.262250512000001,0,0xC2,0x5B
37.262251136000003,0,0x00,0x5B
37.262252263999997,0,0x00,0x0C
37.262252887999999,0,0x00,0x5B
37.262255199999998,0,0x41,0x5B
37.262255824000000,0,0x00,0x5B
37.262256936000000,0,0x00,0x5B
37.262257560000002,0,0x71,0x5B
37.262259651999997,0,0x00,0x5B
37.262260275999999,0,0x00,0x5B
37.262261748000000,0,0xAA,0x5B
37.262262372000002,0,0xAA,0x5B
37.262263855999997,0,0xAA,0x5B
37.262264479999999,0,0xAA,0x5B
37.262265964000001,0,0x67,0x5B
37.262266588000003,0,0x00,0x5B
37.262268075999998,0,0x00,0x5B
37.262268700000000,0,0x00,0x5B
37.262270184000002,0,0xB8,0x5B
37.262270807999997,0,0x27,0x5B
37.262272291999999,0,0xEB,0x5B
37.262272916000001,0,0x27,0x5B
37.262274404000003,0,0x33,0x5B
37.262275027999998,0,0x53,0x5B
37.262276512000000,0,0xE0,0x5B
37.262277136000002,0,0x0E,0x5B
37.262278619999996,0,0xE1,0x5B
37.262279243999998,0,0xFF,0x5B
37.262280732000001,0,0xD3,0x5B
37.262281356000003,0,0xE2,0x5B
37.262282839999997,0,0x86,0x5B
37.262283463999999,0,0xDD,0x5B
37.262284948000001,0,0x60,0x5B
37.262285572000003,0,0x00,0x5B
37.262287059999998,0,0x00,0x5B
37.262287684000000,0,0x00,0x5B
37.262289168000002,0,0x00,0x5B
37.262289791999997,0,0x31,0x5B
37.262291275999999,0,0x06,0x5B
37.262291900000001,0,0x0A,0x5B
37.262293388000003,0,0xFE,0x5B
37.262294011999998,0,0x80,0x5B
37.262295496000000,0,0x00,0x5B
37.262296120000002,0,0x00,0x5B
37.262297603999997,0,0x00,0x5B
37.262298231999999,0,0x00,0x5B
37.262299716000001,0,0x00,0x5B
37.262300340000003,0,0x00,0x5B
37.262301823999998,0,0xE2,0x5B
37.262302448000000,0,0x0E,0x5B
37.262303932000002,0,0xE1,0x5B
37.262304559999997,0,0xFF,0x5B
37.262306043999999,0,0xFE,0x5B
37.262306668000001,0,0xFF,0x5B
37.262308152000003,0,0xD3,0x5B
37.262308775999998,0,0xE2,0x5B
37.262310264000000,0,0xFE,0x5B
37.262310888000002,0,0x80,0x5B
37.262312371999997,0,0x00,0x5B
37.262312995999999,0,0x00,0x5B
37.262314480000001,0,0x00,0x5B
37.262315104000002,0,0x00,0x5B
37.262316587999997,0,0x00,0x5B
37.262317216000000,0,0x00,0x5B
37.262318700000002,0,0x18,0x5B
37.262319324000003,0,0x1F,0x5B
37.262320807999998,0,0xEF,0x5B
37.262321432000000,0,0xDF,0x5B
37.262322920000003,0,0x97,0x5B
37.262323543999997,0,0xE5,0x5B
37.262325027999999,0,0x21,0x5B
37.262325652000001,0,0x91,0x5B
37.262327136000003,0,0xCC,0x5B
37.262327759999998,0,0x7F,0x5B
37.262329248000000,0,0x3B,0x5B
37.262329872000002,0,0x0E,0x5B
37.262331355999997,0,0x00,0x5B
37.262331979999999,0,0x00,0x5B
37.262333464000001,0,0x19,0x5B
37.262334088000003,0,0x28,0x5B
37.262335575999998,0,0x84,0x5B
37.262336200000000,0,0x4F,0x5B
37.262337684000002,0,0x61,0x5B
37.262338307999997,0,0xB4,0x5B
37.262339791999999,0,0x50,0x5B
37.262340416000001,0,0x18,0x5B
37.262341904000003,0,0x05,0x5B
37.262342527999998,0,0xDC,0x5B
37.262344012000000,0,0x21,0x5B
37.262344636000002,0,0x12,0x5B
37.262346119999997,0,0x00,0x5B
37.262346743999998,0,0x00,0x5B
37.262348232000001,0,0x01,0x5B
37.262348856000003,0,0xFE,0x5B
37.262350339999998,0,0x80,0x5B
37.262350963999999,0,0x01,0x5B
37.262352448000001,0,0x00,0x5B
37.262353072000003,0,0x00,0x5B
37.262354559999999,0,0x00,0x5B
37.262355184000000,0,0x15,0x5B
37.262356668000002,0,0x80,0x5B
37.262357291999997,0,0x9A,0x5B
37.262358775999999,0,0x02,0x5B
37.262359400000001,0,0x00,0x5B
37.262360888000003,0,0x00,0x5B
37.262361511999998,0,0x00,0x5B
37.262362996000000,0,0x00,0x5B
37.262363620000002,0,0x00,0x5B
37.262365103999997,0,0x00,0x5B
37.262365727999999,0,0x00,0x5B
37.262367216000001,0,0x00,0x5B
37.262367840000003,0,0x11,0x5B
37.262369323999998,0,0xD0,0x5B
37.262369948000000,0,0x1B,0x5B
37.262371432000002,0,0x80,0x5B
37.262372055999997,0,0x3B,0x5B
37.262373543999999,0,0x87,0x5B
37.262374168000001,0,0xFF,0x5B
37.262375652000003,0,0x4F,0x5B
37.262376275999998,0,0x88,0x5B
37.262377760000000,0,0x00,0x5B
37.262378384000002,0,0x55,0x5B
37.262379871999997,0,0x55,0x5B
37.262380495999999,0,0x9B,0x00
37.272211104000000,0,0xCD,0x5B
37.272211728000002,0,0x00,0x5B
37.272212856000003,0,0x00,0x00
37.272213479999998,0,0x00,0x47
37.272215308000000,0,0x4D,0x47
37.272215932000002,0,0x00,0x47
37.272217040000001,0,0x00,0x47
37.272217664000003,0,0x00,0x47
37.272219728000003,0,0xCC,0x47
37.272220351999998,0,0x00,0x47
37.272221479999999,0,0x00,0x04
37.272222104000001,0,0x00,0x01
37.272224776000002,0,0xC3,0x01
37.272225400000004,0,0x00,0x01
37.272226523999997,0,0x00,0x00
37.272227151999999,0,0x00,0x58
37.272229023999998,0,0x41,0x58
37.272229648000000,0,0x00,0x58
37.272230759999999,0,0x00,0x58
37.272231384000001,0,0x58,0x58
37.272233540000002,0,0x80,0x58
37.272234163999997,0,0x00,0x58
37.272235307999999,0,0x00,0x00
37.272235932000001,0,0x00,0x00
37.272237367999999,0,0x00,0x00
37.272237992000001,0,0x00,0x54
37.272239431999999,0,0x00,0xAA
37.272240056000001,0,0x00,0xAA
37.272241495999999,0,0x00,0xAA
37.272242120000001,0,0x00,0xAA
37.272243555999999,0,0x00,0x4A
37.272244180000001,0,0x00,0x00
37.272245620000000,0,0x00,0x00
37.272246244000002,0,0x00,0x00
37.272247680000000,0,0x00,0xE0
37.272248304000001,0,0x00,0x0E
37.272249744000000,0,0x00,0xE1
37.272250368000002,0,0x00,0xFF
37.272251808000000,0,0x00,0xD3
37.272252432000002,0,0x00,0xE2
37.272253868000000,0,0x00,0xB8
37.272254492000002,0,0x00,0x27
37.272255932000000,0,0x00,0xEB
37.272256556000002,0,0x00,0x27
37.272257992000000,0,0x00,0x33
37.272258620000002,0,0x00,0x53
37.272260056000000,0,0x00,0x86
37.272260680000002,0,0x00,0xDD
37.272262120000001,0,0x00,0x60
37.272262744000002,0,0x00,0x03
37.272264180000001,0,0x00,0xB3
37.272264804000002,0,0x00,0x51
37.272266244000001,0,0x00,0x00
37.272266868000003,0,0x00,0x14
37.272268308000001,0,0x00,0x06
37.272268932000003,0,0x00,0x40
37.272270368000001,0,0x00,0xFE
37.272270992000003,0,0x00,0x80
37.272272432000001,0,0x00,0x00
37.272273056000003,0,0x00,0x00
37.272274492000001,0,0x00,0x00
37.272275120000003,0,0x00,0x00
37.272276556000001,0,0x00,0x00
37.272277180000003,0,0x00,0x00
37.272278620000002,0,0x00,0x18
37.272279244000003,0,0x00,0x1F
37.272280680000001,0,0x00,0xEF
37.272281304000003,0,0x00,0xDF
37.272282744000002,0,0x00,0x97
37.272283367999997,0,0x00,0xE5
37.272284808000002,0,0x00,0x21
37.272285431999997,0,0x00,0x91
37.272286868000002,0,0x00,0xFE
37.272287491999997,0,0x00,0x80
37.272288932000002,0,0x00,0x00
37.272289555999997,0,0x00,0x00
37.272290992000002,0,0x00,0x00
37.272291615999997,0,0x00,0x00
37.272293056000002,0,0x00,0x00
37.272293679999997,0,0x00,0x00
37.272295120000003,0,0x00,0xE2
37.272295743999997,0,0x00,0x0E
37.272297180000002,0,0x00,0xE1
37.272297803999997,0,0x00,0xFF
37.272299244000003,0,0x00,0xFE
37.272299867999998,0,0x00,0xFF
37.272301308000003,0,0x00,0xD3
37.272301931999998,0,0x00,0xE2
37.272303368000003,0,0x00,0x3B
37.272303991999998,0,0x00,0x0E
37.272305432000003,0,0x00,0xCC
37.272306055999998,0,0x00,0x7F
37.272307492000003,0,0x00,0x84
37.272308115999998,0,0x00,0x4F
37.272309556000003,0,0x00,0x61
37.272310179999998,0,0x00,0xB4
37.272311620000004,0,0x00,0x00
37.272312243999998,0,0x00,0x00
37.272313680000003,0,0x00,0x19
37.272314303999998,0,0x00,0x45
37.272315743999997,0,0x00,0x50
37.272316367999998,0,0x00,0x10
37.272317803999996,0,0x00,0x70
37.272318431999999,0,0x00,0x80
37.272319867999997,0,0x00,0xE3
37.272320491999999,0,0x00,0x14
37.272321931999997,0,0x00,0x00
37.272322555999999,0,0x00,0x00
37.272323991999997,0,0x00,0x55
37.272324615999999,0,0x00,0x55
37.272330932000003,0,0x4C,0x55
37.272331555999997,0,0x00,0x55
37.272332663999997,0,0x04,0x55
37.272333287999999,0,0x01,0x55
37.272335464000001,0,0xCD,0x55
37.272336088000003,0,0x00,0x55
37.272337211999996,0,0x00,0x00
37.272337835999998,0,0x00,0x00
37.272339680000002,0,0x4D,0x00
37.272340303999997,0,0x00,0x00
37.272341416000003,0,0x00,0x00
37.272342039999998,0,0x47,0x00
37.302222424000000,0,0xCD,0x00
37.302223048000002,0,0x00,0x00
37.302224172000003,0,0x00,0x00
37.302224799999998,0,0x00,0x47
37.302226628000000,0,0x4D,0x47
37.302227252000002,0,0x00,0x47
37.302228360000001,0,0x00,0x47
37.302228984000003,0,0x00,0x47
37.302231048000003,0,0xCC,0x47
37.302231671999998,0,0x00,0x47
37.302232799999999,0,0x00,0x04
37.302233424000001,0,0x00,0x01
37.302236096000001,0,0xC3,0x01
37.302236720000003,0,0x00,0x01
37.302237843999997,0,0x00,0x00
37.302238467999999,0,0x00,0x77
37.302240343999998,0,0x41,0x77
37.302240968000000,0,0x00,0x77
37.302242079999999,0,0x00,0x77
37.302242704000001,0,0x77,0x77
37.302244891999997,0,0x80,0x77
37.302245515999999,0,0x00,0x77
37.302246656000001,0,0x00,0x00
37.302247284000003,0,0x00,0x00
37.302248720000001,0,0x00,0x00
37.302249344000003,0,0x00,0x73
37.302250784000002,0,0x00,0xAA
37.302251407999997,0,0x00,0xAA
37.302252844000002,0,0x00,0xAA
37.302253468000004,0,0x00,0xAA
37.302254908000002,0,0x00,0x69
37.302255531999997,0,0x00,0x00
37.302256972000002,0,0x00,0x00
37.302257595999997,0,0x00,0x00
37.302259032000002,0,0x00,0xE0
37.302259655999997,0,0x00,0x0E
37.302261096000002,0,0x00,0xE1
37.302261719999997,0,0x00,0xFF
37.302263156000002,0,0x00,0xD3
37.302263779999997,0,0x00,0xE2
37.302265220000002,0,0x00,0xB8
37.302265843999997,0,0x00,0x27
37.302267284000003,0,0x00,0xEB
37.302267907999997,0,0x00,0x27
37.302269344000003,0,0x00,0x33
37.302269967999997,0,0x00,0x53
37.302271408000003,0,0x00,0x86
37.302272031999998,0,0x00,0xDD
37.302273468000003,0,0x00,0x60
37.302274095999998,0,0x00,0x03
37.302275532000003,0,0x00,0xB3
37.302276155999998,0,0x00,0x51
37.302277596000003,0,0x00,0x00
37.302278219999998,0,0x00,0x33
37.302279656000003,0,0x00,0x06
37.302280279999998,0,0x00,0x40
37.302281720000003,0,0x00,0xFE
37.302282343999998,0,0x00,0x80
37.302283783999997,0,0x00,0x00
37.302284407999998,0,0x00,0x00
37.302285843999996,0,0x00,0x00
37.302286467999998,0,0x00,0x00
37.302287907999997,0,0x00,0x00
37.302288531999999,0,0x00,0x00
37.302289967999997,0,0x00,0x18
37.302290595999999,0,0x00,0x1F
37.302292031999997,0,0x00,0xEF
37.302292655999999,0,0x00,0xDF
37.302294095999997,0,0x00,0x97
37.302294719999999,0,0x00,0xE5
37.302296155999997,0,0x00,0x21
37.302296779999999,0,0x00,0x91
37.302298219999997,0,0x00,0xFE
37.302298843999999,0,0x00,0x80
37.302300283999998,0,0x00,0x00
37.302300907999999,0,0x00,0x00
37.302302343999997,0,0x00,0x00
37.302302967999999,0,0x00,0x00
37.302304407999998,0,0x00,0x00
37.302305032000000,0,0x00,0x00
37.302306467999998,0,0x00,0xE2
37.302307091999999,0,0x00,0x0E
37.302308531999998,0,0x00,0xE1
37.302309156000000,0,0x00,0xFF
37.302310595999998,0,0x00,0xFE
37.302311220000000,0,0x00,0xFF
37.302312655999998,0,0x00,0xD3
37.302313280000000,0,0x00,0xE2
37.302314719999998,0,0x00,0x3B
37.302315344000000,0,0x00,0x0E
37.302316783999999,0,0x00,0xCC
37.302317408000000,0,0x00,0x7F
37.302318843999998,0,0x00,0x84
37.302319468000000,0,0x00,0x4F
37.302320907999999,0,0x00,0x61
37.302321532000001,0,0x00,0xB4
37.302322967999999,0,0x00,0x00
37.302323592000000,0,0x00,0x00
37.302325031999999,0,0x00,0x19
37.302325656000001,0,0x00,0x45
37.302327095999999,0,0x00,0x50
37.302327720000001,0,0x00,0x18
37.302329155999999,0,0x00,0x70
37.302329780000001,0,0x00,0x80
37.302331219999999,0,0x00,0x71
37.302331844000001,0,0x00,0x5B
37.302333279999999,0,0x00,0x00
37.302333908000001,0,0x00,0x00
37.302335343999999,0,0x00,0x01
37.302335968000001,0,0x00,0xFE
37.302337408000000,0,0x00,0x80
37.302338032000002,0,0x00,0x01
37.302339468000000,0,0x00,0x00
37.302340092000001,0,0x00,0x00
37.302341532000000,0,0x00,0x00
37.302342156000002,0,0x00,0x17
37.302343596000000,0,0x00,0x80
37.302344220000002,0,0x00,0x9A
37.302345656000000,0,0x00,0x02
37.302346280000002,0,0x00,0x00
37.302347720000000,0,0x00,0x40
37.302348344000002,0,0x00,0x80
37.302349780000000,0,0x00,0xC1
37.302350404000002,0,0x00,0x01
37.302351844000000,0,0x00,0x41
37.302352468000002,0,0x00,0x81
37.302353908000001,0,0x00,0xC2
37.302354532000003,0,0x00,0x11
37.302355968000001,0,0x00,0xE0
37.302356592000002,0,0x00,0x20
37.302358032000001,0,0x00,0x1D
37.302358656000003,0,0x00,0x69
37.302360096000001,0,0x00,0x68
37.302360720000003,0,0x00,0xC0
37.302362156000001,0,0x00,0xC0
37.302362780000003,0,0x00,0xC0
37.302364220000001,0,0x00,0xC0
37.302364844000003,0,0x00,0xC0
37.302366280000001,0,0x00,0x80
37.302366904000003,0,0x00,0x55
37.302368344000001,0,0x00,0x55
37.302368968000003,0,0x00,0x00
37.302375392000002,0,0x4C,0x55
37.302376015999997,0,0x00,0x55
37.302377124000003,0,0x04,0x55
37.302377747999998,0,0x01,0x55
37.302379924000000,0,0xCD,0x55
37.302380548000002,0,0x00,0x55
37.302381672000003,0,0x00,0x00
37.302382295999998,0,0x00,0x00
37.302384140000001,0,0x4D,0x00
37.302384764000003,0,0x00,0x00
37.302385876000002,0,0x00,0x00
37.302386499999997,0,0x47,0x00
37.322229436000001,0,0xC2,0x00
37.322230060000003,0,0x00,0x00
37.322231184000003,0,0x00,0x0C
37.322231807999998,0,0x00,0x5B
37.322239388000000,0,0xC2,0x5B
37.322240012000002,0,0x00,0x5B
37.322241136000002,0,0x00,0x0C
37.322241759999997,0,0x00,0x5B
37.322244075999997,0,0x41,0x5B
37.322244699999999,0,0x00,0x5B
37.322245807999998,0,0x00,0x5B
37.322246432000000,0,0x54,0x5B
37.322248528000003,0,0x00,0x5B
37.322249151999998,0,0x00,0x5B
37.322250619999998,0,0xAA,0x5B
37.322251244000000,0,0xAA,0x5B
37.322252732000003,0,0xAA,0x5B
37.322253355999997,0,0xAA,0x5B
37.322254839999999,0,0x4A,0x5B
37.322255464000001,0,0x00,0x5B
37.322256948000003,0,0x00,0x5B
37.322257571999998,0,0x00,0x5B
37.322259060000000,0,0xB8,0x5B
37.322259684000002,0,0x27,0x5B
37.322261167999997,0,0xEB,0x5B
37.322261791999999,0,0x27,0x5B
37.322263276000001,0,0x33,0x5B
37.322263900000003,0,0x53,0x5B
37.322265387999998,0,0xE0,0x5B
37.322266012000000,0,0x0E,0x5B
37.322267496000002,0,0xE1,0x5B
37.322268119999997,0,0xFF,0x5B
37.322269603999999,0,0xD3,0x5B
37.322270228000001,0,0xE2,0x5B
37.322271716000003,0,0x86,0x5B
37.322272339999998,0,0xDD,0x5B
37.322273824000000,0,0x60,0x5B
37.322274448000002,0,0x00,0x5B
37.322275931999997,0,0x00,0x5B
37.322276555999998,0,0x00,0x5B
37.322278044000001,0,0x00,0x5B
37.322278668000003,0,0x14,0x5B
37.322280151999998,0,0x06,0x5B
37.322280775999999,0,0x0A,0x5B
37.322282260000001,0,0xFE,0x5B
37.322282884000003,0,0x80,0x5B
37.322284371999999,0,0x00,0x5B
37.322284996000000,0,0x00,0x5B
37.322286480000002,0,0x00,0x5B
37.322287103999997,0,0x00,0x5B
37.322288587999999,0,0x00,0x5B
37.322289212000001,0,0x00,0x5B
37.322290700000003,0,0xE2,0x5B
37.322291323999998,0,0x0E,0x5B
37.322292808000000,0,0xE1,0x5B
37.322293432000002,0,0xFF,0x5B
37.322294915999997,0,0xFE,0x5B
37.322295543999999,0,0xFF,0x5B
37.322297028000001,0,0xD3,0x5B
37.322297652000003,0,0xE2,0x5B
37.322299135999998,0,0xFE,0x5B
37.322299760000000,0,0x80,0x5B
37.322301244000002,0,0x00,0x5B
37.322301867999997,0,0x00,0x5B
37.322303355999999,0,0x00,0x5B
37.322303980000001,0,0x00,0x5B
37.322305464000003,0,0x00,0x5B
37.322306087999998,0,0x00,0x5B
37.322307572000000,0,0x18,0x5B
37.322308196000002,0,0x1F,0x5B
37.322309683999997,0,0xEF,0x5B
37.322310307999999,0,0xDF,0x5B
37.322311792000001,0,0x97,0x5B
37.322312416000003,0,0xE5,0x5B
37.322313899999997,0,0x21,0x5B
37.322314523999999,0,0x91,0x5B
37.322316012000002,0,0xCC,0x5B
37.322316635999996,0,0x7F,0x5B
37.322318119999998,0,0x3B,0x5B
37.322318744000000,0,0x0E,0x5B
37.322320228000002,0,0x00,0x5B
37.322320855999997,0,0x00,0x5B
37.322322339999999,0,0x19,0x5B
37.322322964000001,0,0x45,0x5B
37.322324448000003,0,0x84,0x5B
37.322325071999998,0,0x4F,0x5B
37.322326556000000,0,0x61,0x5B
37.322327180000002,0,0xD3,0x5B
37.322328667999997,0,0x50,0x5B
37.322329291999999,0,0x10,0x5B
37.322330776000001,0,0x05,0x5B
37.322331400000003,0,0xDC,0x5B
37.322332883999998,0,0x4D,0x5B
37.322333512000000,0,0x9A,0x5B
37.322334996000002,0,0x00,0x5B
37.322335619999997,0,0x00,0x5B
37.322337103999999,0,0x55,0x5B
37.322337728000001,0,0x55,0x5B
37.322339212000003,0,0x80,0x00
37.322339839999998,0,0x01,0x00
37.552208764000000,0,0xC2,0x5B
37.552209388000001,0,0x00,0x5B
37.552210512000002,0,0x00,0x0C
37.552211135999997,0,0x00,0x5B
37.552219620000002,0,0xC2,0x5B
37.552220243999997,0,0x00,0x5B
37.552221371999998,0,0x00,0x0C
37.552221996000000,0,0x00,0x5B
37.552224308000000,0,0x41,0x5B
37.552224932000001,0,0x00,0x5B
37.552226044000001,0,0x00,0x5B
37.552226668000003,0,0x6A,0x5B
37.552228759999998,0,0x00,0x5B
37.552229388000001,0,0x00,0x5B
37.552230856000001,0,0xAA,0x5B
37.552231480000003,0,0xAA,0x5B
37.552232963999998,0,0xAA,0x5B
37.552233588000000,0,0xAA,0x5B
37.552235076000002,0,0x60,0x5B
37.552235699999997,0,0x00,0x5B
37.552237183999999,0,0x00,0x5B
37.552237808000001,0,0x00,0x5B
37.552239292000003,0,0xB8,0x5B
37.552239915999998,0,0x27,0x5B
37.552241404000000,0,0xEB,0x5B
37.552242028000002,0,0x27,0x5B
37.552243511999997,0,0x33,0x5B
37.552244135999999,0,0x53,0x5B
37.552245620000001,0,0xE0,0x5B
37.552246244000003,0,0x0E,0x5B
37.552247731999998,0,0xE1,0x5B
37.552248356000000,0,0xFF,0x5B
37.552249840000002,0,0xD3,0x5B
37.552250463999997,0,0xE2,0x5B
37.552251947999999,0,0x86,0x5B
37.552252572000000,0,0xDD,0x5B
37.552254060000003,0,0x60,0x5B
37.552254683999998,0,0x00,0x5B
37.552256168000000,0,0x00,0x5B
37.552256792000001,0,0x00,0x5B
37.552258276000003,0,0x00,0x5B
37.552258899999998,0,0x2A,0x5B
37.552260388000001,0,0x06,0x5B
37.552261012000002,0,0x0A,0x5B
37.552262495999997,0,0xFE,0x5B
37.552263119999999,0,0x80,0x5B
37.552264604000001,0,0x00,0x5B
37.552265228000003,0,0x00,0x5B
37.552266715999998,0,0x00,0x5B
37.552267340000000,0,0x00,0x5B
37.552268824000002,0,0x00,0x5B
37.552269447999997,0,0x00,0x5B
37.552270931999999,0,0xE2,0x5B
37.552271556000001,0,0x0E,0x5B
37.552273044000003,0,0xE1,0x5B
37.552273667999998,0,0xFF,0x5B
37.552275152000000,0,0xFE,0x5B
37.552275776000002,0,0xFF,0x5B
37.552277259999997,0,0xD3,0x5B
37.552277883999999,0,0xE2,0x5B
37.552279372000001,0,0xFE,0x5B
37.552279996000003,0,0x80,0x5B
37.552281479999998,0,0x00,0x5B
37.552282104000000,0,0x00,0x5B
37.552283588000002,0,0x00,0x5B
37.552284212000004,0,0x00,0x5B
37.552285699999999,0,0x00,0x5B
37.552286324000001,0,0x00,0x5B
37.552287808000003,0,0x18,0x5B
37.552288431999997,0,0x1F,0x5B
37.552289915999999,0,0xEF,0x5B
37.552290540000001,0,0xDF,0x5B
37.552292027999997,0,0x97,0x5B
37.552292651999998,0,0xE5,0x5B
37.552294136000000,0,0x21,0x5B
37.552294760000002,0,0x91,0x5B
37.552296243999997,0,0xCC,0x5B
37.552296867999999,0,0x7F,0x5B
37.552298356000001,0,0x3B,0x5B
37.552298980000003,0,0x0E,0x5B
37.552300463999998,0,0x00,0x5B
37.552301088000000,0,0x00,0x5B
37.552302572000002,0,0x19,0x5B
37.552303195999997,0,0x45,0x5B
37.552304683999999,0,0x84,0x5B
37.552305308000001,0,0x4F,0x5B
37.552306792000003,0,0x61,0x5B
37.552307415999998,0,0xD3,0x5B
37.552308900000000,0,0x50,0x5B
37.552309524000002,0,0x18,0x5B
37.552311011999997,0,0x05,0x5B
37.552311635999999,0,0xDC,0x5B
37.552313120000001,0,0xAF,0x5B
37.552313744000003,0,0xBE,0x5B
37.552315227999998,0,0x00,0x5B
37.552315852000000,0,0x00,0x5B
37.552317340000002,0,0x01,0x5B
37.552317963999997,0,0xFE,0x5B
37.552319447999999,0,0x80,0x5B
37.552320072000001,0,0x01,0x5B
37.552321556000003,0,0x00,0x5B
37.552322179999997,0,0x00,0x5B
37.552323668000000,0,0x00,0x5B
37.552324292000002,0,0x0E,0x5B
37.552325776000004,0,0x80,0x5B
37.552326399999998,0,0x9A,0x5B
37.552327884000000,0,0x02,0x5B
37.552328508000002,0,0x00,0x5B
37.552329995999997,0,0x40,0x5B
37.552330619999999,0,0x80,0x5B
37.552332104000001,0,0xC1,0x5B
37.552332728000003,0,0x01,0x5B
37.552334211999998,0,0x41,0x5B
37.552334840000000,0,0x81,0x5B
37.552336324000002,0,0xC2,0x5B
37.552336947999997,0,0x11,0x5B
37.552338431999999,0,0x94,0x5B
37.552339056000001,0,0x00,0x5B
37.552340540000003,0,0x55,0x5B
37.552341163999998,0,0x55,0x5B
37.552342652000000,0,0x87,0x00
37.552343276000002,0,0xFF,0x00
37.602219544000000,0,0xCD,0x5B
37.602220168000002,0,0x00,0x5B
37.602221296000003,0,0x00,0x00
37.602221919999998,0,0x00,0x47
37.602223748000000,0,0x4D,0x47
37.602224372000002,0,0x00,0x47
37.602225484000002,0,0x00,0x47
37.602226108000004,0,0x00,0x47
37.602228171999997,0,0xCC,0x47
37.602228795999999,0,0x00,0x47
37.602229919999999,0,0x00,0x04
37.602230544000001,0,0x00,0x01
37.602233216000002,0,0xC3,0x01
37.602233839999997,0,0x00,0x01
37.602234967999998,0,0x00,0x00
37.602235592000000,0,0x00,0x58
37.602237467999998,0,0x41,0x58
37.602238092000000,0,0x00,0x58
37.602239200000000,0,0x00,0x58
37.602239824000002,0,0x58,0x58
37.602241984000003,0,0x80,0x58
37.602242607999997,0,0x00,0x58
37.602243747999999,0,0x00,0x00
37.602244372000001,0,0x00,0x00
37.602245812000000,0,0x00,0x00
37.602246436000001,0,0x00,0x54
37.602247872000000,0,0x00,0xAA
37.602248496000001,0,0x00,0xAA
37.602249936000000,0,0x00,0xAA
37.602250560000002,0,0x00,0xAA
37.602251996000000,0,0x00,0x4A
37.602252624000002,0,0x00,0x00
37.602254060000000,0,0x00,0x00
37.602254684000002,0,0x00,0x00
37.602256124000000,0,0x00,0xE0
37.602256748000002,0,0x00,0x0E
37.602258184000000,0,0x00,0xE1
37.602258808000002,0,0x00,0xFF
37.602260248000000,0,0x00,0xD3
37.602260872000002,0,0x00,0xE2
37.602262312000001,0,0x00,0xB8
37.602262936000002,0,0x00,0x27
37.602264372000000,0,0x00,0xEB
37.602264996000002,0,0x00,0x27
37.602266436000001,0,0x00,0x33
37.602267060000003,0,0x00,0x53
37.602268496000001,0,0x00,0x86
37.602269120000003,0,0x00,0xDD
37.602270560000001,0,0x00,0x60
37.602271184000003,0,0x00,0x03
37.602272624000001,0,0x00,0xB3
37.602273248000003,0,0x00,0x51
37.602274684000001,0,0x00,0x00
37.602275308000003,0,0x00,0x14
37.602276748000001,0,0x00,0x06
37.602277372000003,0,0x00,0x40
37.602278808000001,0,0x00,0xFE
37.602279436000003,0,0x00,0x80
37.602280872000001,0,0x00,0x00
37.602281496000003,0,0x00,0x00
37.602282936000002,0,0x00,0x00
37.602283559999996,0,0x00,0x00
37.602284996000002,0,0x00,0x00
37.602285620000004,0,0x00,0x00
37.602287060000002,0,0x00,0x18
37.602287683999997,0,0x00,0x1F
37.602289124000002,0,0x00,0xEF
37.602289747999997,0,0x00,0xDF
37.602291184000002,0,0x00,0x97
37.602291807999997,0,0x00,0xE5
37.602293248000002,0,0x00,0x21
37.602293871999997,0,0x00,0x91
37.602295308000002,0,0x00,0xFE
37.602295935999997,0,0x00,0x80
37.602297372000002,0,0x00,0x00
37.602297995999997,0,0x00,0x00
37.602299436000003,0,0x00,0x00
37.602300059999997,0,0x00,0x00
37.602301496000003,0,0x00,0x00
37.602302119999997,0,0x00,0x00
37.602303560000003,0,0x00,0xE2
37.602304183999998,0,0x00,0x0E
37.602305624000003,0,0x00,0xE1
37.602306247999998,0,0x00,0xFF
37.602307684000003,0,0x00,0xFE
37.602308307999998,0,0x00,0xFF
37.602309748000003,0,0x00,0xD3
37.602310371999998,0,0x00,0xE2
37.602311808000003,0,0x00,0x3B
37.602312431999998,0,0x00,0x0E
37.602313872000003,0,0x00,0xCC
37.602314495999998,0,0x00,0x7F
37.602315935999997,0,0x00,0x84
37.602316559999998,0,0x00,0x4F
37.602317995999996,0,0x00,0x61
37.602318619999998,0,0x00,0xD3
37.602320059999997,0,0x00,0x00
37.602320683999999,0,0x00,0x00
37.602322119999997,0,0x00,0x19
37.602322747999999,0,0x00,0x5B
37.602324183999997,0,0x00,0x50
37.602324807999999,0,0x00,0x10
37.602326247999997,0,0x00,0x70
37.602326871999999,0,0x00,0x80
37.602328307999997,0,0x00,0xE2
37.602328931999999,0,0x00,0xDF
37.602330371999997,0,0x00,0x00
37.602330995999999,0,0x00,0x00
37.602332435999998,0,0x00,0x55
37.602333059999999,0,0x00,0x55
37.602339295999997,0,0x4C,0x55
37.602339919999999,0,0x00,0x55
37.602341027999998,0,0x04,0x55
37.602341652000000,0,0x01,0x55
37.602343824000002,0,0xCD,0x55
37.602344447999997,0,0x00,0x55
37.602345575999998,0,0x00,0x00
37.602346199999999,0,0x00,0x00
37.602348044000003,0,0x4D,0x00
37.602348667999998,0,0x00,0x00
37.602349775999997,0,0x00,0x00
37.602350403999999,0,0x47,0x00
37.622226179999998,0,0xCD,0x00
37.622226804000000,0,0x00,0x00
37.622227932000001,0,0x00,0x00
37.622228556000003,0,0x00,0x47
37.622230383999998,0,0x4D,0x47
37.622231008000000,0,0x00,0x47
37.622232115999999,0,0x00,0x47
37.622232744000002,0,0x00,0x47
37.622234804000001,0,0xCC,0x47
37.622235428000003,0,0x00,0x47
37.622236555999997,0,0x00,0x04
37.622237179999999,0,0x00,0x01
37.622239852000000,0,0xC3,0x01
37.622240476000002,0,0x00,0x01
37.622241600000002,0,0x00,0x00
37.622242227999998,0,0x00,0x73
37.622244100000003,0,0x41,0x73
37.622244727999998,0,0x00,0x73
37.622245835999998,0,0x00,0x73
37.622246460000000,0,0x73,0x73
37.622248648000003,0,0x80,0x73
37.622249271999998,0,0x00,0x73
37.622250416000000,0,0x00,0x00
37.622251040000002,0,0x00,0x00
37.622252476000000,0,0x00,0x00
37.622253100000002,0,0x00,0x6F
37.622254540000000,0,0x00,0xAA
37.622255164000002,0,0x00,0xAA
37.622256600000000,0,0x00,0xAA
37.622257224000002,0,0x00,0xAA
37.622258664000000,0,0x00,0x65
37.622259288000002,0,0x00,0x00
37.622260728000001,0,0x00,0x00
37.622261352000002,0,0x00,0x00
37.622262788000000,0,0x00,0xE0
37.622263412000002,0,0x00,0x0E
37.622264852000001,0,0x00,0xE1
37.622265476000003,0,0x00,0xFF
37.622266916000001,0,0x00,0xD3
37.622267540000003,0,0x00,0xE2
37.622268976000001,0,0x00,0xB8
37.622269600000003,0,0x00,0x27
37.622271040000001,0,0x00,0xEB
37.622271664000003,0,0x00,0x27
37.622273100000001,0,0x00,0x33
37.622273724000003,0,0x00,0x53
37.622275164000001,0,0x00,0x86
37.622275788000003,0,0x00,0xDD
37.622277228000002,0,0x00,0x60
37.622277852000003,0,0x00,0x03
37.622279288000001,0,0x00,0xB3
37.622279912000003,0,0x00,0x51
37.622281352000002,0,0x00,0x00
37.622281975999996,0,0x00,0x2F
37.622283412000002,0,0x00,0x06
37.622284039999997,0,0x00,0x40
37.622285476000002,0,0x00,0xFE
37.622286099999997,0,0x00,0x80
37.622287540000002,0,0x00,0x00
37.622288163999997,0,0x00,0x00
37.622289600000002,0,0x00,0x00
37.622290223999997,0,0x00,0x00
37.622291664000002,0,0x00,0x00
37.622292287999997,0,0x00,0x00
37.622293728000002,0,0x00,0x18
37.622294351999997,0,0x00,0x1F
37.622295788000002,0,0x00,0xEF
37.622296411999997,0,0x00,0xDF
37.622297852000003,0,0x00,0x97
37.622298475999997,0,0x00,0xE5
37.622299912000003,0,0x00,0x21
37.622300535999997,0,0x00,0x91
37.622301976000003,0,0x00,0xFE
37.622302599999998,0,0x00,0x80
37.622304040000003,0,0x00,0x00
37.622304663999998,0,0x00,0x00
37.622306100000003,0,0x00,0x00
37.622306723999998,0,0x00,0x00
37.622308164000003,0,0x00,0x00
37.622308787999998,0,0x00,0x00
37.622310228000003,0,0x00,0xE2
37.622310851999998,0,0x00,0x0E
37.622312288000003,0,0x00,0xE1
37.622312911999998,0,0x00,0xFF
37.622314351999997,0,0x00,0xFE
37.622314975999998,0,0x00,0xFF
37.622316412000004,0,0x00,0xD3
37.622317035999998,0,0x00,0xE2
37.622318475999997,0,0x00,0x3B
37.622319099999999,0,0x00,0x0E
37.622320539999997,0,0x00,0xCC
37.622321163999999,0,0x00,0x7F
37.622322599999997,0,0x00,0x84
37.622323223999999,0,0x00,0x4F
37.622324663999997,0,0x00,0x61
37.622325287999999,0,0x00,0xD3
37.622326723999997,0,0x00,0x00
37.622327351999999,0,0x00,0x00
37.622328787999997,0,0x00,0x19
37.622329411999999,0,0x00,0x5B
37.622330851999997,0,0x00,0x50
37.622331475999999,0,0x00,0x18
37.622332911999997,0,0x00,0x70
37.622333535999999,0,0x00,0x80
37.622334975999998,0,0x00,0x13
37.622335600000000,0,0x00,0xF6
37.622337039999998,0,0x00,0x00
37.622337664000000,0,0x00,0x00
37.622339099999998,0,0x00,0x01
37.622339724000000,0,0x00,0xFE
37.622341163999998,0,0x00,0x80
37.622341788000000,0,0x00,0x01
37.622343223999998,0,0x00,0x00
37.622343852000000,0,0x00,0x00
37.622345287999998,0,0x00,0x00
37.622345912000000,0,0x00,0x13
37.622347351999998,0,0x00,0x80
37.622347976000000,0,0x00,0x9A
37.622349411999998,0,0x00,0x02
37.622350036000000,0,0x00,0x00
37.622351475999999,0,0x00,0x40
37.622352100000001,0,0x00,0x80
37.622353539999999,0,0x00,0xC1
37.622354164000001,0,0x00,0x01
37.622355599999999,0,0x00,0x41
37.622356224000001,0,0x00,0x81
37.622357663999999,0,0x00,0xC2
37.622358288000001,0,0x00,0x11
37.622359723999999,0,0x00,0xA0
37.622360348000001,0,0x00,0x01
37.622361787999999,0,0x00,0x20
37.622362412000001,0,0x00,0x02
37.622363851999999,0,0x00,0x41
37.622364476000001,0,0x00,0x00
37.622365911999999,0,0x00,0xC4
37.622366536000001,0,0x00,0x55
37.622367976000000,0,0x00,0x55
37.622368600000001,0,0x00,0x00
37.622374927999999,0,0x4C,0x55
37.622375552000001,0,0x00,0x55
37.622376664000001,0,0x04,0x55
37.622377288000003,0,0x01,0x55
37.622379459999998,0,0xCD,0x55
37.622380084000000,0,0x00,0x55
37.622381208000000,0,0x00,0x00
37.622381836000002,0,0x00,0x00
37.622383679999999,0,0x4D,0x00
37.622384304000001,0,0x00,0x00
37.622385412000000,0,0x00,0x00
37.622386036000002,0,0x47,0x00
37.642219519999998,0,0xC2,0x00
37.642220143999999,0,0x00,0x00
37.642221268000000,0,0x00,0x0C
37.642221892000002,0,0x00,0x5B
37.642229471999997,0,0xC2,0x5B
37.642230095999999,0,0x00,0x5B
37.642231219999999,0,0x00,0x0C
37.642231844000001,0,0x00,0x5B
37.642234160000001,0,0x41,0x5B
37.642234784000003,0,0x00,0x5B
37.642235892000002,0,0x00,0x5B
37.642236515999997,0,0x54,0x5B
37.642238612000000,0,0x00,0x5B
37.642239236000002,0,0x00,0x5B
37.642240708000003,0,0xAA,0x5B
37.642241331999998,0,0xAA,0x5B
37.642242816000000,0,0xAA,0x5B
37.642243440000001,0,0xAA,0x5B
37.642244924000003,0,0x4A,0x5B
37.642245547999998,0,0x00,0x5B
37.642247032000000,0,0x00,0x5B
37.642247660000002,0,0x00,0x5B
37.642249143999997,0,0xB8,0x5B
37.642249767999999,0,0x27,0x5B
37.642251252000001,0,0xEB,0x5B
37.642251876000003,0,0x27,0x5B
37.642253359999998,0,0x33,0x5B
37.642253988000000,0,0x53,0x5B
37.642255472000002,0,0xE0,0x5B
37.642256095999997,0,0x0E,0x5B
37.642257579999999,0,0xE1,0x5B
37.642258204000001,0,0xFF,0x5B
37.642259692000003,0,0xD3,0x5B
37.642260315999998,0,0xE2,0x5B
37.642261800000000,0,0x86,0x5B
37.642262424000002,0,0xDD,0x5B
37.642263907999997,0,0x60,0x5B
37.642264531999999,0,0x00,0x5B
37.642266020000001,0,0x00,0x5B
37.642266644000003,0,0x00,0x5B
37.642268127999998,0,0x00,0x5B
37.642268752000000,0,0x14,0x5B
37.642270236000002,0,0x06,0x5B
37.642270860000004,0,0x0A,0x5B
37.642272347999999,0,0xFE,0x5B
37.642272972000001,0,0x80,0x5B
37.642274456000003,0,0x00,0x5B
37.642275079999997,0,0x00,0x5B
37.642276563999999,0,0x00,0x5B
37.642277188000001,0,0x00,0x5B
37.642278675999997,0,0x00,0x5B
37.642279299999998,0,0x00,0x5B
37.642280784000000,0,0xE2,0x5B
37.642281408000002,0,0x0E,0x5B
37.642282891999997,0,0xE1,0x5B
37.642283515999999,0,0xFF,0x5B
37.642285004000001,0,0xFE,0x5B
37.642285628000003,0,0xFF,0x5B
37.642287111999998,0,0xD3,0x5B
37.642287736000000,0,0xE2,0x5B
37.642289220000002,0,0xFE,0x5B
37.642289843999997,0,0x80,0x5B
37.642291331999999,0,0x00,0x5B
37.642291956000001,0,0x00,0x5B
37.642293440000003,0,0x00,0x5B
37.642294063999998,0,0x00,0x5B
37.642295548000000,0,0x00,0x5B
37.642296172000002,0,0x00,0x5B
37.642297659999997,0,0x18,0x5B
37.642298283999999,0,0x1F,0x5B
37.642299768000001,0,0xEF,0x5B
37.642300392000003,0,0xDF,0x5B
37.642301875999998,0,0x97,0x5B
37.642302500000000,0,0xE5,0x5B
37.642303988000002,0,0x21,0x5B
37.642304611999997,0,0x91,0x5B
37.642306095999999,0,0xCC,0x5B
37.642306720000001,0,0x7F,0x5B
37.642308204000003,0,0x3B,0x5B
37.642308827999997,0,0x0E,0x5B
37.642310316000000,0,0x00,0x5B
37.642310940000002,0,0x00,0x5B
37.642312424000004,0,0x19,0x5B
37.642313047999998,0,0x5B,0x5B
37.642314532000000,0,0x84,0x5B
37.642315156000002,0,0x4F,0x5B
37.642316643999997,0,0x61,0x5B
37.642317267999999,0,0xEE,0x5B
37.642318752000001,0,0x50,0x5B
37.642319376000003,0,0x10,0x5B
37.642320859999998,0,0x05,0x5B
37.642321484000000,0,0xDC,0x5B
37.642322972000002,0,0x4D,0x5B
37.642323595999997,0,0x69,0x5B
37.642325079999999,0,0x00,0x5B
37.642325704000001,0,0x00,0x5B
37.642327188000003,0,0x55,0x5B
37.642327811999998,0,0x55,0x5B
37.642329300000000,0,0x80,0x00
37.642329924000002,0,0x01,0x00
37.872205676000000,0,0xC2,0x5B
37.872206300000002,0,0x00,0x5B
37.872207424000003,0,0x00,0x0C
37.872208047999997,0,0x00,0x5B
37.872216379999998,0,0xC2,0x5B
37.872217003999999,0,0x00,0x5B
37.872218128000000,0,0x00,0x0C
37.872218752000002,0,0x00,0x5B
37.872221064000001,0,0x41,0x5B
37.872221691999997,0,0x00,0x5B
37.872222800000003,0,0x00,0x5B
37.872223423999998,0,0x6C,0x5B
37.872225520000001,0,0x00,0x5B
37.872226144000003,0,0x00,0x5B
37.872227612000003,0,0xAA,0x5B
37.872228235999998,0,0xAA,0x5B
37.872229724000000,0,0xAA,0x5B
37.872230348000002,0,0xAA,0x5B
37.872231831999997,0,0x62,0x5B
37.872232455999999,0,0x00,0x5B
37.872233940000001,0,0x00,0x5B
37.872234564000003,0,0x00,0x5B
37.872236051999998,0,0xB8,0x5B
37.872236676000000,0,0x27,0x5B
37.872238160000002,0,0xEB,0x5B
37.872238783999997,0,0x27,0x5B
37.872240267999999,0,0x33,0x5B
37.872240892000001,0,0x53,0x5B
37.872242380000003,0,0xE0,0x5B
37.872243003999998,0,0x0E,0x5B
37.872244488000000,0,0xE1,0x5B
37.872245112000002,0,0xFF,0x5B
37.872246595999997,0,0xD3,0x5B
37.872247219999998,0,0xE2,0x5B
37.872248708000001,0,0x86,0x5B
37.872249332000003,0,0xDD,0x5B
37.872250815999998,0,0x60,0x5B
37.872251439999999,0,0x00,0x5B
37.872252924000001,0,0x00,0x5B
37.872253548000003,0,0x00,0x5B
37.872255035999999,0,0x00,0x5B
37.872255660000000,0,0x2C,0x5B
37.872257144000002,0,0x06,0x5B
37.872257767999997,0,0x0A,0x5B
37.872259251999999,0,0xFE,0x5B
37.872259876000001,0,0x80,0x5B
37.872261364000003,0,0x00,0x5B
37.872261987999998,0,0x00,0x5B
37.872263472000000,0,0x00,0x5B
37.872264096000002,0,0x00,0x5B
37.872265579999997,0,0x00,0x5B
37.872266203999999,0,0x00,0x5B
37.872267692000001,0,0xE2,0x5B
37.872268316000003,0,0x0E,0x5B
37.872269799999998,0,0xE1,0x5B
37.872270424000000,0,0xFF,0x5B
37.872271908000002,0,0xFE,0x5B
37.872272531999997,0,0xFF,0x5B
37.872274019999999,0,0xD3,0x5B
37.872274644000001,0,0xE2,0x5B
37.872276128000003,0,0xFE,0x5B
37.872276751999998,0,0x80,0x5B
37.872278236000000,0,0x00,0x5B
37.872278860000002,0,0x00,0x5B
37.872280347999997,0,0x00,0x5B
37.872280971999999,0,0x00,0x5B
37.872282456000001,0,0x00,0x5B
37.872283080000003,0,0x00,0x5B
37.872284563999997,0,0x18,0x5B
37.872285187999999,0,0x1F,0x5B
37.872286676000002,0,0xEF,0x5B
37.872287300000004,0,0xDF,0x5B
37.872288783999998,0,0x97,0x5B
37.872289408000000,0,0xE5,0x5B
37.872290892000002,0,0x21,0x5B
37.872291515999997,0,0x91,0x5B
37.872293003999999,0,0xCC,0x5B
37.872293628000001,0,0x7F,0x5B
37.872295112000003,0,0x3B,0x5B
37.872295735999998,0,0x0E,0x5B
37.872297220000000,0,0x00,0x5B
37.872297844000002,0,0x00,0x5B
37.872299331999997,0,0x19,0x5B
37.872299955999999,0,0x5B,0x5B
37.872301440000001,0,0x84,0x5B
37.872302064000003,0,0x4F,0x5B
37.872303547999998,0,0x61,0x5B
37.872304172000000,0,0xEE,0x5B
37.872305660000002,0,0x50,0x5B
37.872306283999997,0,0x18,0x5B
37.872307767999999,0,0x05,0x5B
37.872308392000001,0,0xDC,0x5B
37.872309876000003,0,0x7F,0x5B
37.872310499999998,0,0x09,0x5B
37.872311988000000,0,0x00,0x5B
37.872312612000002,0,0x00,0x5B
37.872314095999997,0,0x01,0x5B
37.872314719999999,0,0xFE,0x5B
37.872316204000001,0,0x80,0x5B
37.872316828000002,0,0x01,0x5B
37.872318315999998,0,0x00,0x5B
37.872318940000000,0,0x00,0x5B
37.872320424000002,0,0x00,0x5B
37.872321048000003,0,0x10,0x5B
37.872322531999998,0,0x80,0x5B
37.872323156000000,0,0x9A,0x5B
37.872324644000003,0,0x02,0x5B
37.872325267999997,0,0x00,0x5B
37.872326751999999,0,0x40,0x5B
37.872327376000001,0,0x80,0x5B
37.872328860000003,0,0xC1,0x5B
37.872329483999998,0,0x01,0x5B
37.872330972000000,0,0x41,0x5B
37.872331596000002,0,0x81,0x5B
37.872333079999997,0,0xC2,0x5B
37.872333703999999,0,0x11,0x5B
37.872335188000001,0,0xB2,0x5B
37.872335812000003,0,0x00,0x5B
37.872337299999998,0,0x12,0x5B
37.872337924000000,0,0x80,0x5B
37.872339408000002,0,0x55,0x5B
37.872340031999997,0,0x55,0x5B
37.872341515999999,0,0x4F,0x00
37.872342140000001,0,0x88,0x00
37.882216876000001,0,0xCD,0x5B
37.882217500000003,0,0x00,0x5B
37.882218623999997,0,0x00,0x00
37.882219251999999,0,0x00,0x47
37.882221080000001,0,0x4D,0x47
37.882221704000003,0,0x00,0x47
37.882222812000002,0,0x00,0x47
37.882223435999997,0,0x00,0x47
37.882225499999997,0,0xCC,0x47
37.882226123999999,0,0x00,0x47
37.882227252000000,0,0x00,0x04
37.882227876000002,0,0x00,0x01
37.882230548000003,0,0xC3,0x01
37.882231171999997,0,0x00,0x01
37.882232295999998,0,0x00,0x00
37.882232920000000,0,0x00,0x58
37.882234795999999,0,0x41,0x58
37.882235420000001,0,0x00,0x58
37.882236532000000,0,0x00,0x58
37.882237156000002,0,0x58,0x58
37.882239312000003,0,0x80,0x58
37.882239935999998,0,0x00,0x58
37.882241080000000,0,0x00,0x00
37.882241704000002,0,0x00,0x00
37.882243140000000,0,0x00,0x00
37.882243764000002,0,0x00,0x54
37.882245204000000,0,0x00,0xAA
37.882245828000002,0,0x00,0xAA
37.882247264000000,0,0x00,0xAA
37.882247892000002,0,0x00,0xAA
37.882249328000000,0,0x00,0x4A
37.882249952000002,0,0x00,0x00
37.882251392000001,0,0x00,0x00
37.882252016000002,0,0x00,0x00
37.882253452000000,0,0x00,0xE0
37.882254076000002,0,0x00,0x0E
37.882255516000001,0,0x00,0xE1
37.882256140000003,0,0x00,0xFF
37.882257580000001,0,0x00,0xD3
37.882258204000003,0,0x00,0xE2
37.882259640000001,0,0x00,0xB8
37.882260264000003,0,0x00,0x27
37.882261704000001,0,0x00,0xEB
37.882262328000003,0,0x00,0x27
37.882263764000001,0,0x00,0x33
37.882264388000003,0,0x00,0x53
37.882265828000001,0,0x00,0x86
37.882266452000003,0,0x00,0xDD
37.882267892000002,0,0x00,0x60
37.882268516000003,0,0x00,0x03
37.882269952000001,0,0x00,0xB3
37.882270576000003,0,0x00,0x51
37.882272016000002,0,0x00,0x00
37.882272639999996,0,0x00,0x14
37.882274080000002,0,0x00,0x06
37.882274703999997,0,0x00,0x40
37.882276140000002,0,0x00,0xFE
37.882276763999997,0,0x00,0x80
37.882278204000002,0,0x00,0x00
37.882278827999997,0,0x00,0x00
37.882280264000002,0,0x00,0x00
37.882280887999997,0,0x00,0x00
37.882282328000002,0,0x00,0x00
37.882282951999997,0,0x00,0x00
37.882284392000003,0,0x00,0x18
37.882285015999997,0,0x00,0x1F
37.882286452000002,0,0x00,0xEF
37.882287075999997,0,0x00,0xDF
37.882288516000003,0,0x00,0x97
37.882289139999997,0,0x00,0xE5
37.882290576000003,0,0x00,0x21
37.882291203999998,0,0x00,0x91
37.882292640000003,0,0x00,0xFE
37.882293263999998,0,0x00,0x80
37.882294704000003,0,0x00,0x00
37.882295327999998,0,0x00,0x00
37.882296764000003,0,0x00,0x00
37.882297387999998,0,0x00,0x00
37.882298828000003,0,0x00,0x00
37.882299451999998,0,0x00,0x00
37.882300892000004,0,0x00,0xE2
37.882301515999998,0,0x00,0x0E
37.882302952000003,0,0x00,0xE1
37.882303575999998,0,0x00,0xFF
37.882305015999997,0,0x00,0xFE
37.882305639999998,0,0x00,0xFF
37.882307075999996,0,0x00,0xD3
37.882307703999999,0,0x00,0xE2
37.882309139999997,0,0x00,0x3B
37.882309763999999,0,0x00,0x0E
37.882311203999997,0,0x00,0xCC
37.882311827999999,0,0x00,0x7F
37.882313263999997,0,0x00,0x84
37.882313887999999,0,0x00,0x4F
37.882315327999997,0,0x00,0x61
37.882315951999999,0,0x00,0xEE
37.882317391999997,0,0x00,0x00
37.882318015999999,0,0x00,0x00
37.882319451999997,0,0x00,0x19
37.882320075999999,0,0x00,0x73
37.882321515999998,0,0x00,0x50
37.882322139999999,0,0x00,0x10
37.882323575999997,0,0x00,0x70
37.882324199999999,0,0x00,0x80
37.882325639999998,0,0x00,0xE2
37.882326264000000,0,0x00,0xAC
37.882327703999998,0,0x00,0x00
37.882328328000000,0,0x00,0x00
37.882329763999998,0,0x00,0x55
37.882330388000000,0,0x00,0x55
37.882336623999997,0,0x4C,0x55
37.882337247999999,0,0x00,0x55
37.882338359999999,0,0x04,0x55
37.882338984000000,0,0x01,0x55
37.882341156000003,0,0xCD,0x55
37.882341779999997,0,0x00,0x55
37.882342903999998,0,0x00,0x00
37.882343528000000,0,0x00,0x00
37.882345376000004,0,0x4D,0x00
37.882345999999998,0,0x00,0x00
37.882347107999998,0,0x00,0x00
37.882347731999999,0,0x47,0x00
37.912204932000002,0,0xCD,0x00
37.912205556000004,0,0x00,0x00
37.912206679999997,0,0x00,0x00
37.912207303999999,0,0x00,0x47
37.912209132000001,0,0x4D,0x47
37.912209756000003,0,0x00,0x47
37.912210868000003,0,0x00,0x47
37.912211491999997,0,0x00,0x47
37.912213555999998,0,0xCC,0x47
37.912214179999999,0,0x00,0x47
37.912215304000000,0,0x00,0x04
37.912215928000002,0,0x00,0x01
37.912218600000003,0,0xC3,0x01
37.912219223999998,0,0x00,0x01
37.912220351999999,0,0x00,0x00
37.912220976000000,0,0x00,0x6E
37.912222851999999,0,0x41,0x6E
37.912223476000001,0,0x00,0x6E
37.912224588000001,0,0x00,0x6E
37.912225212000003,0,0x6E,0x6E
37.912227368000003,0,0x80,0x6E
37.912227991999998,0,0x00,0x6E
37.912229132000000,0,0x00,0x00
37.912229756000002,0,0x00,0x00
37.912231196000000,0,0x00,0x00
37.912231820000002,0,0x00,0x6A
37.912233256000000,0,0x00,0xAA
37.912233884000003,0,0x00,0xAA
37.912235320000001,0,0x00,0xAA
37.912235944000003,0,0x00,0xAA
37.912237384000001,0,0x00,0x60
37.912238008000003,0,0x00,0x00
37.912239444000001,0,0x00,0x00
37.912240068000003,0,0x00,0x00
37.912241508000001,0,0x00,0xE0
37.912242132000003,0,0x00,0x0E
37.912243572000001,0,0x00,0xE1
37.912244196000003,0,0x00,0xFF
37.912245632000001,0,0x00,0xD3
37.912246256000003,0,0x00,0xE2
37.912247696000001,0,0x00,0xB8
37.912248320000003,0,0x00,0x27
37.912249756000001,0,0x00,0xEB
37.912250383999996,0,0x00,0x27
37.912251820000002,0,0x00,0x33
37.912252444000003,0,0x00,0x53
37.912253884000002,0,0x00,0x86
37.912254507999997,0,0x00,0xDD
37.912255944000002,0,0x00,0x60
37.912256567999997,0,0x00,0x03
37.912258008000002,0,0x00,0xB3
37.912258631999997,0,0x00,0x51
37.912260072000002,0,0x00,0x00
37.912260695999997,0,0x00,0x2A
37.912262132000002,0,0x00,0x06
37.912262755999997,0,0x00,0x40
37.912264196000002,0,0x00,0xFE
37.912264819999997,0,0x00,0x80
37.912266256000002,0,0x00,0x00
37.912266879999997,0,0x00,0x00
37.912268320000003,0,0x00,0x00
37.912268943999997,0,0x00,0x00
37.912270384000003,0,0x00,0x00
37.912271007999998,0,0x00,0x00
37.912272444000003,0,0x00,0x18
37.912273067999998,0,0x00,0x1F
37.912274508000003,0,0x00,0xEF
37.912275131999998,0,0x00,0xDF
37.912276568000003,0,0x00,0x97
37.912277195999998,0,0x00,0xE5
37.912278632000003,0,0x00,0x21
37.912279255999998,0,0x00,0x91
37.912280696000003,0,0x00,0xFE
37.912281319999998,0,0x00,0x80
37.912282756000003,0,0x00,0x00
37.912283379999998,0,0x00,0x00
37.912284820000004,0,0x00,0x00
37.912285443999998,0,0x00,0x00
37.912286883999997,0,0x00,0x00
37.912287507999999,0,0x00,0x00
37.912288943999997,0,0x00,0xE2
37.912289567999998,0,0x00,0x0E
37.912291007999997,0,0x00,0xE1
37.912291631999999,0,0x00,0xFF
37.912293067999997,0,0x00,0xFE
37.912293695999999,0,0x00,0xFF
37.912295131999997,0,0x00,0xD3
37.912295755999999,0,0x00,0xE2
37.912297195999997,0,0x00,0x3B
37.912297819999999,0,0x00,0x0E
37.912299255999997,0,0x00,0xCC
37.912299879999999,0,0x00,0x7F
37.912301319999997,0,0x00,0x84
37.912301943999999,0,0x00,0x4F
37.912303383999998,0,0x00,0x61
37.912304008000000,0,0x00,0xEE
37.912305443999998,0,0x00,0x00
37.912306067999999,0,0x00,0x00
37.912307507999998,0,0x00,0x19
37.912308132000000,0,0x00,0x73
37.912309567999998,0,0x00,0x50
37.912310192000000,0,0x00,0x18
37.912311631999998,0,0x00,0x70
37.912312256000000,0,0x00,0x80
37.912313695999998,0,0x00,0x18
37.912314320000000,0,0x00,0xD1
37.912315755999998,0,0x00,0x00
37.912316380000000,0,0x00,0x00
37.912317819999998,0,0x00,0x01
37.912318444000000,0,0x00,0xFE
37.912319879999998,0,0x00,0x80
37.912320508000001,0,0x00,0x01
37.912321943999999,0,0x00,0x00
37.912322568000000,0,0x00,0x00
37.912324007999999,0,0x00,0x00
37.912324632000001,0,0x00,0x0E
37.912326067999999,0,0x00,0x80
37.912326692000001,0,0x00,0x9A
37.912328131999999,0,0x00,0x02
37.912328756000001,0,0x00,0x00
37.912330195999999,0,0x00,0x40
37.912330820000001,0,0x00,0x80
37.912332255999999,0,0x00,0xC1
37.912332880000001,0,0x00,0x01
37.912334319999999,0,0x00,0x41
37.912334944000001,0,0x00,0x81
37.912336379999999,0,0x00,0xC2
37.912337008000002,0,0x00,0x11
37.912338444000000,0,0x00,0xC0
37.912339068000001,0,0x00,0x00
37.912340508000000,0,0x00,0x55
37.912341132000002,0,0x00,0x55
37.912347396000001,0,0x4C,0x55
37.912348020000003,0,0x00,0x55
37.912349132000003,0,0x04,0x55
37.912349755999998,0,0x01,0x55
37.912351928000000,0,0xCD,0x55
37.912352552000002,0,0x00,0x55
37.912353680000002,0,0x00,0x00
37.912354303999997,0,0x00,0x00
37.912356148000001,0,0x4D,0x00
37.912356772000003,0,0x00,0x00
37.912357880000002,0,0x00,0x00
37.912358507999997,0,0x47,0x00
37.932205095999997,0,0xC2,0x00
37.932205719999999,0,0x00,0x00
37.932206848000000,0,0x00,0x0C
37.932207472000002,0,0x00,0x5B
37.932215051999997,0,0xC2,0x5B
37.932215675999998,0,0x00,0x5B
37.932216799999999,0,0x00,0x0C
37.932217424000001,0,0x00,0x5B
37.932219736000000,0,0x41,0x5B
37.932220360000002,0,0x00,0x5B
37.932221472000002,0,0x00,0x5B
37.932222095999997,0,0x54,0x5B
37.932224192000000,0,0x00,0x5B
37.932224816000002,0,0x00,0x5B
37.932226284000002,0,0xAA,0x5B
37.932226907999997,0,0xAA,0x5B
37.932228391999999,0,0xAA,0x5B
37.932229016000001,0,0xAA,0x5B
37.932230504000003,0,0x4A,0x5B
37.932231127999998,0,0x00,0x5B
37.932232612000000,0,0x00,0x5B
37.932233236000002,0,0x00,0x5B
37.932234719999997,0,0xB8,0x5B
37.932235343999999,0,0x27,0x5B
37.932236832000001,0,0xEB,0x5B
37.932237456000003,0,0x27,0x5B
37.932238939999998,0,0x33,0x5B
37.932239564000000,0,0x53,0x5B
37.932241048000002,0,0xE0,0x5B
37.932241672000004,0,0x0E,0x5B
37.932243159999999,0,0xE1,0x5B
37.932243784000001,0,0xFF,0x5B
37.932245268000003,0,0xD3,0x5B
37.932245891999997,0,0xE2,0x5B
37.932247375999999,0,0x86,0x5B
37.932248000000001,0,0xDD,0x5B
37.932249487999997,0,0x60,0x5B
37.932250111999998,0,0x00,0x5B
37.932251596000000,0,0x00,0x5B
37.932252220000002,0,0x00,0x5B
37.932253703999997,0,0x00,0x5B
37.932254327999999,0,0x14,0x5B
37.932255816000001,0,0x06,0x5B
37.932256440000003,0,0x0A,0x5B
37.932257923999998,0,0xFE,0x5B
37.932258548000000,0,0x80,0x5B
37.932260032000002,0,0x00,0x5B
37.932260655999997,0,0x00,0x5B
37.932262143999999,0,0x00,0x5B
37.932262768000001,0,0x00,0x5B
37.932264252000003,0,0x00,0x5B
37.932264875999998,0,0x00,0x5B
37.932266360000000,0,0xE2,0x5B
37.932266984000002,0,0x0E,0x5B
37.932268471999997,0,0xE1,0x5B
37.932269095999999,0,0xFF,0x5B
37.932270580000001,0,0xFE,0x5B
37.932271204000003,0,0xFF,0x5B
37.932272687999998,0,0xD3,0x5B
37.932273312000000,0,0xE2,0x5B
37.932274800000002,0,0xFE,0x5B
37.932275423999997,0,0x80,0x5B
37.932276907999999,0,0x00,0x5B
37.932277532000001,0,0x00,0x5B
37.932279016000003,0,0x00,0x5B
37.932279639999997,0,0x00,0x5B
37.932281128000000,0,0x00,0x5B
37.932281752000002,0,0x00,0x5B
37.932283236000004,0,0x18,0x5B
37.932283859999998,0,0x1F,0x5B
37.932285344000000,0,0xEF,0x5B
37.932285972000003,0,0xDF,0x5B
37.932287455999997,0,0x97,0x5B
37.932288079999999,0,0xE5,0x5B
37.932289564000001,0,0x21,0x5B
37.932290188000003,0,0x91,0x5B
37.932291671999998,0,0xCC,0x5B
37.932292296000000,0,0x7F,0x5B
37.932293784000002,0,0x3B,0x5B
37.932294407999997,0,0x0E,0x5B
37.932295891999999,0,0x00,0x5B
37.932296516000001,0,0x00,0x5B
37.932298000000003,0,0x19,0x5B
37.932298623999998,0,0x73,0x5B
37.932300112000000,0,0x84,0x5B
37.932300736000002,0,0x4F,0x5B
37.932302219999997,0,0x62,0x5B
37.932302843999999,0,0x04,0x5B
37.932304328000001,0,0x50,0x5B
37.932304956000003,0,0x10,0x5B
37.932306439999998,0,0x05,0x5B
37.932307064000000,0,0xDC,0x5B
37.932308548000002,0,0x4D,0x5B
37.932309171999997,0,0x3B,0x5B
37.932310655999999,0,0x00,0x5B
37.932311284000001,0,0x00,0x5B
37.932312768000003,0,0x55,0x5B
37.932313391999998,0,0x55,0x5B
37.932314876000000,0,0x80,0x00
37.932315500000001,0,0x01,0x00
38.162230911999998,0,0xC2,0x5B
38.162231536000000,0,0x00,0x5B
38.162232660000001,0,0x00,0x0C
38.162233284000003,0,0x00,0x5B
38.162241643999998,0,0xC2,0x5B
38.162242268000000,0,0x00,0x5B
38.162243396000001,0,0x00,0x0C
38.162244020000003,0,0x00,0x5B
38.162246332000002,0,0x41,0x5B
38.162246955999997,0,0x00,0x5B
38.162248064000003,0,0x00,0x5B
38.162248691999999,0,0x69,0x5B
38.162250784000001,0,0x00,0x5B
38.162251408000003,0,0x00,0x5B
38.162252879999997,0,0xAA,0x5B
38.162253503999999,0,0xAA,0x5B
38.162254988000001,0,0xAA,0x5B
38.162255612000003,0,0xAA,0x5B
38.162257095999998,0,0x5F,0x5B
38.162257719999999,0,0x00,0x5B
38.162259208000002,0,0x00,0x5B
38.162259831999997,0,0x00,0x5B
38.162261315999999,0,0xB8,0x5B
38.162261940000000,0,0x27,0x5B
38.162263424000002,0,0xEB,0x5B
38.162264047999997,0,0x27,0x5B
38.162265536000000,0,0x33,0x5B
38.162266160000001,0,0x53,0x5B
38.162267644000003,0,0xE0,0x5B
38.162268267999998,0,0x0E,0x5B
38.162269752000000,0,0xE1,0x5B
38.162270376000002,0,0xFF,0x5B
38.162271863999997,0,0xD3,0x5B
38.162272487999999,0,0xE2,0x5B
38.162273972000001,0,0x86,0x5B
38.162274596000003,0,0xDD,0x5B
38.162276079999998,0,0x60,0x5B
38.162276704000000,0,0x00,0x5B
38.162278192000002,0,0x00,0x5B
38.162278815999997,0,0x00,0x5B
38.162280299999999,0,0x00,0x5B
38.162280924000001,0,0x29,0x5B
38.162282408000003,0,0x06,0x5B
38.162283031999998,0,0x0A,0x5B
38.162284520000000,0,0xFE,0x5B
38.162285144000002,0,0x80,0x5B
38.162286627999997,0,0x00,0x5B
38.162287251999999,0,0x00,0x5B
38.162288736000001,0,0x00,0x5B
38.162289360000003,0,0x00,0x5B
38.162290847999998,0,0x00,0x5B
38.162291472000000,0,0x00,0x5B
38.162292956000002,0,0xE2,0x5B
38.162293579999996,0,0x0E,0x5B
38.162295063999998,0,0xE1,0x5B
38.162295688000000,0,0xFF,0x5B
38.162297176000003,0,0xFE,0x5B
38.162297799999997,0,0xFF,0x5B
38.162299283999999,0,0xD3,0x5B
38.162299908000001,0,0xE2,0x5B
38.162301392000003,0,0xFE,0x5B
38.162302015999998,0,0x80,0x5B
38.162303504000000,0,0x00,0x5B
38.162304128000002,0,0x00,0x5B
38.162305611999997,0,0x00,0x5B
38.162306235999999,0,0x00,0x5B
38.162307720000001,0,0x00,0x5B
38.162308344000003,0,0x00,0x5B
38.162309831999998,0,0x18,0x5B
38.162310456000000,0,0x1F,0x5B
38.162311940000002,0,0xEF,0x5B
38.162312563999997,0,0xDF,0x5B
38.162314047999999,0,0x97,0x5B
38.162314672000001,0,0xE5,0x5B
38.162316160000003,0,0x21,0x5B
38.162316783999998,0,0x91,0x5B
38.162318268000000,0,0xCC,0x5B
38.162318892000002,0,0x7F,0x5B
38.162320375999997,0,0x3B,0x5B
38.162320999999999,0,0x0E,0x5B
38.162322488000001,0,0x00,0x5B
38.162323112000003,0,0x00,0x5B
38.162324595999998,0,0x19,0x5B
38.162325220000000,0,0x73,0x5B
38.162326704000002,0,0x84,0x5B
38.162327328000003,0,0x4F,0x5B
38.162328815999999,0,0x62,0x5B
38.162329440000001,0,0x04,0x5B
38.162330924000003,0,0x50,0x5B
38.162331547999997,0,0x18,0x5B
38.162333031999999,0,0x05,0x5B
38.162333660000002,0,0xDC,0x5B
38.162335143999996,0,0x8B,0x5B
38.162335767999998,0,0x62,0x5B
38.162337252000000,0,0x00,0x5B
38.162337876000002,0,0x00,0x5B
38.162339359999997,0,0x01,0x5B
38.162339987999999,0,0xFE,0x5B
38.162341472000001,0,0x80,0x5B
38.162342096000003,0,0x01,0x5B
38.162343579999998,0,0x00,0x5B
38.162344204000000,0,0x00,0x5B
38.162345688000002,0,0x00,0x5B
38.162346315999997,0,0x0D,0x5B
38.162347799999999,0,0x80,0x5B
38.162348424000001,0,0x9A,0x5B
38.162349908000003,0,0x02,0x5B
38.162350531999998,0,0x00,0x5B
38.162352016000000,0,0x40,0x5B
38.162352644000002,0,0x80,0x5B
38.162354127999997,0,0xC1,0x5B
38.162354751999999,0,0x01,0x5B
38.162356236000001,0,0x41,0x5B
38.162356860000003,0,0x81,0x5B
38.162358347999998,0,0xC2,0x5B
38.162358972000000,0,0x10,0x5B
38.162360456000002,0,0xB8,0x5B
38.162361079999997,0,0x55,0x5B
38.162362563999999,0,0x55,0x5B
38.162363188000000,0,0x80,0x00
38.212202040000001,0,0xCD,0x5B
38.212202664000003,0,0x00,0x5B
38.212203787999997,0,0x00,0x00
38.212204411999998,0,0x00,0x47
38.212206240000000,0,0x4D,0x47
38.212206864000002,0,0x00,0x47
38.212207976000002,0,0x00,0x47
38.212208599999997,0,0x00,0x47
38.212210663999997,0,0xCC,0x47
38.212211287999999,0,0x00,0x47
38.212212412000000,0,0x00,0x04
38.212213036000001,0,0x00,0x01
38.212215708000002,0,0xC3,0x01
38.212216331999997,0,0x00,0x01
38.212217459999998,0,0x00,0x00
38.212218084000000,0,0x00,0x58
38.212219959999999,0,0x41,0x58
38.212220584000001,0,0x00,0x58
38.212221692000000,0,0x00,0x58
38.212222316000002,0,0x58,0x58
38.212224476000003,0,0x80,0x58
38.212225099999998,0,0x00,0x58
38.212226240000000,0,0x00,0x00
38.212226864000002,0,0x00,0x00
38.212228304000000,0,0x00,0x00
38.212228928000002,0,0x00,0x54
38.212230364000000,0,0x00,0xAA
38.212230988000002,0,0x00,0xAA
38.212232428000000,0,0x00,0xAA
38.212233052000002,0,0x00,0xAA
38.212234492000000,0,0x00,0x4A
38.212235116000002,0,0x00,0x00
38.212236552000000,0,0x00,0x00
38.212237176000002,0,0x00,0x00
38.212238616000000,0,0x00,0xE0
38.212239240000002,0,0x00,0x0E
38.212240676000000,0,0x00,0xE1
38.212241300000002,0,0x00,0xFF
38.212242740000001,0,0x00,0xD3
38.212243364000003,0,0x00,0xE2
38.212244804000001,0,0x00,0xB8
38.212245428000003,0,0x00,0x27
38.212246864000001,0,0x00,0xEB
38.212247488000003,0,0x00,0x27
38.212248928000001,0,0x00,0x33
38.212249552000003,0,0x00,0x53
38.212250992000001,0,0x00,0x86
38.212251616000003,0,0x00,0xDD
38.212253052000001,0,0x00,0x60
38.212253676000003,0,0x00,0x03
38.212255116000001,0,0x00,0xB3
38.212255740000003,0,0x00,0x51
38.212257176000001,0,0x00,0x00
38.212257800000003,0,0x00,0x14
38.212259240000002,0,0x00,0x06
38.212259864000004,0,0x00,0x40
38.212261304000002,0,0x00,0xFE
38.212261927999997,0,0x00,0x80
38.212263364000002,0,0x00,0x00
38.212263987999997,0,0x00,0x00
38.212265428000002,0,0x00,0x00
38.212266051999997,0,0x00,0x00
38.212267488000002,0,0x00,0x00
38.212268115999997,0,0x00,0x00
38.212269552000002,0,0x00,0x18
38.212270175999997,0,0x00,0x1F
38.212271616000002,0,0x00,0xEF
38.212272239999997,0,0x00,0xDF
38.212273676000002,0,0x00,0x97
38.212274299999997,0,0x00,0xE5
38.212275740000003,0,0x00,0x21
38.212276363999997,0,0x00,0x91
38.212277804000003,0,0x00,0xFE
38.212278427999998,0,0x00,0x80
38.212279864000003,0,0x00,0x00
38.212280487999998,0,0x00,0x00
38.212281928000003,0,0x00,0x00
38.212282551999998,0,0x00,0x00
38.212283988000003,0,0x00,0x00
38.212284615999998,0,0x00,0x00
38.212286052000003,0,0x00,0xE2
38.212286675999998,0,0x00,0x0E
38.212288116000003,0,0x00,0xE1
38.212288739999998,0,0x00,0xFF
38.212290176000003,0,0x00,0xFE
38.212290799999998,0,0x00,0xFF
38.212292239999996,0,0x00,0xD3
38.212292863999998,0,0x00,0xE2
38.212294303999997,0,0x00,0x3B
38.212294927999999,0,0x00,0x0E
38.212296363999997,0,0x00,0xCC
38.212296987999999,0,0x00,0x7F
38.212298427999997,0,0x00,0x84
38.212299051999999,0,0x00,0x4F
38.212300487999997,0,0x00,0x62
38.212301111999999,0,0x00,0x04
38.212302551999997,0,0x00,0x00
38.212303175999999,0,0x00,0x00
38.212304615999997,0,0x00,0x19
38.212305239999999,0,0x00,0x88
38.212306675999997,0,0x00,0x50
38.212307299999999,0,0x00,0x10
38.212308739999997,0,0x00,0x70
38.212309363999999,0,0x00,0x80
38.212310799999997,0,0x00,0xE2
38.212311428000000,0,0x00,0x81
38.212312863999998,0,0x00,0x00
38.212313487999999,0,0x00,0x00
38.212314927999998,0,0x00,0x55
38.212315552000000,0,0x00,0x55
38.212321787999997,0,0x4C,0x55
38.212322411999999,0,0x00,0x55
38.212323519999998,0,0x04,0x55
38.212324144000000,0,0x01,0x55
38.212326316000002,0,0xCD,0x55
38.212326939999997,0,0x00,0x55
38.212328067999998,0,0x00,0x00
38.212328692000000,0,0x00,0x00
38.212330536000003,0,0x4D,0x00
38.212331159999998,0,0x00,0x00
38.212332271999998,0,0x00,0x00
38.212332895999999,0,0x47,0x00
38.242213372000002,0,0xCD,0x00
38.242213995999997,0,0x00,0x00
38.242215123999998,0,0x00,0x00
38.242215748000000,0,0x00,0x47
38.242217576000002,0,0x4D,0x47
38.242218200000003,0,0x00,0x47
38.242219312000003,0,0x00,0x47
38.242219935999998,0,0x00,0x47
38.242221999999998,0,0xCC,0x47
38.242222624000000,0,0x00,0x47
38.242223748000001,0,0x00,0x04
38.242224372000003,0,0x00,0x01
38.242227044000003,0,0xC3,0x01
38.242227667999998,0,0x00,0x01
38.242228795999999,0,0x00,0x00
38.242229420000001,0,0x00,0x6F
38.242231296000000,0,0x41,0x6F
38.242231920000002,0,0x00,0x6F
38.242233028000001,0,0x00,0x6F
38.242233652000003,0,0x6F,0x6F
38.242235839999999,0,0x80,0x6F
38.242236464000001,0,0x00,0x6F
38.242237608000003,0,0x00,0x00
38.242238231999998,0,0x00,0x00
38.242239668000003,0,0x00,0x00
38.242240291999998,0,0x00,0x6B
38.242241731999997,0,0x00,0xAA
38.242242355999998,0,0x00,0xAA
38.242243795999997,0,0x00,0xAA
38.242244419999999,0,0x00,0xAA
38.242245855999997,0,0x00,0x61
38.242246479999999,0,0x00,0x00
38.242247919999997,0,0x00,0x00
38.242248543999999,0,0x00,0x00
38.242249983999997,0,0x00,0xE0
38.242250607999999,0,0x00,0x0E
38.242252043999997,0,0x00,0xE1
38.242252667999999,0,0x00,0xFF
38.242254107999997,0,0x00,0xD3
38.242254731999999,0,0x00,0xE2
38.242256167999997,0,0x00,0xB8
38.242256791999999,0,0x00,0x27
38.242258231999998,0,0x00,0xEB
38.242258855999999,0,0x00,0x27
38.242260295999998,0,0x00,0x33
38.242260920000000,0,0x00,0x53
38.242262355999998,0,0x00,0x86
38.242262980000000,0,0x00,0xDD
38.242264419999998,0,0x00,0x60
38.242265044000000,0,0x00,0x03
38.242266479999998,0,0x00,0xB3
38.242267108000000,0,0x00,0x51
38.242268543999998,0,0x00,0x00
38.242269168000000,0,0x00,0x2B
38.242270607999998,0,0x00,0x06
38.242271232000000,0,0x00,0x40
38.242272667999998,0,0x00,0xFE
38.242273292000000,0,0x00,0x80
38.242274731999998,0,0x00,0x00
38.242275356000000,0,0x00,0x00
38.242276795999999,0,0x00,0x00
38.242277420000001,0,0x00,0x00
38.242278855999999,0,0x00,0x00
38.242279480000001,0,0x00,0x00
38.242280919999999,0,0x00,0x18
38.242281544000001,0,0x00,0x1F
38.242282979999999,0,0x00,0xEF
38.242283608000001,0,0x00,0xDF
38.242285043999999,0,0x00,0x97
38.242285668000001,0,0x00,0xE5
38.242287107999999,0,0x00,0x21
38.242287732000001,0,0x00,0x91
38.242289167999999,0,0x00,0xFE
38.242289792000001,0,0x00,0x80
38.242291231999999,0,0x00,0x00
38.242291856000001,0,0x00,0x00
38.242293296000000,0,0x00,0x00
38.242293920000002,0,0x00,0x00
38.242295356000000,0,0x00,0x00
38.242295980000002,0,0x00,0x00
38.242297420000000,0,0x00,0xE2
38.242298044000002,0,0x00,0x0E
38.242299480000000,0,0x00,0xE1
38.242300104000002,0,0x00,0xFF
38.242301544000000,0,0x00,0xFE
38.242302168000002,0,0x00,0xFF
38.242303608000000,0,0x00,0xD3
38.242304232000002,0,0x00,0xE2
38.242305668000000,0,0x00,0x3B
38.242306292000002,0,0x00,0x0E
38.242307732000000,0,0x00,0xCC
38.242308356000002,0,0x00,0x7F
38.242309792000000,0,0x00,0x84
38.242310420000003,0,0x00,0x4F
38.242311856000001,0,0x00,0x62
38.242312480000002,0,0x00,0x04
38.242313920000001,0,0x00,0x00
38.242314544000003,0,0x00,0x00
38.242315980000001,0,0x00,0x19
38.242316604000003,0,0x00,0x88
38.242318044000001,0,0x00,0x50
38.242318668000003,0,0x00,0x18
38.242320108000001,0,0x00,0x70
38.242320732000003,0,0x00,0x80
38.242322168000001,0,0x00,0x18
38.242322792000003,0,0x00,0xA5
38.242324232000001,0,0x00,0x00
38.242324856000003,0,0x00,0x00
38.242326292000001,0,0x00,0x01
38.242326919999996,0,0x00,0xFE
38.242328356000002,0,0x00,0x80
38.242328980000003,0,0x00,0x01
38.242330420000002,0,0x00,0x00
38.242331043999997,0,0x00,0x00
38.242332480000002,0,0x00,0x00
38.242333103999997,0,0x00,0x0F
38.242334544000002,0,0x00,0x80
38.242335167999997,0,0x00,0x9A
38.242336608000002,0,0x00,0x02
38.242337231999997,0,0x00,0x00
38.242338668000002,0,0x00,0x40
38.242339291999997,0,0x00,0x80
38.242340732000002,0,0x00,0xC1
38.242341355999997,0,0x00,0x01
38.242342792000002,0,0x00,0x41
38.242343415999997,0,0x00,0x81
38.242344856000003,0,0x00,0xC2
38.242345479999997,0,0x00,0x10
38.242346920000003,0,0x00,0xC0
38.242347543999998,0,0x00,0x00
38.242348980000003,0,0x00,0x00
38.242349603999997,0,0x00,0x55
38.242351044000003,0,0x00,0x55
38.242351667999998,0,0x00,0x00
38.242358076000002,0,0x4C,0x55
38.242358699999997,0,0x00,0x55
38.242359808000003,0,0x04,0x55
38.242360431999998,0,0x01,0x55
38.242362608000001,0,0xCD,0x55
38.242363232000002,0,0x00,0x55
38.242364356000003,0,0x00,0x00
38.242364979999998,0,0x00,0x00
38.242366824000001,0,0x4D,0x00
38.242367448000003,0,0x00,0x00
38.242368560000003,0,0x00,0x00
38.242369183999998,0,0x47,0x00
38.262229947999998,0,0xC2,0x00
38.262230572000000,0,0x00,0x00
38.262231696000001,0,0x00,0x0C
38.262232320000003,0,0x00,0x5B
38.262239899999997,0,0xC2,0x5B
38.262240523999999,0,0x00,0x5B
38.262241648000000,0,0x00,0x0C
38.262242272000002,0,0x00,0x5B
38.262244588000001,0,0x41,0x5B
38.262245212000003,0,0x00,0x5B
38.262246320000003,0,0x00,0x5B
38.262246943999997,0,0x54,0x5B
38.262249040000000,0,0x00,0x5B
38.262249664000002,0,0x00,0x5B
38.262251132000003,0,0xAA,0x5B
38.262251755999998,0,0xAA,0x5B
38.262253244000000,0,0xAA,0x5B
38.262253868000002,0,0xAA,0x5B
38.262255351999997,0,0x4A,0x5B
38.262255975999999,0,0x00,0x5B
38.262257460000001,0,0x00,0x5B
38.262258084000003,0,0x00,0x5B
38.262259571999998,0,0xB8,0x5B
38.262260196000000,0,0x27,0x5B
38.262261680000002,0,0xEB,0x5B
38.262262303999997,0,0x27,0x5B
38.262263787999998,0,0x33,0x5B
38.262264412000000,0,0x53,0x5B
38.262265900000003,0,0xE0,0x5B
38.262266523999998,0,0x0E,0x5B
38.262268007999999,0,0xE1,0x5B
38.262268632000001,0,0xFF,0x5B
38.262270116000003,0,0xD3,0x5B
38.262270739999998,0,0xE2,0x5B
38.262272228000000,0,0x86,0x5B
38.262272852000002,0,0xDD,0x5B
38.262274335999997,0,0x60,0x5B
38.262274959999999,0,0x00,0x5B
38.262276444000001,0,0x00,0x5B
38.262277068000003,0,0x00,0x5B
38.262278555999998,0,0x00,0x5B
38.262279180000000,0,0x14,0x5B
38.262280664000002,0,0x06,0x5B
38.262281287999997,0,0x0A,0x5B
38.262282771999999,0,0xFE,0x5B
38.262283396000001,0,0x80,0x5B
38.262284884000003,0,0x00,0x5B
38.262285507999998,0,0x00,0x5B
38.262286992000000,0,0x00,0x5B
38.262287616000002,0,0x00,0x5B
38.262289099999997,0,0x00,0x5B
38.262289723999999,0,0x00,0x5B
38.262291212000001,0,0xE2,0x5B
38.262291836000003,0,0x0E,0x5B
38.262293319999998,0,0xE1,0x5B
38.262293944000000,0,0xFF,0x5B
38.262295428000002,0,0xFE,0x5B
38.262296055999997,0,0xFF,0x5B
38.262297539999999,0,0xD3,0x5B
38.262298164000001,0,0xE2,0x5B
38.262299648000003,0,0xFE,0x5B
38.262300271999997,0,0x80,0x5B
38.262301755999999,0,0x00,0x5B
38.262302380000001,0,0x00,0x5B
38.262303867999996,0,0x00,0x5B
38.262304491999998,0,0x00,0x5B
38.262305976000000,0,0x00,0x5B
38.262306600000002,0,0x00,0x5B
38.262308083999997,0,0x18,0x5B
38.262308707999999,0,0x1F,0x5B
38.262310196000001,0,0xEF,0x5B
38.262310820000003,0,0xDF,0x5B
38.262312303999998,0,0x97,0x5B
38.262312928000000,0,0xE5,0x5B
38.262314412000002,0,0x21,0x5B
38.262315035999997,0,0x91,0x5B
38.262316523999999,0,0xCC,0x5B
38.262317148000001,0,0x7F,0x5B
38.262318632000003,0,0x3B,0x5B
38.262319255999998,0,0x0E,0x5B
38.262320740000000,0,0x00,0x5B
38.262321368000002,0,0x00,0x5B
38.262322851999997,0,0x19,0x5B
38.262323475999999,0,0x88,0x5B
38.262324960000001,0,0x84,0x5B
38.262325584000003,0,0x4F,0x5B
38.262327067999998,0,0x62,0x5B
38.262327692000000,0,0x1B,0x5B
38.262329180000002,0,0x50,0x5B
38.262329803999997,0,0x10,0x5B
38.262331287999999,0,0x05,0x5B
38.262331912000001,0,0xDC,0x5B
38.262333396000002,0,0x4D,0x5B
38.262334019999997,0,0x0F,0x5B
38.262335508000000,0,0x00,0x5B
38.262336132000001,0,0x00,0x5B
38.262337616000003,0,0x55,0x5B
38.262338239999998,0,0x55,0x5B
38.262339724000000,0,0x80,0x00
38.262340352000002,0,0x01,0x00
38.352200688000003,0,0xCD,0x5B
38.352201311999998,0,0x00,0x5B
38.352202439999999,0,0x00,0x00
38.352203064000001,0,0x00,0x47
38.352204892000003,0,0x4D,0x47
38.352205515999998,0,0x00,0x47
38.352206623999997,0,0x00,0x47
38.352207247999999,0,0x00,0x47
38.352209311999999,0,0xCC,0x47
38.352209936000001,0,0x00,0x47
38.352211064000002,0,0x00,0x04
38.352211687999997,0,0x00,0x01
38.352214359999998,0,0xC3,0x01
38.352214984000000,0,0x00,0x01
38.352216108000000,0,0x00,0x01
38.352216736000003,0,0x00,0x89
38.352218608000001,0,0x41,0x89
38.352219232000003,0,0x00,0x89
38.352220344000003,0,0x01,0x89
38.352220967999997,0,0x89,0x89
38.352223156000001,0,0x80,0x89
38.352223780000003,0,0x00,0x89
38.352224923999998,0,0x00,0x00
38.352225548000000,0,0x00,0x00
38.352226983999998,0,0x00,0x01
38.352227608000000,0,0x00,0x85
38.352229047999998,0,0x00,0xAA
38.352229672000000,0,0x00,0xAA
38.352231107999998,0,0x00,0xAA
38.352231732000000,0,0x00,0xAA
38.352233171999998,0,0x00,0x7B
38.352233796000000,0,0x00,0x01
38.352235235999999,0,0x00,0x00
38.352235860000000,0,0x00,0x00
38.352237295999998,0,0x00,0xFF
38.352237920000000,0,0x00,0xFF
38.352239359999999,0,0x00,0xFF
38.352239984000001,0,0x00,0xFF
38.352241423999999,0,0x00,0xFF
38.352242048000001,0,0x00,0xFF
38.352243483999999,0,0x00,0xB8
38.352244108000001,0,0x00,0x27
38.352245547999999,0,0x00,0xEB
38.352246172000001,0,0x00,0x27
38.352247607999999,0,0x00,0x33
38.352248232000001,0,0x00,0x53
38.352249671999999,0,0x00,0x08
38.352250296000001,0,0x00,0x00
38.352251735999999,0,0x00,0x45
38.352252360000001,0,0x00,0x00
38.352253795999999,0,0x00,0x01
38.352254420000001,0,0x00,0x6D
38.352255860000000,0,0x00,0x94
38.352256484000002,0,0x00,0x2C
38.352257920000000,0,0x00,0x00
38.352258544000001,0,0x00,0x00
38.352259984000000,0,0x00,0x40
38.352260608000002,0,0x00,0x11
38.352262048000000,0,0x00,0xE5
38.352262672000002,0,0x00,0x54
38.352264108000000,0,0x00,0x00
38.352264732000002,0,0x00,0x00
38.352266172000000,0,0x00,0x00
38.352266796000002,0,0x00,0x00
38.352268236000000,0,0x00,0xFF
38.352268860000002,0,0x00,0xFF
38.352270296000000,0,0x00,0xFF
38.352270920000002,0,0x00,0xFF
38.352272360000001,0,0x00,0x00
38.352272984000003,0,0x00,0x44
38.352274420000001,0,0x00,0x00
38.352275044000002,0,0x00,0x43
38.352276484000001,0,0x00,0x01
38.352277108000003,0,0x00,0x59
38.352278548000001,0,0x00,0x4F
38.352279172000003,0,0x00,0x38
38.352280608000001,0,0x00,0x01
38.352281232000003,0,0x00,0x01
38.352282672000001,0,0x00,0x06
38.352283296000003,0,0x00,0x00
38.352284732000001,0,0x00,0xB2
38.352285360000003,0,0x00,0xDA
38.352286796000001,0,0x00,0x94
38.352287420000003,0,0x00,0xCD
38.352288860000002,0,0x00,0x00
38.352289484000003,0,0x00,0xFD
38.352290920000002,0,0x00,0x00
38.352291544000003,0,0x00,0x00
38.352292984000002,0,0x00,0x00
38.352293607999997,0,0x00,0x00
38.352295048000002,0,0x00,0x00
38.352295671999997,0,0x00,0x00
38.352297108000002,0,0x00,0x00
38.352297731999997,0,0x00,0x00
38.352299172000002,0,0x00,0x00
38.352299795999997,0,0x00,0x00
38.352301232000002,0,0x00,0x00
38.352301859999997,0,0x00,0x00
38.352303296000002,0,0x00,0x00
38.352303919999997,0,0x00,0x00
38.352305360000003,0,0x00,0x00
38.352305983999997,0,0x00,0x00
38.352307420000002,0,0x00,0x00
38.352308043999997,0,0x00,0x00
38.352309484000003,0,0x00,0xB8
38.352310107999998,0,0x00,0x27
38.352311548000003,0,0x00,0xEB
38.352312171999998,0,0x00,0x27
38.352313608000003,0,0x00,0x33
38.352314231999998,0,0x00,0x53
38.352315672000003,0,0x00,0x00
38.352316295999998,0,0x00,0x00
38.352317732000003,0,0x00,0x00
38.352318355999998,0,0x00,0x00
38.352319796000003,0,0x00,0x00
38.352320419999998,0,0x00,0x00
38.352321860000004,0,0x00,0x00
38.352322483999998,0,0x00,0x00
38.352323920000003,0,0x00,0x00
38.352324543999998,0,0x00,0x00
38.352325983999997,0,0x00,0x00
38.352326607999998,0,0x00,0x00
38.352328043999997,0,0x00,0x00
38.352328671999999,0,0x00,0x00
38.352330107999997,0,0x00,0x00
38.352330731999999,0,0x00,0x00
38.352332171999997,0,0x00,0x00
38.352332795999999,0,0x00,0x00
38.352334231999997,0,0x00,0x00
38.352334855999999,0,0x00,0x00
38.352336295999997,0,0x00,0x00
38.352336919999999,0,0x00,0x00
38.352338359999997,0,0x00,0x00
38.352338983999999,0,0x00,0x00
38.352340419999997,0,0x00,0x00
38.352341043999999,0,0x00,0x00
38.352342483999998,0,0x00,0x00
38.352343107999999,0,0x00,0x00
38.352344543999997,0,0x00,0x00
38.352345172000000,0,0x00,0x00
38.352346607999998,0,0x00,0x00
38.352347232000000,0,0x00,0x00
38.352348671999998,0,0x00,0x00
38.352349296000000,0,0x00,0x00
38.352350731999998,0,0x00,0x00
38.352351356000000,0,0x00,0x00
38.352352795999998,0,0x00,0x00
38.352353420000000,0,0x00,0x00
38.352354859999998,0,0x00,0x00
38.352355484000000,0,0x00,0x00
38.352356919999998,0,0x00,0x00
38.352357544000000,0,0x00,0x00
38.352358983999999,0,0x00,0x00
38.352359608000000,0,0x00,0x00
38.352361043999998,0,0x00,0x00
38.352361672000001,0,0x00,0x00
38.352363107999999,0,0x00,0x00
38.352363732000001,0,0x00,0x00
38.352365171999999,0,0x00,0x00
38.352365796000001,0,0x00,0x00
38.352367231999999,0,0x00,0x00
38.352367856000001,0,0x00,0x00
38.352369295999999,0,0x00,0x00
38.352369920000001,0,0x00,0x00
38.352371359999999,0,0x00,0x00
38.352371984000001,0,0x00,0x00
38.352373419999999,0,0x00,0x00
38.352374044000001,0,0x00,0x00
38.352375484000000,0,0x00,0x00
38.352376108000001,0,0x00,0x00
38.352377543999999,0,0x00,0x00
38.352378168000001,0,0x00,0x00
38.352379608000000,0,0x00,0x00
38.352380232000002,0,0x00,0x00
38.352381672000000,0,0x00,0x00
38.352382296000002,0,0x00,0x00
38.352383732000000,0,0x00,0x00
38.352384356000002,0,0x00,0x00
38.352385796000000,0,0x00,0x00
38.352386420000002,0,0x00,0x00
38.352387856000000,0,0x00,0x00
38.352388484000002,0,0x00,0x00
38.352389920000000,0,0x00,0x00
38.352390544000002,0,0x00,0x00
38.352391984000000,0,0x00,0x00
38.352392608000002,0,0x00,0x00
38.352394044000000,0,0x00,0x00
38.352394668000002,0,0x00,0x00
38.352396108000001,0,0x00,0x00
38.352396732000003,0,0x00,0x00
38.352398172000001,0,0x00,0x00
38.352398796000003,0,0x00,0x00
38.352400232000001,0,0x00,0x00
38.352400856000003,0,0x00,0x00
38.352402296000001,0,0x00,0x00
38.352402920000003,0,0x00,0x00
38.352404356000001,0,0x00,0x00
38.352404984000003,0,0x00,0x00
38.352406420000001,0,0x00,0x00
38.352407044000003,0,0x00,0x00
38.352408484000001,0,0x00,0x00
38.352409108000003,0,0x00,0x00
38.352410544000001,0,0x00,0x00
38.352411168000003,0,0x00,0x00
38.352412608000002,0,0x00,0x00
38.352413232000004,0,0x00,0x00
38.352414672000002,0,0x00,0x00
38.352415295999997,0,0x00,0x00
38.352416732000002,0,0x00,0x00
38.352417355999997,0,0x00,0x00
38.352418796000002,0,0x00,0x00
38.352419419999997,0,0x00,0x00
38.352420856000002,0,0x00,0x00
38.352421479999997,0,0x00,0x00
38.352422920000002,0,0x00,0x00
38.352423543999997,0,0x00,0x00
38.352424984000002,0,0x00,0x00
38.352425607999997,0,0x00,0x00
38.352427044000002,0,0x00,0x00
38.352427667999997,0,0x00,0x00
38.352429108000003,0,0x00,0x00
38.352429731999997,0,0x00,0x00
38.352431168000003,0,0x00,0x00
38.352431795999998,0,0x00,0x00
38.352433232000003,0,0x00,0x00
38.352433855999998,0,0x00,0x00
38.352435296000003,0,0x00,0x00
38.352435919999998,0,0x00,0x00
38.352437356000003,0,0x00,0x00
38.352437979999998,0,0x00,0x00
38.352439420000003,0,0x00,0x00
38.352440043999998,0,0x00,0x00
38.352441484000003,0,0x00,0x00
38.352442107999998,0,0x00,0x00
38.352443544000003,0,0x00,0x00
38.352444167999998,0,0x00,0x00
38.352445607999996,0,0x00,0x00
38.352446231999998,0,0x00,0x00
38.352447668000003,0,0x00,0x00
38.352448295999999,0,0x00,0x00
38.352449731999997,0,0x00,0x00
38.352450355999999,0,0x00,0x00
38.352451795999997,0,0x00,0x00
38.352452419999999,0,0x00,0x00
38.352453855999997,0,0x00,0x00
38.352454479999999,0,0x00,0x00
38.352455919999997,0,0x00,0x00
38.352456543999999,0,0x00,0x00
38.352457983999997,0,0x00,0x00
38.352458607999999,0,0x00,0x00
38.352460043999997,0,0x00,0x00
38.352460667999999,0,0x00,0x00
38.352462107999997,0,0x00,0x00
38.352462731999999,0,0x00,0x00
38.352464167999997,0,0x00,0x00
38.352464791999999,0,0x00,0x00
38.352466231999998,0,0x00,0x00
38.352466855999999,0,0x00,0x00
38.352468295999998,0,0x00,0x00
38.352468920000000,0,0x00,0x00
38.352470355999998,0,0x00,0x00
38.352470980000000,0,0x00,0x00
38.352472419999998,0,0x00,0x00
38.352473044000000,0,0x00,0x00
38.352474483999998,0,0x00,0x00
38.352475108000000,0,0x00,0x00
38.352476543999998,0,0x00,0x00
38.352477168000000,0,0x00,0x00
38.352478607999998,0,0x00,0x00
38.352479232000000,0,0x00,0x00
38.352480667999998,0,0x00,0x00
38.352481292000000,0,0x00,0x00
38.352482731999999,0,0x00,0x00
38.352483356000000,0,0x00,0x00
38.352484795999999,0,0x00,0x00
38.352485420000001,0,0x00,0x00
38.352486855999999,0,0x00,0x00
38.352487480000001,0,0x00,0x00
38.352488919999999,0,0x00,0x00
38.352489544000001,0,0x00,0x00
38.352490979999999,0,0x00,0x00
38.352491608000001,0,0x00,0x00
38.352493043999999,0,0x00,0x00
38.352493668000001,0,0x00,0x00
38.352495107999999,0,0x00,0x00
38.352495732000001,0,0x00,0x00
38.352497167999999,0,0x00,0x00
38.352497792000001,0,0x00,0x00
38.352499232000000,0,0x00,0x00
38.352499856000001,0,0x00,0x00
38.352501296000000,0,0x00,0x00
38.352501920000002,0,0x00,0x00
38.352503356000000,0,0x00,0x00
38.352503980000002,0,0x00,0x00
38.352505420000000,0,0x00,0x00
38.352506044000002,0,0x00,0x00
38.352507480000000,0,0x00,0x00
38.352508104000002,0,0x00,0x00
38.352509544000000,0,0x00,0x00
38.352510168000002,0,0x00,0x00
38.352511608000000,0,0x00,0x00
38.352512232000002,0,0x00,0x00
38.352513668000000,0,0x00,0x00
38.352514292000002,0,0x00,0x00
38.352515732000001,0,0x00,0x00
38.352516356000002,0,0x00,0x00
38.352517796000001,0,0x00,0x00
38.352518420000003,0,0x00,0x00
38.352519856000001,0,0x00,0x00
38.352520480000003,0,0x00,0x00
38.352521920000001,0,0x00,0x00
38.352522544000003,0,0x00,0x00
38.352523980000001,0,0x00,0x63
38.352524604000003,0,0x00,0x82
38.352526044000001,0,0x00,0x53
38.352526668000003,0,0x00,0x63
38.352528108000001,0,0x00,0x35
38.352528732000003,0,0x00,0x01
38.352530168000001,0,0x00,0x01
38.352530792000003,0,0x00,0x3D
38.352532232000001,0,0x00,0x07
38.352532856000003,0,0x00,0x01
38.352534296000002,0,0x00,0xB8
38.352534919999997,0,0x00,0x27
38.352536356000002,0,0x00,0xEB
38.352536980000004,0,0x00,0x27
38.352538420000002,0,0x00,0x33
38.352539043999997,0,0x00,0x53
38.352540480000002,0,0x00,0x50
38.352541103999997,0,0x00,0x00
38.352542544000002,0,0x00,0x74
38.352543167999997,0,0x00,0x01
38.352544608000002,0,0x00,0x01
38.352545231999997,0,0x00,0x39
38.352546668000002,0,0x00,0x02
38.352547291999997,0,0x00,0x05
38.352548732000002,0,0x00,0xC0
38.352549355999997,0,0x00,0x3C
38.352550792000002,0,0x00,0x2E
38.352551419999998,0,0x00,0x64
38.352552856000003,0,0x00,0x68
38.352553479999997,0,0x00,0x63
38.352554920000003,0,0x00,0x70
38.352555543999998,0,0x00,0x63
38.352556980000003,0,0x00,0x64
38.352557603999998,0,0x00,0x2D
38.352559044000003,0,0x00,0x36
38.352559667999998,0,0x00,0x2E
38.352561108000003,0,0x00,0x31
38.352561731999998,0,0x00,0x31
38.352563168000003,0,0x00,0x2E
38.352563791999998,0,0x00,0x35
38.352565232000003,0,0x00,0x3A
38.352565855999998,0,0x00,0x4C
38.352567292000003,0,0x00,0x69
38.352567919999998,0,0x00,0x6E
38.352569355999997,0,0x00,0x75
38.352569979999998,0,0x00,0x78
38.352571419999997,0,0x00,0x2D
38.352572043999999,0,0x00,0x34
38.352573479999997,0,0x00,0x2E
38.352574103999999,0,0x00,0x31
38.352575543999997,0,0x00,0x34
38.352576167999999,0,0x00,0x2E
38.352577603999997,0,0x00,0x33
38.352578231999999,0,0x00,0x34
38.352579667999997,0,0x00,0x2D
38.352580291999999,0,0x00,0x76
38.352581731999997,0,0x00,0x37
38.352582355999999,0,0x00,0x2B
38.352583791999997,0,0x00,0x3A
38.352584415999999,0,0x00,0x61
38.352585855999997,0,0x00,0x72
38.352586479999999,0,0x00,0x6D
38.352587919999998,0,0x00,0x76
38.352588544000000,0,0x00,0x37
38.352589979999998,0,0x00,0x6C
38.352590604000000,0,0x00,0x3A
38.352592043999998,0,0x00,0x42
38.352592668000000,0,0x00,0x43
38.352594107999998,0,0x00,0x4D
38.352594732000000,0,0x00,0x32
38.352596167999998,0,0x00,0x38
38.352596792000000,0,0x00,0x33
38.352598231999998,0,0x00,0x35
38.352598856000000,0,0x00,0x0C
38.352600291999998,0,0x00,0x05
38.352600916000000,0,0x00,0x52
38.352602355999998,0,0x00,0x50
38.352602980000000,0,0x00,0x69
38.352604419999999,0,0x00,0x33
38.352605044000001,0,0x00,0x44
38.352606479999999,0,0x00,0x91
38.352607104000001,0,0x00,0x01
38.352608543999999,0,0x00,0x01
38.352609168000001,0,0x00,0x37
38.352610603999999,0,0x00,0x0F
38.352611232000001,0,0x00,0x01
38.352612667999999,0,0x00,0x79
38.352613292000001,0,0x00,0x21
38.352614731999999,0,0x00,0x03
38.352615356000001,0,0x00,0x06
38.352616791999999,0,0x00,0x0C
38.352617416000001,0,0x00,0x0F
38.352618855999999,0,0x00,0x1A
38.352619480000001,0,0x00,0x1C
38.352620920000000,0,0x00,0x2A
38.352621544000002,0,0x00,0x33
38.352622980000000,0,0x00,0x36
38.352623604000001,0,0x00,0x3A
38.352625044000000,0,0x00,0x3B
38.352625668000002,0,0x00,0x77
38.352627104000000,0,0x00,0xFF
38.352627732000002,0,0x00,0x55
38.352629168000000,0,0x00,0x55
38.352629792000002,0,0x00,0x00
38.352639119999999,0,0x4C,0x55
38.352639744000001,0,0x00,0x55
38.352640856000001,0,0x04,0x55
38.352641480000003,0,0x01,0x55
38.352643651999998,0,0xCD,0x55
38.352644275999999,0,0x00,0x55
38.352645404000000,0,0x00,0x00
38.352646028000002,0,0x00,0x00
38.352647871999999,0,0x4D,0x00
38.352648496000000,0,0x00,0x00
38.352649604000000,0,0x00,0x00
38.352650228000002,0,0x47,0x00
40.702189992000001,0,0xC2,0x00
40.702190616000003,0,0x00,0x00
40.702191740000004,0,0x00,0x0C
40.702192363999998,0,0x00,0x5B
40.702200820000002,0,0xC2,0x5B
40.702201444000004,0,0x00,0x5B
40.702202567999997,0,0x00,0x0C
40.702203191999999,0,0x00,0x5B
40.702205503999998,0,0x41,0x5B
40.702206128000000,0,0x00,0x5B
40.702207240000000,0,0x00,0x5B
40.702207864000002,0,0x70,0x5B
40.702209959999998,0,0x00,0x5B
40.702210583999999,0,0x00,0x5B
40.702212052000000,0,0xAA,0x5B
40.702212676000002,0,0xAA,0x5B
40.702214159999997,0,0xAA,0x5B
40.702214783999999,0,0xAA,0x5B
40.702216272000001,0,0x66,0x5B
40.702216896000003,0,0x00,0x5B
40.702218379999998,0,0x00,0x5B
40.702219004000000,0,0x00,0x5B
40.702220488000002,0,0xB8,0x5B
40.702221111999997,0,0x27,0x5B
40.702222599999999,0,0xEB,0x5B
40.702223224000001,0,0x27,0x5B
40.702224708000003,0,0x33,0x5B
40.702225331999998,0,0x53,0x5B
40.702226816000000,0,0xE0,0x5B
40.702227440000001,0,0x0E,0x5B
40.702228927999997,0,0xE1,0x5B
40.702229551999999,0,0xFF,0x5B
40.702231036000001,0,0xD3,0x5B
40.702231660000002,0,0xE2,0x5B
40.702233143999997,0,0x86,0x5B
40.702233767999999,0,0xDD,0x5B
40.702235256000002,0,0x60,0x5B
40.702235880000003,0,0x00,0x5B
40.702237363999998,0,0x00,0x5B
40.702237988000000,0,0x00,0x5B
40.702239472000002,0,0x00,0x5B
40.702240095999997,0,0x30,0x5B
40.702241583999999,0,0x06,0x5B
40.702242208000001,0,0x0A,0x5B
40.702243692000003,0,0xFE,0x5B
40.702244315999998,0,0x80,0x5B
40.702245800000000,0,0x00,0x5B
40.702246424000002,0,0x00,0x5B
40.702247911999997,0,0x00,0x5B
40.702248535999999,0,0x00,0x5B
40.702250020000001,0,0x00,0x5B
40.702250644000003,0,0x00,0x5B
40.702252127999998,0,0xE2,0x5B
40.702252752000000,0,0x0E,0x5B
40.702254240000002,0,0xE1,0x5B
40.702254863999997,0,0xFF,0x5B
40.702256347999999,0,0xFE,0x5B
40.702256972000001,0,0xFF,0x5B
40.702258456000003,0,0xD3,0x5B
40.702259079999997,0,0xE2,0x5B
40.702260568000000,0,0xFE,0x5B
40.702261192000002,0,0x80,0x5B
40.702262675999997,0,0x00,0x5B
40.702263299999998,0,0x00,0x5B
40.702264784000000,0,0x00,0x5B
40.702265408000002,0,0x00,0x5B
40.702266895999998,0,0x00,0x5B
40.702267519999999,0,0x00,0x5B
40.702269004000001,0,0x18,0x5B
40.702269628000003,0,0x1F,0x5B
40.702271111999998,0,0xEF,0x5B
40.702271736000000,0,0xDF,0x5B
40.702273224000002,0,0x97,0x5B
40.702273847999997,0,0xE5,0x5B
40.702275331999999,0,0x21,0x5B
40.702275956000001,0,0x91,0x5B
40.702277440000003,0,0xCC,0x5B
40.702278063999998,0,0x7F,0x5B
40.702279552000000,0,0x3B,0x5B
40.702280176000002,0,0x0E,0x5B
40.702281659999997,0,0x00,0x5B
40.702282283999999,0,0x00,0x5B
40.702283768000001,0,0x19,0x5B
40.702284392000003,0,0x88,0x5B
40.702285879999998,0,0x84,0x5B
40.702286504000000,0,0x4F,0x5B
40.702287988000002,0,0x62,0x5B
40.702288611999997,0,0x1B,0x5B
40.702290095999999,0,0x50,0x5B
40.702290724000001,0,0x18,0x5B
40.702292208000003,0,0x05,0x5B
40.702292831999998,0,0xDC,0x5B
40.702294316000000,0,0x0A,0x5B
40.702294940000002,0,0x86,0x5B
40.702296423999996,0,0x00,0x5B
40.702297051999999,0,0x00,0x5B
40.702298536000001,0,0x01,0x5B
40.702299160000003,0,0xFE,0x5B
40.702300643999997,0,0x80,0x5B
40.702301267999999,0,0x01,0x5B
40.702302752000001,0,0x00,0x5B
40.702303379999996,0,0x00,0x5B
40.702304863999998,0,0x00,0x5B
40.702305488000000,0,0x14,0x5B
40.702306972000002,0,0x80,0x5B
40.702307595999997,0,0x9A,0x5B
40.702309083999999,0,0x02,0x5B
40.702309708000001,0,0x00,0x5B
40.702311192000003,0,0x40,0x5B
40.702311815999998,0,0x80,0x5B
40.702313300000000,0,0xC1,0x5B
40.702313924000002,0,0x01,0x5B
40.702315411999997,0,0x41,0x5B
40.702316035999999,0,0x81,0x5B
40.702317520000001,0,0xC2,0x5B
40.702318144000003,0,0x11,0x5B
40.702319627999998,0,0x30,0x5B
40.702320252000000,0,0x22,0x5B
40.702321740000002,0,0x00,0x5B
40.702322363999997,0,0x00,0x5B
40.702323847999999,0,0x08,0x5B
40.702324472000001,0,0x80,0x5B
40.702325956000003,0,0x00,0x5B
40.702326579999998,0,0x00,0x5B
40.702328068000000,0,0x55,0x5B
40.702328692000002,0,0x55,0x5B
40.702330175999997,0,0x55,0x00
40.702330799999999,0,0x9B,0x00
40.712177971999999,0,0xCD,0x5B
40.712178596000001,0,0x00,0x5B
40.712179724000002,0,0x00,0x00
40.712180347999997,0,0x00,0x47
40.712182175999999,0,0x4D,0x47
40.712182800000001,0,0x00,0x47
40.712183908000000,0,0x00,0x47
40.712184532000002,0,0x00,0x47
40.712186596000002,0,0xCC,0x47
40.712187219999997,0,0x00,0x47
40.712188347999998,0,0x00,0x04
40.712188972000000,0,0x00,0x01
40.712191644000001,0,0xC3,0x01
40.712192268000003,0,0x00,0x01
40.712193392000003,0,0x00,0x00
40.712194015999998,0,0x00,0x58
40.712195891999997,0,0x41,0x58
40.712196515999999,0,0x00,0x58
40.712197627999998,0,0x00,0x58
40.712198252000000,0,0x58,0x58
40.712200408000001,0,0x80,0x58
40.712201032000003,0,0x00,0x58
40.712202175999998,0,0x00,0x00
40.712202800000000,0,0x00,0x00
40.712204235999998,0,0x00,0x00
40.712204860000000,0,0x00,0x54
40.712206299999998,0,0x00,0xAA
40.712206924000000,0,0x00,0xAA
40.712208359999998,0,0x00,0xAA
40.712208988000000,0,0x00,0xAA
40.712210423999998,0,0x00,0x4A
40.712211048000000,0,0x00,0x00
40.712212487999999,0,0x00,0x00
40.712213112000001,0,0x00,0x00
40.712214547999999,0,0x00,0xE0
40.712215172000001,0,0x00,0x0E
40.712216611999999,0,0x00,0xE1
40.712217236000001,0,0x00,0xFF
40.712218675999999,0,0x00,0xD3
40.712219300000001,0,0x00,0xE2
40.712220735999999,0,0x00,0xB8
40.712221360000001,0,0x00,0x27
40.712222799999999,0,0x00,0xEB
40.712223424000001,0,0x00,0x27
40.712224859999999,0,0x00,0x33
40.712225484000001,0,0x00,0x53
40.712226923999999,0,0x00,0x86
40.712227548000001,0,0x00,0xDD
40.712228988000000,0,0x00,0x60
40.712229612000002,0,0x00,0x03
40.712231048000000,0,0x00,0xB3
40.712231672000001,0,0x00,0x51
40.712233112000000,0,0x00,0x00
40.712233736000002,0,0x00,0x14
40.712235176000000,0,0x00,0x06
40.712235800000002,0,0x00,0x40
40.712237236000000,0,0x00,0xFE
40.712237860000002,0,0x00,0x80
40.712239300000000,0,0x00,0x00
40.712239924000002,0,0x00,0x00
40.712241360000000,0,0x00,0x00
40.712241984000002,0,0x00,0x00
40.712243424000000,0,0x00,0x00
40.712244048000002,0,0x00,0x00
40.712245488000001,0,0x00,0x18
40.712246112000003,0,0x00,0x1F
40.712247548000001,0,0x00,0xEF
40.712248172000002,0,0x00,0xDF
40.712249612000001,0,0x00,0x97
40.712250236000003,0,0x00,0xE5
40.712251672000001,0,0x00,0x21
40.712252300000003,0,0x00,0x91
40.712253736000001,0,0x00,0xFE
40.712254360000003,0,0x00,0x80
40.712255800000001,0,0x00,0x00
40.712256424000003,0,0x00,0x00
40.712257860000001,0,0x00,0x00
40.712258484000003,0,0x00,0x00
40.712259924000001,0,0x00,0x00
40.712260548000003,0,0x00,0x00
40.712261988000002,0,0x00,0xE2
40.712262612000004,0,0x00,0x0E
40.712264048000002,0,0x00,0xE1
40.712264672000003,0,0x00,0xFF
40.712266112000002,0,0x00,0xFE
40.712266735999997,0,0x00,0xFF
40.712268172000002,0,0x00,0xD3
40.712268799999997,0,0x00,0xE2
40.712270236000002,0,0x00,0x3B
40.712270859999997,0,0x00,0x0E
40.712272300000002,0,0x00,0xCC
40.712272923999997,0,0x00,0x7F
40.712274360000002,0,0x00,0x84
40.712274983999997,0,0x00,0x4F
40.712276424000002,0,0x00,0x62
40.712277047999997,0,0x00,0x1B
40.712278488000003,0,0x00,0x00
40.712279111999997,0,0x00,0x00
40.712280548000003,0,0x00,0x19
40.712281171999997,0,0x00,0xA4
40.712282612000003,0,0x00,0x50
40.712283235999998,0,0x00,0x10
40.712284672000003,0,0x00,0x70
40.712285295999997,0,0x00,0x80
40.712286736000003,0,0x00,0xE2
40.712287359999998,0,0x00,0x4E
40.712288800000003,0,0x00,0x00
40.712289423999998,0,0x00,0x00
40.712290860000003,0,0x00,0x55
40.712291483999998,0,0x00,0x55
40.712297720000002,0,0x4C,0x55
40.712298343999997,0,0x00,0x55
40.712299455999997,0,0x04,0x55
40.712300079999999,0,0x01,0x55
40.712302252000001,0,0xCD,0x55
40.712302876000003,0,0x00,0x55
40.712304000000003,0,0x00,0x00
40.712304623999998,0,0x00,0x00
40.712306472000002,0,0x4D,0x00
40.712307096000004,0,0x00,0x00
40.712308204000003,0,0x00,0x00
40.712308827999998,0,0x47,0x00
40.742189291999999,0,0xCD,0x00
40.742189916000001,0,0x00,0x00
40.742191044000002,0,0x00,0x00
40.742191667999997,0,0x00,0x47
40.742193495999999,0,0x4D,0x47
40.742194120000001,0,0x00,0x47
40.742195228000000,0,0x00,0x47
40.742195856000002,0,0x00,0x47
40.742197916000002,0,0xCC,0x47
40.742198539999997,0,0x00,0x47
40.742199667999998,0,0x00,0x04
40.742200292000000,0,0x00,0x01
40.742202964000001,0,0xC3,0x01
40.742203588000002,0,0x00,0x01
40.742204716000003,0,0x00,0x00
40.742205339999998,0,0x00,0x72
40.742207211999997,0,0x41,0x72
40.742207839999999,0,0x00,0x72
40.742208947999998,0,0x00,0x72
40.742209572000000,0,0x72,0x72
40.742211728000001,0,0x80,0x72
40.742212352000003,0,0x00,0x72
40.742213495999998,0,0x00,0x00
40.742214120000000,0,0x00,0x00
40.742215555999998,0,0x00,0x00
40.742216180000000,0,0x00,0x6E
40.742217619999998,0,0x00,0xAA
40.742218244000000,0,0x00,0xAA
40.742219683999998,0,0x00,0xAA
40.742220308000000,0,0x00,0xAA
40.742221743999998,0,0x00,0x64
40.742222368000000,0,0x00,0x00
40.742223807999999,0,0x00,0x00
40.742224432000000,0,0x00,0x00
40.742225867999998,0,0x00,0xE0
40.742226496000001,0,0x00,0x0E
40.742227931999999,0,0x00,0xE1
40.742228556000001,0,0x00,0xFF
40.742229995999999,0,0x00,0xD3
40.742230620000001,0,0x00,0xE2
40.742232055999999,0,0x00,0xB8
40.742232680000001,0,0x00,0x27
40.742234119999999,0,0x00,0xEB
40.742234744000001,0,0x00,0x27
40.742236183999999,0,0x00,0x33
40.742236808000001,0,0x00,0x53
40.742238243999999,0,0x00,0x86
40.742238868000001,0,0x00,0xDD
40.742240308000000,0,0x00,0x60
40.742240932000001,0,0x00,0x03
40.742242367999999,0,0x00,0xB3
40.742242996000002,0,0x00,0x51
40.742244432000000,0,0x00,0x00
40.742245056000002,0,0x00,0x2E
40.742246496000000,0,0x00,0x06
40.742247120000002,0,0x00,0x40
40.742248556000000,0,0x00,0xFE
40.742249180000002,0,0x00,0x80
40.742250620000000,0,0x00,0x00
40.742251244000002,0,0x00,0x00
40.742252684000000,0,0x00,0x00
40.742253308000002,0,0x00,0x00
40.742254744000000,0,0x00,0x00
40.742255368000002,0,0x00,0x00
40.742256808000000,0,0x00,0x18
40.742257432000002,0,0x00,0x1F
40.742258868000000,0,0x00,0xEF
40.742259492000002,0,0x00,0xDF
40.742260932000001,0,0x00,0x97
40.742261556000003,0,0x00,0xE5
40.742262996000001,0,0x00,0x21
40.742263620000003,0,0x00,0x91
40.742265056000001,0,0x00,0xFE
40.742265680000003,0,0x00,0x80
40.742267120000001,0,0x00,0x00
40.742267744000003,0,0x00,0x00
40.742269184000001,0,0x00,0x00
40.742269808000003,0,0x00,0x00
40.742271244000001,0,0x00,0x00
40.742271868000003,0,0x00,0x00
40.742273308000001,0,0x00,0xE2
40.742273932000003,0,0x00,0x0E
40.742275368000001,0,0x00,0xE1
40.742275992000003,0,0x00,0xFF
40.742277432000002,0,0x00,0xFE
40.742278056000004,0,0x00,0xFF
40.742279496000002,0,0x00,0xD3
40.742280119999997,0,0x00,0xE2
40.742281556000002,0,0x00,0x3B
40.742282179999997,0,0x00,0x0E
40.742283620000002,0,0x00,0xCC
40.742284243999997,0,0x00,0x7F
40.742285680000002,0,0x00,0x84
40.742286307999997,0,0x00,0x4F
40.742287744000002,0,0x00,0x62
40.742288367999997,0,0x00,0x1B
40.742289808000002,0,0x00,0x00
40.742290431999997,0,0x00,0x00
40.742291868000002,0,0x00,0x19
40.742292491999997,0,0x00,0xA4
40.742293932000003,0,0x00,0x50
40.742294555999997,0,0x00,0x18
40.742295996000003,0,0x00,0x70
40.742296619999998,0,0x00,0x80
40.742298056000003,0,0x00,0x78
40.742298679999998,0,0x00,0x27
40.742300120000003,0,0x00,0x00
40.742300743999998,0,0x00,0x00
40.742302180000003,0,0x00,0x01
40.742302807999998,0,0x00,0xFE
40.742304244000003,0,0x00,0x80
40.742304867999998,0,0x00,0x01
40.742306308000003,0,0x00,0x00
40.742306931999998,0,0x00,0x00
40.742308368000003,0,0x00,0x00
40.742308991999998,0,0x00,0x12
40.742310431999996,0,0x00,0x80
40.742311055999998,0,0x00,0x9A
40.742312495999997,0,0x00,0x02
40.742313119999999,0,0x00,0x00
40.742314555999997,0,0x00,0x40
40.742315179999999,0,0x00,0x80
40.742316619999997,0,0x00,0xC1
40.742317243999999,0,0x00,0x01
40.742318679999997,0,0x00,0x41
40.742319307999999,0,0x00,0x81
40.742320743999997,0,0x00,0xC2
40.742321367999999,0,0x00,0x11
40.742322807999997,0,0x00,0x40
40.742323431999999,0,0x00,0x04
40.742324867999997,0,0x00,0x20
40.742325491999999,0,0x00,0x40
40.742326931999997,0,0x00,0x00
40.742327555999999,0,0x00,0x00
40.742328995999998,0,0x00,0x55
40.742329620000000,0,0x00,0x55
40.742335744000002,0,0x4C,0x55
40.742336367999997,0,0x00,0x55
40.742337480000003,0,0x04,0x55
40.742338103999998,0,0x01,0x55
40.742340276000000,0,0xCD,0x55
40.742340900000002,0,0x00,0x55
40.742342024000003,0,0x00,0x00
40.742342647999997,0,0x00,0x00
40.742344496000001,0,0x4D,0x00
40.742345120000003,0,0x00,0x00
40.742346228000002,0,0x00,0x00
40.742346851999997,0,0x47,0x00
40.762189352000000,0,0xC2,0x00
40.762189976000002,0,0x00,0x00
40.762191100000003,0,0x00,0x0C
40.762191723999997,0,0x00,0x5B
40.762199303999999,0,0xC2,0x5B
40.762199928000001,0,0x00,0x5B
40.762201052000002,0,0x00,0x0C
40.762201675999997,0,0x00,0x5B
40.762203992000003,0,0x41,0x5B
40.762204615999998,0,0x00,0x5B
40.762205723999998,0,0x00,0x5B
40.762206347999999,0,0x54,0x5B
40.762208444000002,0,0x00,0x5B
40.762209067999997,0,0x00,0x5B
40.762210535999998,0,0xAA,0x5B
40.762211160000000,0,0xAA,0x5B
40.762212648000002,0,0xAA,0x5B
40.762213271999997,0,0xAA,0x5B
40.762214755999999,0,0x4A,0x5B
40.762215380000001,0,0x00,0x5B
40.762216864000003,0,0x00,0x5B
40.762217487999997,0,0x00,0x5B
40.762218976000000,0,0xB8,0x5B
40.762219600000002,0,0x27,0x5B
40.762221083999997,0,0xEB,0x5B
40.762221707999998,0,0x27,0x5B
40.762223192000000,0,0x33,0x5B
40.762223816000002,0,0x53,0x5B
40.762225303999998,0,0xE0,0x5B
40.762225927999999,0,0x0E,0x5B
40.762227412000001,0,0xE1,0x5B
40.762228036000003,0,0xFF,0x5B
40.762229519999998,0,0xD3,0x5B
40.762230144000000,0,0xE2,0x5B
40.762231632000002,0,0x86,0x5B
40.762232255999997,0,0xDD,0x5B
40.762233739999999,0,0x60,0x5B
40.762234364000001,0,0x00,0x5B
40.762235848000003,0,0x00,0x5B
40.762236471999998,0,0x00,0x5B
40.762237960000000,0,0x00,0x5B
40.762238584000002,0,0x14,0x5B
40.762240067999997,0,0x06,0x5B
40.762240691999999,0,0x0A,0x5B
40.762242176000001,0,0xFE,0x5B
40.762242800000003,0,0x80,0x5B
40.762244287999998,0,0x00,0x5B
40.762244912000000,0,0x00,0x5B
40.762246396000002,0,0x00,0x5B
40.762247019999997,0,0x00,0x5B
40.762248503999999,0,0x00,0x5B
40.762249128000001,0,0x00,0x5B
40.762250616000003,0,0xE2,0x5B
40.762251239999998,0,0x0E,0x5B
40.762252724000000,0,0xE1,0x5B
40.762253348000002,0,0xFF,0x5B
40.762254832000004,0,0xFE,0x5B
40.762255459999999,0,0xFF,0x5B
40.762256944000001,0,0xD3,0x5B
40.762257568000003,0,0xE2,0x5B
40.762259051999997,0,0xFE,0x5B
40.762259675999999,0,0x80,0x5B
40.762261160000001,0,0x00,0x5B
40.762261788000004,0,0x00,0x5B
40.762263271999998,0,0x00,0x5B
40.762263896000000,0,0x00,0x5B
40.762265380000002,0,0x00,0x5B
40.762266003999997,0,0x00,0x5B
40.762267487999999,0,0x18,0x5B
40.762268116000001,0,0x1F,0x5B
40.762269600000003,0,0xEF,0x5B
40.762270223999998,0,0xDF,0x5B
40.762271708000000,0,0x97,0x5B
40.762272332000002,0,0xE5,0x5B
40.762273815999997,0,0x21,0x5B
40.762274443999999,0,0x91,0x5B
40.762275928000001,0,0xCC,0x5B
40.762276552000003,0,0x7F,0x5B
40.762278035999998,0,0x3B,0x5B
40.762278660000000,0,0x0E,0x5B
40.762280144000002,0,0x00,0x5B
40.762280771999997,0,0x00,0x5B
40.762282255999999,0,0x19,0x5B
40.762282880000001,0,0xA4,0x5B
40.762284364000003,0,0x84,0x5B
40.762284987999998,0,0x4F,0x5B
40.762286472000000,0,0x62,0x5B
40.762287100000002,0,0x35,0x5B
40.762288583999997,0,0x50,0x5B
40.762289207999999,0,0x10,0x5B
40.762290692000001,0,0x05,0x5B
40.762291316000002,0,0xDC,0x5B
40.762292803999998,0,0x4C,0x5B
40.762293428000000,0,0xD9,0x5B
40.762294912000002,0,0x00,0x5B
40.762295536000003,0,0x00,0x5B
40.762297019999998,0,0x55,0x5B
40.762297644000000,0,0x55,0x5B
40.762299132000003,0,0x80,0x00
40.762299755999997,0,0x01,0x00
40.792177563999999,0,0xC2,0x5B
40.792178188000001,0,0x00,0x5B
40.792179312000002,0,0x00,0x0C
40.792179935999997,0,0x00,0x5B
40.792188295999999,0,0xC2,0x5B
40.792188920000001,0,0x00,0x5B
40.792190048000002,0,0x00,0x0C
40.792190671999997,0,0x00,0x5B
40.792192984000003,0,0x41,0x5B
40.792193607999998,0,0x00,0x5B
40.792194715999997,0,0x00,0x5B
40.792195344000000,0,0x69,0x5B
40.792197436000002,0,0x00,0x5B
40.792198059999997,0,0x00,0x5B
40.792199531999998,0,0xAA,0x5B
40.792200156000000,0,0xAA,0x5B
40.792201640000002,0,0xAA,0x5B
40.792202263999997,0,0xAA,0x5B
40.792203747999999,0,0x5F,0x5B
40.792204372000000,0,0x00,0x5B
40.792205860000003,0,0x00,0x5B
40.792206483999998,0,0x00,0x5B
40.792207968000000,0,0xB8,0x5B
40.792208592000001,0,0x27,0x5B
40.792210076000003,0,0xEB,0x5B
40.792210699999998,0,0x27,0x5B
40.792212188000001,0,0x33,0x5B
40.792212812000002,0,0x53,0x5B
40.792214295999997,0,0xE0,0x5B
40.792214919999999,0,0x0E,0x5B
40.792216404000001,0,0xE1,0x5B
40.792217028000003,0,0xFF,0x5B
40.792218515999998,0,0xD3,0x5B
40.792219140000000,0,0xE2,0x5B
40.792220624000002,0,0x86,0x5B
40.792221247999997,0,0xDD,0x5B
40.792222731999999,0,0x60,0x5B
40.792223356000001,0,0x00,0x5B
40.792224844000003,0,0x00,0x5B
40.792225467999998,0,0x00,0x5B
40.792226952000000,0,0x00,0x5B
40.792227576000002,0,0x29,0x5B
40.792229059999997,0,0x06,0x5B
40.792229683999999,0,0x0A,0x5B
40.792231172000001,0,0xFE,0x5B
40.792231796000003,0,0x80,0x5B
40.792233279999998,0,0x00,0x5B
40.792233904000000,0,0x00,0x5B
40.792235388000002,0,0x00,0x5B
40.792236011999996,0,0x00,0x5B
40.792237499999999,0,0x00,0x5B
40.792238124000001,0,0x00,0x5B
40.792239608000003,0,0xE2,0x5B
40.792240231999997,0,0x0E,0x5B
40.792241715999999,0,0xE1,0x5B
40.792242340000001,0,0xFF,0x5B
40.792243827999997,0,0xFE,0x5B
40.792244451999998,0,0xFF,0x5B
40.792245936000000,0,0xD3,0x5B
40.792246560000002,0,0xE2,0x5B
40.792248043999997,0,0xFE,0x5B
40.792248667999999,0,0x80,0x5B
40.792250156000001,0,0x00,0x5B
40.792250780000003,0,0x00,0x5B
40.792252263999998,0,0x00,0x5B
40.792252888000000,0,0x00,0x5B
40.792254372000002,0,0x00,0x5B
40.792254995999997,0,0x00,0x5B
40.792256483999999,0,0x18,0x5B
40.792257108000001,0,0x1F,0x5B
40.792258592000003,0,0xEF,0x5B
40.792259215999998,0,0xDF,0x5B
40.792260700000000,0,0x97,0x5B
40.792261324000002,0,0xE5,0x5B
40.792262811999997,0,0x21,0x5B
40.792263435999999,0,0x91,0x5B
40.792264920000001,0,0xCC,0x5B
40.792265544000003,0,0x7F,0x5B
40.792267027999998,0,0x3B,0x5B
40.792267652000000,0,0x0E,0x5B
40.792269140000002,0,0x00,0x5B
40.792269763999997,0,0x00,0x5B
40.792271247999999,0,0x19,0x5B
40.792271872000001,0,0xA4,0x5B
40.792273356000003,0,0x84,0x5B
40.792273979999997,0,0x4F,0x5B
40.792275468000000,0,0x62,0x5B
40.792276092000002,0,0x35,0x5B
40.792277575999996,0,0x50,0x5B
40.792278199999998,0,0x18,0x5B
40.792279684000000,0,0x05,0x5B
40.792280308000002,0,0xDC,0x5B
40.792281795999997,0,0x52,0x5B
40.792282419999999,0,0xFF,0x5B
40.792283904000001,0,0x00,0x5B
40.792284528000003,0,0x00,0x5B
40.792286011999998,0,0x01,0x5B
40.792286636000000,0,0xFE,0x5B
40.792288124000002,0,0x80,0x5B
40.792288747999997,0,0x01,0x5B
40.792290231999999,0,0x00,0x5B
40.792290856000001,0,0x00,0x5B
40.792292340000003,0,0x00,0x5B
40.792292963999998,0,0x0D,0x5B
40.792294452000000,0,0x80,0x5B
40.792295076000002,0,0x9A,0x5B
40.792296559999997,0,0x02,0x5B
40.792297183999999,0,0x00,0x5B
40.792298668000001,0,0x40,0x5B
40.792299296000003,0,0x80,0x5B
40.792300779999998,0,0xC1,0x5B
40.792301404000000,0,0x01,0x5B
40.792302888000002,0,0x41,0x5B
40.792303511999997,0,0x81,0x5B
40.792304995999999,0,0xC2,0x5B
40.792305624000001,0,0x11,0x5B
40.792307108000003,0,0xF0,0x5B
40.792307731999998,0,0x55,0x5B
40.792309216000000,0,0x55,0x5B
40.792309840000001,0,0x00,0x00
40.802188684000001,0,0xCD,0x5B
40.802189308000003,0,0x00,0x5B
40.802190435999997,0,0x00,0x00
40.802191059999998,0,0x00,0x47
40.802192888000000,0,0x4D,0x47
40.802193512000002,0,0x00,0x47
40.802194620000002,0,0x00,0x47
40.802195244000004,0,0x00,0x47
40.802197307999997,0,0xCC,0x47
40.802197931999999,0,0x00,0x47
40.802199060000000,0,0x00,0x04
40.802199684000001,0,0x00,0x01
40.802202356000002,0,0xC3,0x01
40.802202979999997,0,0x00,0x01
40.802204103999998,0,0x00,0x00
40.802204732000000,0,0x00,0x58
40.802206603999998,0,0x41,0x58
40.802207232000001,0,0x00,0x58
40.802208340000000,0,0x00,0x58
40.802208964000002,0,0x58,0x58
40.802211120000003,0,0x80,0x58
40.802211743999997,0,0x00,0x58
40.802212888000000,0,0x00,0x00
40.802213512000002,0,0x00,0x00
40.802214948000000,0,0x00,0x00
40.802215572000001,0,0x00,0x54
40.802217012000000,0,0x00,0xAA
40.802217636000002,0,0x00,0xAA
40.802219076000000,0,0x00,0xAA
40.802219700000002,0,0x00,0xAA
40.802221136000000,0,0x00,0x4A
40.802221760000002,0,0x00,0x00
40.802223200000000,0,0x00,0x00
40.802223824000002,0,0x00,0x00
40.802225260000000,0,0x00,0xE0
40.802225888000002,0,0x00,0x0E
40.802227324000000,0,0x00,0xE1
40.802227948000002,0,0x00,0xFF
40.802229388000001,0,0x00,0xD3
40.802230012000003,0,0x00,0xE2
40.802231448000001,0,0x00,0xB8
40.802232072000002,0,0x00,0x27
40.802233512000001,0,0x00,0xEB
40.802234136000003,0,0x00,0x27
40.802235576000001,0,0x00,0x33
40.802236200000003,0,0x00,0x53
40.802237636000001,0,0x00,0x86
40.802238260000003,0,0x00,0xDD
40.802239700000001,0,0x00,0x60
40.802240324000003,0,0x00,0x03
40.802241760000001,0,0x00,0xB3
40.802242384000003,0,0x00,0x51
40.802243824000001,0,0x00,0x00
40.802244448000003,0,0x00,0x14
40.802245888000002,0,0x00,0x06
40.802246512000004,0,0x00,0x40
40.802247948000002,0,0x00,0xFE
40.802248572000003,0,0x00,0x80
40.802250012000002,0,0x00,0x00
40.802250635999997,0,0x00,0x00
40.802252072000002,0,0x00,0x00
40.802252699999997,0,0x00,0x00
40.802254136000002,0,0x00,0x00
40.802254759999997,0,0x00,0x00
40.802256200000002,0,0x00,0x18
40.802256823999997,0,0x00,0x1F
40.802258260000002,0,0x00,0xEF
40.802258883999997,0,0x00,0xDF
40.802260324000002,0,0x00,0x97
40.802260947999997,0,0x00,0xE5
40.802262388000003,0,0x00,0x21
40.802263011999997,0,0x00,0x91
40.802264448000003,0,0x00,0xFE
40.802265071999997,0,0x00,0x80
40.802266512000003,0,0x00,0x00
40.802267135999998,0,0x00,0x00
40.802268572000003,0,0x00,0x00
40.802269199999998,0,0x00,0x00
40.802270636000003,0,0x00,0x00
40.802271259999998,0,0x00,0x00
40.802272700000003,0,0x00,0xE2
40.802273323999998,0,0x00,0x0E
40.802274760000003,0,0x00,0xE1
40.802275383999998,0,0x00,0xFF
40.802276824000003,0,0x00,0xFE
40.802277447999998,0,0x00,0xFF
40.802278887999996,0,0x00,0xD3
40.802279511999998,0,0x00,0xE2
40.802280948000003,0,0x00,0x3B
40.802281571999998,0,0x00,0x0E
40.802283011999997,0,0x00,0xCC
40.802283635999999,0,0x00,0x7F
40.802285071999997,0,0x00,0x84
40.802285695999998,0,0x00,0x4F
40.802287135999997,0,0x00,0x62
40.802287759999999,0,0x00,0x35
40.802289199999997,0,0x00,0x00
40.802289823999999,0,0x00,0x00
40.802291259999997,0,0x00,0x19
40.802291883999999,0,0x00,0xB9
40.802293323999997,0,0x00,0x50
40.802293947999999,0,0x00,0x10
40.802295387999997,0,0x00,0x70
40.802296011999999,0,0x00,0x80
40.802297447999997,0,0x00,0xE2
40.802298071999999,0,0x00,0x1F
40.802299511999998,0,0x00,0x00
40.802300135999999,0,0x00,0x00
40.802301571999998,0,0x00,0x55
40.802302195999999,0,0x00,0x55
40.802308431999997,0,0x4C,0x55
40.802309055999999,0,0x00,0x55
40.802310167999998,0,0x04,0x55
40.802310792000000,0,0x01,0x55
40.802312964000002,0,0xCD,0x55
40.802313587999997,0,0x00,0x55
40.802314715999998,0,0x00,0x00
40.802315340000000,0,0x00,0x00
40.802317184000003,0,0x4D,0x00
40.802317807999998,0,0x00,0x00
40.802318915999997,0,0x00,0x00
40.802319539999999,0,0x47,0x00
40.832176820000001,0,0xCD,0x00
40.832177444000003,0,0x00,0x00
40.832178568000003,0,0x00,0x00
40.832179191999998,0,0x00,0x47
40.832181020000000,0,0x4D,0x47
40.832181644000002,0,0x00,0x47
40.832182756000002,0,0x00,0x47
40.832183379999996,0,0x00,0x47
40.832185443999997,0,0xCC,0x47
40.832186067999999,0,0x00,0x47
40.832187191999999,0,0x00,0x04
40.832187816000001,0,0x00,0x01
40.832190488000002,0,0xC3,0x01
40.832191111999997,0,0x00,0x01
40.832192239999998,0,0x00,0x00
40.832192864000000,0,0x00,0x6E
40.832194739999998,0,0x41,0x6E
40.832195364000000,0,0x00,0x6E
40.832196472000000,0,0x00,0x6E
40.832197096000002,0,0x6E,0x6E
40.832199256000003,0,0x80,0x6E
40.832199879999997,0,0x00,0x6E
40.832201019999999,0,0x00,0x00
40.832201644000001,0,0x00,0x00
40.832203084000000,0,0x00,0x00
40.832203708000002,0,0x00,0x6A
40.832205144000000,0,0x00,0xAA
40.832205768000001,0,0x00,0xAA
40.832207208000000,0,0x00,0xAA
40.832207832000002,0,0x00,0xAA
40.832209272000000,0,0x00,0x60
40.832209896000002,0,0x00,0x00
40.832211332000000,0,0x00,0x00
40.832211956000002,0,0x00,0x00
40.832213396000000,0,0x00,0xE0
40.832214020000002,0,0x00,0x0E
40.832215456000000,0,0x00,0xE1
40.832216084000002,0,0x00,0xFF
40.832217520000000,0,0x00,0xD3
40.832218144000002,0,0x00,0xE2
40.832219584000001,0,0x00,0xB8
40.832220208000003,0,0x00,0x27
40.832221644000001,0,0x00,0xEB
40.832222268000002,0,0x00,0x27
40.832223708000001,0,0x00,0x33
40.832224332000003,0,0x00,0x53
40.832225772000001,0,0x00,0x86
40.832226396000003,0,0x00,0xDD
40.832227832000001,0,0x00,0x60
40.832228456000003,0,0x00,0x03
40.832229896000001,0,0x00,0xB3
40.832230520000003,0,0x00,0x51
40.832231956000001,0,0x00,0x00
40.832232580000003,0,0x00,0x2A
40.832234020000001,0,0x00,0x06
40.832234644000003,0,0x00,0x40
40.832236084000002,0,0x00,0xFE
40.832236708000003,0,0x00,0x80
40.832238144000002,0,0x00,0x00
40.832238768000003,0,0x00,0x00
40.832240208000002,0,0x00,0x00
40.832240831999997,0,0x00,0x00
40.832242272000002,0,0x00,0x00
40.832242895999997,0,0x00,0x00
40.832244332000002,0,0x00,0x18
40.832244955999997,0,0x00,0x1F
40.832246396000002,0,0x00,0xEF
40.832247019999997,0,0x00,0xDF
40.832248456000002,0,0x00,0x97
40.832249079999997,0,0x00,0xE5
40.832250520000002,0,0x00,0x21
40.832251143999997,0,0x00,0x91
40.832252584000003,0,0x00,0xFE
40.832253207999997,0,0x00,0x80
40.832254644000002,0,0x00,0x00
40.832255267999997,0,0x00,0x00
40.832256708000003,0,0x00,0x00
40.832257331999998,0,0x00,0x00
40.832258768000003,0,0x00,0x00
40.832259395999998,0,0x00,0x00
40.832260832000003,0,0x00,0xE2
40.832261455999998,0,0x00,0x0E
40.832262896000003,0,0x00,0xE1
40.832263519999998,0,0x00,0xFF
40.832264956000003,0,0x00,0xFE
40.832265579999998,0,0x00,0xFF
40.832267020000003,0,0x00,0xD3
40.832267643999998,0,0x00,0xE2
40.832269084000004,0,0x00,0x3B
40.832269707999998,0,0x00,0x0E
40.832271144000003,0,0x00,0xCC
40.832271767999998,0,0x00,0x7F
40.832273207999997,0,0x00,0x84
40.832273831999998,0,0x00,0x4F
40.832275267999997,0,0x00,0x62
40.832275895999999,0,0x00,0x35
40.832277331999997,0,0x00,0x00
40.832277955999999,0,0x00,0x00
40.832279395999997,0,0x00,0x19
40.832280019999999,0,0x00,0xB9
40.832281455999997,0,0x00,0x50
40.832282079999999,0,0x00,0x18
40.832283519999997,0,0x00,0x70
40.832284143999999,0,0x00,0x80
40.832285583999997,0,0x00,0xD8
40.832286207999999,0,0x00,0x43
40.832287643999997,0,0x00,0x00
40.832288267999999,0,0x00,0x00
40.832289707999998,0,0x00,0x01
40.832290331999999,0,0x00,0xFE
40.832291767999997,0,0x00,0x80
40.832292391999999,0,0x00,0x01
40.832293831999998,0,0x00,0x00
40.832294456000000,0,0x00,0x00
40.832295895999998,0,0x00,0x00
40.832296520000000,0,0x00,0x0E
40.832297955999998,0,0x00,0x80
40.832298580000000,0,0x00,0x9A
40.832300019999998,0,0x00,0x02
40.832300644000000,0,0x00,0x00
40.832302083999998,0,0x00,0x40
40.832302708000000,0,0x00,0x80
40.832304143999998,0,0x00,0xC1
40.832304768000000,0,0x00,0x01
40.832306207999999,0,0x00,0x41
40.832306832000000,0,0x00,0x81
40.832308267999998,0,0x00,0xC2
40.832308892000000,0,0x00,0x12
40.832310331999999,0,0x00,0x00
40.832310956000001,0,0x00,0x00
40.832312395999999,0,0x00,0x55
40.832313020000001,0,0x00,0x55
40.832319208000001,0,0x4C,0x55
40.832319832000003,0,0x00,0x55
40.832320940000002,0,0x04,0x55
40.832321563999997,0,0x01,0x55
40.832323740000000,0,0xCD,0x55
40.832324364000002,0,0x00,0x55
40.832325488000002,0,0x00,0x00
40.832326111999997,0,0x00,0x00
40.832327956000000,0,0x4D,0x00
40.832328580000002,0,0x00,0x00
40.832329692000002,0,0x00,0x00
40.832330315999997,0,0x47,0x00
40.852176984000003,0,0xC2,0x00
40.852177607999998,0,0x00,0x00
40.852178735999999,0,0x00,0x0C
40.852179360000001,0,0x00,0x5B
40.852186940000003,0,0xC2,0x5B
40.852187563999998,0,0x00,0x5B
40.852188687999998,0,0x00,0x0C
40.852189312000000,0,0x00,0x5B
40.852191624000000,0,0x41,0x5B
40.852192248000001,0,0x00,0x5B
40.852193360000001,0,0x00,0x5B
40.852193984000003,0,0x54,0x5B
40.852196079999999,0,0x00,0x5B
40.852196704000001,0,0x00,0x5B
40.852198172000001,0,0xAA,0x5B
40.852198796000003,0,0xAA,0x5B
40.852200279999998,0,0xAA,0x5B
40.852200904000000,0,0xAA,0x5B
40.852202392000002,0,0x4A,0x5B
40.852203015999997,0,0x00,0x5B
40.852204499999999,0,0x00,0x5B
40.852205124000001,0,0x00,0x5B
40.852206608000003,0,0xB8,0x5B
40.852207231999998,0,0x27,0x5B
40.852208720000000,0,0xEB,0x5B
40.852209344000002,0,0x27,0x5B
40.852210827999997,0,0x33,0x5B
40.852211451999999,0,0x53,0x5B
40.852212936000001,0,0xE0,0x5B
40.852213560000003,0,0x0E,0x5B
40.852215047999998,0,0xE1,0x5B
40.852215672000000,0,0xFF,0x5B
40.852217156000002,0,0xD3,0x5B
40.852217779999997,0,0xE2,0x5B
40.852219263999999,0,0x86,0x5B
40.852219892000001,0,0xDD,0x5B
40.852221376000003,0,0x60,0x5B
40.852221999999998,0,0x00,0x5B
40.852223484000000,0,0x00,0x5B
40.852224108000001,0,0x00,0x5B
40.852225592000003,0,0x00,0x5B
40.852226215999998,0,0x14,0x5B
40.852227704000001,0,0x06,0x5B
40.852228328000002,0,0x0A,0x5B
40.852229811999997,0,0xFE,0x5B
40.852230435999999,0,0x80,0x5B
40.852231920000001,0,0x00,0x5B
40.852232544000003,0,0x00,0x5B
40.852234031999998,0,0x00,0x5B
40.852234656000000,0,0x00,0x5B
40.852236140000002,0,0x00,0x5B
40.852236763999997,0,0x00,0x5B
40.852238247999999,0,0xE2,0x5B
40.852238872000001,0,0x0E,0x5B
40.852240360000003,0,0xE1,0x5B
40.852240983999998,0,0xFF,0x5B
40.852242468000000,0,0xFE,0x5B
40.852243092000002,0,0xFF,0x5B
40.852244575999997,0,0xD3,0x5B
40.852245199999999,0,0xE2,0x5B
40.852246688000001,0,0xFE,0x5B
40.852247312000003,0,0x80,0x5B
40.852248795999998,0,0x00,0x5B
40.852249420000000,0,0x00,0x5B
40.852250904000002,0,0x00,0x5B
40.852251531999997,0,0x00,0x5B
40.852253015999999,0,0x00,0x5B
40.852253640000001,0,0x00,0x5B
40.852255124000003,0,0x18,0x5B
40.852255747999997,0,0x1F,0x5B
40.852257231999999,0,0xEF,0x5B
40.852257860000002,0,0xDF,0x5B
40.852259343999997,0,0x97,0x5B
40.852259967999998,0,0xE5,0x5B
40.852261452000000,0,0x21,0x5B
40.852262076000002,0,0x91,0x5B
40.852263559999997,0,0xCC,0x5B
40.852264187999999,0,0x7F,0x5B
40.852265672000001,0,0x3B,0x5B
40.852266296000003,0,0x0E,0x5B
40.852267779999998,0,0x00,0x5B
40.852268404000000,0,0x00,0x5B
40.852269892000002,0,0x19,0x5B
40.852270515999997,0,0xB9,0x5B
40.852271999999999,0,0x84,0x5B
40.852272624000001,0,0x4F,0x5B
40.852274108000003,0,0x62,0x5B
40.852274731999998,0,0x4B,0x5B
40.852276220000000,0,0x50,0x5B
40.852276844000002,0,0x10,0x5B
40.852278327999997,0,0x05,0x5B
40.852278951999999,0,0xDC,0x5B
40.852280436000001,0,0x4C,0x5B
40.852281060000003,0,0xAE,0x5B
40.852282547999998,0,0x00,0x5B
40.852283172000000,0,0x00,0x5B
40.852284656000002,0,0x55,0x5B
40.852285279999997,0,0x55,0x5B
40.852286763999999,0,0x80,0x00
40.852287388000001,0,0x01,0x00
40.932176216000002,0,0xC2,0x5B
40.932176839999997,0,0x00,0x5B
40.932177963999997,0,0x00,0x0C
40.932178592000000,0,0x00,0x5B
40.932186168000001,0,0xC2,0x5B
40.932186792000003,0,0x00,0x5B
40.932187919999997,0,0x00,0x0C
40.932188543999999,0,0x00,0x5B
40.932190855999998,0,0x41,0x5B
40.932191480000000,0,0x00,0x5B
40.932192592000000,0,0x00,0x5B
40.932193216000002,0,0x54,0x5B
40.932195307999997,0,0x00,0x5B
40.932195931999999,0,0x00,0x5B
40.932197404000000,0,0xAA,0x5B
40.932198028000002,0,0xAA,0x5B
40.932199511999997,0,0xAA,0x5B
40.932200135999999,0,0xAA,0x5B
40.932201620000001,0,0x4A,0x5B
40.932202244000003,0,0x00,0x5B
40.932203731999998,0,0x00,0x5B
40.932204356000000,0,0x00,0x5B
40.932205840000002,0,0xB8,0x5B
40.932206463999997,0,0x27,0x5B
40.932207947999999,0,0xEB,0x5B
40.932208572000000,0,0x27,0x5B
40.932210060000003,0,0x33,0x5B
40.932210683999998,0,0x53,0x5B
40.932212168000000,0,0xE0,0x5B
40.932212792000001,0,0x0E,0x5B
40.932214276000003,0,0xE1,0x5B
40.932214903999999,0,0xFF,0x5B
40.932216388000001,0,0xD3,0x5B
40.932217012000002,0,0xE2,0x5B
40.932218495999997,0,0x86,0x5B
40.932219119999999,0,0xDD,0x5B
40.932220604000001,0,0x60,0x5B
40.932221232000003,0,0x00,0x5B
40.932222715999998,0,0x00,0x5B
40.932223340000000,0,0x00,0x5B
40.932224824000002,0,0x00,0x5B
40.932225447999997,0,0x14,0x5B
40.932226931999999,0,0x06,0x5B
40.932227560000001,0,0x0A,0x5B
40.932229044000003,0,0xFE,0x5B
40.932229667999998,0,0x80,0x5B
40.932231152000000,0,0x00,0x5B
40.932231776000002,0,0x00,0x5B
40.932233259999997,0,0x00,0x5B
40.932233883999999,0,0x00,0x5B
40.932235372000001,0,0x00,0x5B
40.932235996000003,0,0x00,0x5B
40.932237479999998,0,0xE2,0x5B
40.932238104000000,0,0x0E,0x5B
40.932239588000002,0,0xE1,0x5B
40.932240215999997,0,0xFF,0x5B
40.932241699999999,0,0xFE,0x5B
40.932242324000001,0,0xFF,0x5B
40.932243808000003,0,0xD3,0x5B
40.932244431999997,0,0xE2,0x5B
40.932245920000000,0,0xFE,0x5B
40.932246544000002,0,0x80,0x5B
40.932248027999997,0,0x00,0x5B
40.932248651999998,0,0x00,0x5B
40.932250136000000,0,0x00,0x5B
40.932250760000002,0,0x00,0x5B
40.932252247999998,0,0x00,0x5B
40.932252871999999,0,0x00,0x5B
40.932254356000001,0,0x18,0x5B
40.932254980000003,0,0x1F,0x5B
40.932256463999998,0,0xEF,0x5B
40.932257088000000,0,0xDF,0x5B
40.932258576000002,0,0x97,0x5B
40.932259199999997,0,0xE5,0x5B
40.932260683999999,0,0x21,0x5B
40.932261308000001,0,0x91,0x5B
40.932262792000003,0,0xCC,0x5B
40.932263415999998,0,0x7F,0x5B
40.932264904000000,0,0x3B,0x5B
40.932265528000002,0,0x0E,0x5B
40.932267011999997,0,0x00,0x5B
40.932267635999999,0,0x00,0x5B
40.932269120000001,0,0x19,0x5B
40.932269744000003,0,0xB9,0x5B
40.932271231999998,0,0x84,0x5B
40.932271856000000,0,0x4F,0x5B
40.932273340000002,0,0x62,0x5B
40.932273963999997,0,0x4B,0x5B
40.932275447999999,0,0x50,0x5B
40.932276072000001,0,0x11,0x5B
40.932277560000003,0,0x05,0x5B
40.932278183999998,0,0xDC,0x5B
40.932279668000000,0,0x4C,0x5B
40.932280292000002,0,0xAD,0x5B
40.932281776000004,0,0x00,0x5B
40.932282399999998,0,0x00,0x5B
40.932283888000001,0,0x55,0x5B
40.932284512000003,0,0x55,0x5B
40.932285995999997,0,0x80,0x00
40.932286619999999,0,0x01,0x00
40.952175664000002,0,0xCD,0x5B
40.952176287999997,0,0x00,0x5B
40.952177415999998,0,0x00,0x00
40.952178040000000,0,0x00,0x47
40.952179868000002,0,0x4D,0x47
40.952180491999997,0,0x00,0x47
40.952181600000003,0,0x00,0x47
40.952182223999998,0,0x00,0x47
40.952184287999998,0,0xCC,0x47
40.952184912000000,0,0x00,0x47
40.952186040000001,0,0x00,0x04
40.952186664000003,0,0x00,0x01
40.952189336000004,0,0xC3,0x01
40.952189959999998,0,0x00,0x01
40.952191083999999,0,0x00,0x00
40.952191708000001,0,0x00,0x58
40.952193584000000,0,0x41,0x58
40.952194212000002,0,0x00,0x58
40.952195320000001,0,0x00,0x58
40.952195944000003,0,0x58,0x58
40.952198099999997,0,0x80,0x58
40.952198723999999,0,0x00,0x58
40.952199868000001,0,0x00,0x00
40.952200492000003,0,0x00,0x00
40.952201928000001,0,0x00,0x00
40.952202552000003,0,0x00,0x54
40.952203992000001,0,0x00,0xAA
40.952204616000003,0,0x00,0xAA
40.952206056000001,0,0x00,0xAA
40.952206680000003,0,0x00,0xAA
40.952208116000001,0,0x00,0x4A
40.952208740000003,0,0x00,0x00
40.952210180000002,0,0x00,0x00
40.952210804000003,0,0x00,0x00
40.952212240000001,0,0x00,0xE0
40.952212867999997,0,0x00,0x0E
40.952214304000002,0,0x00,0xE1
40.952214927999997,0,0x00,0xFF
40.952216368000002,0,0x00,0xD3
40.952216991999997,0,0x00,0xE2
40.952218428000002,0,0x00,0xB8
40.952219051999997,0,0x00,0x27
40.952220492000002,0,0x00,0xEB
40.952221115999997,0,0x00,0x27
40.952222556000002,0,0x00,0x33
40.952223179999997,0,0x00,0x53
40.952224616000002,0,0x00,0x86
40.952225239999997,0,0x00,0xDD
40.952226680000003,0,0x00,0x60
40.952227303999997,0,0x00,0x03
40.952228740000002,0,0x00,0xB3
40.952229363999997,0,0x00,0x51
40.952230804000003,0,0x00,0x00
40.952231427999997,0,0x00,0x14
40.952232868000003,0,0x00,0x06
40.952233491999998,0,0x00,0x40
40.952234928000003,0,0x00,0xFE
40.952235551999998,0,0x00,0x80
40.952236992000003,0,0x00,0x00
40.952237615999998,0,0x00,0x00
40.952239052000003,0,0x00,0x00
40.952239679999998,0,0x00,0x00
40.952241116000003,0,0x00,0x00
40.952241739999998,0,0x00,0x00
40.952243180000004,0,0x00,0x18
40.952243803999998,0,0x00,0x1F
40.952245240000003,0,0x00,0xEF
40.952245863999998,0,0x00,0xDF
40.952247303999997,0,0x00,0x97
40.952247927999998,0,0x00,0xE5
40.952249367999997,0,0x00,0x21
40.952249991999999,0,0x00,0x91
40.952251427999997,0,0x00,0xFE
40.952252051999999,0,0x00,0x80
40.952253491999997,0,0x00,0x00
40.952254115999999,0,0x00,0x00
40.952255551999997,0,0x00,0x00
40.952256175999999,0,0x00,0x00
40.952257615999997,0,0x00,0x00
40.952258239999999,0,0x00,0x00
40.952259679999997,0,0x00,0xE2
40.952260303999999,0,0x00,0x0E
40.952261739999997,0,0x00,0xE1
40.952262363999999,0,0x00,0xFF
40.952263803999998,0,0x00,0xFE
40.952264427999999,0,0x00,0xFF
40.952265867999998,0,0x00,0xD3
40.952266492000000,0,0x00,0xE2
40.952267927999998,0,0x00,0x3B
40.952268552000000,0,0x00,0x0E
40.952269991999998,0,0x00,0xCC
40.952270616000000,0,0x00,0x7F
40.952272051999998,0,0x00,0x84
40.952272676000000,0,0x00,0x4F
40.952274115999998,0,0x00,0x62
40.952274740000000,0,0x00,0x4B
40.952276179999998,0,0x00,0x00
40.952276804000000,0,0x00,0x00
40.952278239999998,0,0x00,0x19
40.952278864000000,0,0x00,0xBA
40.952280303999999,0,0x00,0x50
40.952280928000000,0,0x00,0x11
40.952282367999999,0,0x00,0x70
40.952282992000001,0,0x00,0x80
40.952284427999999,0,0x00,0xE2
40.952285052000001,0,0x00,0x07
40.952286491999999,0,0x00,0x00
40.952287116000001,0,0x00,0x00
40.952288551999999,0,0x00,0x55
40.952289176000001,0,0x00,0x55
40.952295411999998,0,0x4C,0x55
40.952296036000000,0,0x00,0x55
40.952297148000000,0,0x04,0x55
40.952297772000001,0,0x01,0x55
40.952299944000004,0,0xCD,0x55
40.952300567999998,0,0x00,0x55
40.952301695999999,0,0x00,0x00
40.952302320000001,0,0x00,0x00
40.952304163999997,0,0x4D,0x00
40.952304787999999,0,0x00,0x00
40.952305895999999,0,0x00,0x00
40.952306520000000,0,0x47,0x00
40.982187300000000,0,0xC2,0x00
40.982187920000001,0,0x00,0x00
40.982189048000002,0,0x00,0x0C
40.982189671999997,0,0x00,0x5B
40.982197251999999,0,0xC2,0x5B
40.982197876000001,0,0x00,0x5B
40.982199000000001,0,0x00,0x0C
40.982199624000003,0,0x00,0x5B
40.982201940000003,0,0x41,0x5B
40.982202563999998,0,0x00,0x5B
40.982203671999997,0,0x00,0x5B
40.982204295999999,0,0x54,0x5B
40.982206392000002,0,0x00,0x5B
40.982207015999997,0,0x00,0x5B
40.982208483999997,0,0xAA,0x5B
40.982209107999999,0,0xAA,0x5B
40.982210596000002,0,0xAA,0x5B
40.982211220000003,0,0xAA,0x5B
40.982212703999998,0,0x4A,0x5B
40.982213328000000,0,0x00,0x5B
40.982214812000002,0,0x00,0x5B
40.982215435999997,0,0x00,0x5B
40.982216923999999,0,0xB8,0x5B
40.982217548000001,0,0x27,0x5B
40.982219032000003,0,0xEB,0x5B
40.982219655999998,0,0x27,0x5B
40.982221140000000,0,0x33,0x5B
40.982221764000002,0,0x53,0x5B
40.982223251999997,0,0xE0,0x5B
40.982223875999999,0,0x0E,0x5B
40.982225360000001,0,0xE1,0x5B
40.982225984000003,0,0xFF,0x5B
40.982227467999998,0,0xD3,0x5B
40.982228092000000,0,0xE2,0x5B
40.982229580000002,0,0x86,0x5B
40.982230203999997,0,0xDD,0x5B
40.982231687999999,0,0x60,0x5B
40.982232312000001,0,0x00,0x5B
40.982233796000003,0,0x00,0x5B
40.982234419999997,0,0x00,0x5B
40.982235908000000,0,0x00,0x5B
40.982236532000002,0,0x14,0x5B
40.982238015999997,0,0x06,0x5B
40.982238639999998,0,0x0A,0x5B
40.982240124000000,0,0xFE,0x5B
40.982240748000002,0,0x80,0x5B
40.982242235999998,0,0x00,0x5B
40.982242859999999,0,0x00,0x5B
40.982244344000001,0,0x00,0x5B
40.982244968000003,0,0x00,0x5B
40.982246451999998,0,0x00,0x5B
40.982247076000000,0,0x00,0x5B
40.982248564000002,0,0xE2,0x5B
40.982249187999997,0,0x0E,0x5B
40.982250671999999,0,0xE1,0x5B
40.982251296000001,0,0xFF,0x5B
40.982252780000003,0,0xFE,0x5B
40.982253403999998,0,0xFF,0x5B
40.982254892000000,0,0xD3,0x5B
40.982255516000002,0,0xE2,0x5B
40.982256999999997,0,0xFE,0x5B
40.982257623999999,0,0x80,0x5B
40.982259108000001,0,0x00,0x5B
40.982259732000003,0,0x00,0x5B
40.982261219999998,0,0x00,0x5B
40.982261844000000,0,0x00,0x5B
40.982263328000002,0,0x00,0x5B
40.982263951999997,0,0x00,0x5B
40.982265435999999,0,0x18,0x5B
40.982266060000001,0,0x1F,0x5B
40.982267548000003,0,0xEF,0x5B
40.982268171999998,0,0xDF,0x5B
40.982269656000000,0,0x97,0x5B
40.982270280000002,0,0xE5,0x5B
40.982271763999996,0,0x21,0x5B
40.982272387999998,0,0x91,0x5B
40.982273876000001,0,0xCC,0x5B
40.982274500000003,0,0x7F,0x5B
40.982275983999997,0,0x3B,0x5B
40.982276607999999,0,0x0E,0x5B
40.982278092000001,0,0x00,0x5B
40.982278716000003,0,0x00,0x5B
40.982280203999998,0,0x19,0x5B
40.982280828000000,0,0xBA,0x5B
40.982282312000002,0,0x84,0x5B
40.982282935999997,0,0x4F,0x5B
40.982284419999999,0,0x62,0x5B
40.982285044000001,0,0x4C,0x5B
40.982286532000003,0,0x50,0x5B
40.982287155999998,0,0x10,0x5B
40.982288640000000,0,0x05,0x5B
40.982289264000002,0,0xDC,0x5B
40.982290747999997,0,0x4C,0x5B
40.982291371999999,0,0xAC,0x5B
40.982292860000001,0,0x00,0x5B
40.982293484000003,0,0x00,0x5B
40.982294967999998,0,0x55,0x5B
40.982295592000000,0,0x55,0x5B
40.982297076000002,0,0x80,0x00
40.982297699999997,0,0x01,0x00
