name,type,start_time,"mosi","miso"
"SPI","enable",7.47541858,,
"SPI","result",7.47541884,0xC2,0x00
"SPI","result",7.47541946,0x00,0x00
"SPI","result",7.4754206,0x00,0x00
"SPI","result",7.47542122,0x00,0x00
"SPI","disable",7.4754221,,
"SPI","enable",7.4754237,,
"SPI","result",7.47542398,0xC2,0x00
"SPI","result",7.4754246,0x00,0x00
"SPI","result",7.47542572,0x00,0x00
"SPI","result",7.47542634,0x00,0x00
"SPI","disable",7.47542722,,
"SPI","enable",7.47542882,,
"SPI","result",7.4754291,0xC2,0x00
"SPI","result",7.47542972,0x00,0x00
"SPI","result",7.47543084,0x00,0x00
"SPI","result",7.47543146,0x00,0x00
"SPI","disable",7.47543234,,
"SPI","enable",7.4854017,,
"SPI","result",7.48540196,0xDA,0x00
"SPI","result",7.48540258,0x00,0x00
"SPI","result",7.4854037,0x00,0x00
"SPI","result",7.48540434,0x00,0x00
"SPI","disable",7.4854052,,
"SPI","enable",7.4854181,,
"SPI","result",7.48541836,0xC2,0x00
"SPI","result",7.48541898,0x00,0x00
"SPI","result",7.48542012,0x00,0x00
"SPI","result",7.48542074,0x00,0x00
"SPI","disable",7.48542162,,
"SPI","enable",7.48542322,,
"SPI","result",7.48542348,0xC2,0x00
"SPI","result",7.48542412,0x00,0x00
"SPI","result",7.48542524,0x00,0x00
"SPI","result",7.48542586,0x00,0x00
"SPI","disable",7.48542674,,
"SPI","enable",7.48542834,,
"SPI","result",7.48542862,0xC2,0x00
"SPI","result",7.48542924,0x00,0x00
"SPI","result",7.48543036,0x00,0x00
"SPI","result",7.48543098,0x00,0x00
"SPI","disable",7.48543186,,
"SPI","enable",7.4954015,,
"SPI","result",7.49540176,0xDA,0x00
"SPI","result",7.49540238,0x00,0x00
"SPI","result",7.4954035,0x00,0x00
"SPI","result",7.49540414,0x00,0x00
"SPI","disable",7.495405,,
"SPI","enable",7.4954179,,
"SPI","result",7.49541816,0xC2,0x00
"SPI","result",7.49541878,0x00,0x00
"SPI","result",7.49541992,0x00,0x00
"SPI","result",7.49542054,0x00,0x00
"SPI","disable",7.49542142,,
"SPI","enable",7.49542302,,
"SPI","result",7.4954233,0xC2,0x00
"SPI","result",7.49542392,0x00,0x00
"SPI","result",7.49542504,0x00,0x00
"SPI","result",7.49542566,0x00,0x00
"SPI","disable",7.49542654,,
"SPI","enable",7.49542814,,
"SPI","result",7.49542842,0xC2,0x00
"SPI","result",7.49542904,0x00,0x00
"SPI","result",7.49543016,0x00,0x00
"SPI","result",7.49543078,0x00,0x00
"SPI","disable",7.49543166,,
"SPI","enable",7.50540148,,
"SPI","result",7.50540174,0xDA,0x00
"SPI","result",7.50540238,0x00,0x00
"SPI","result",7.5054035,0x00,0x00
"SPI","result",7.50540412,0x00,0x00
"SPI","disable",7.505405,,
"SPI","enable",7.50541788,,
"SPI","result",7.50541816,0xC2,0x00
"SPI","result",7.50541878,0x00,0x00
"SPI","result",7.5054199,0x00,0x00
"SPI","result",7.50542052,0x00,0x00
"SPI","disable",7.5054214,,
"SPI","enable",7.50542302,,
"SPI","result",7.50542328,0xC2,0x00
"SPI","result",7.5054239,0x00,0x00
"SPI","result",7.50542502,0x00,0x00
"SPI","result",7.50542566,0x00,0x00
"SPI","disable",7.50542652,,
"SPI","enable",7.50542814,,
"SPI","result",7.5054284,0xC2,0x00
"SPI","result",7.50542902,0x00,0x00
"SPI","result",7.50543016,0x00,0x00
"SPI","result",7.50543078,0x00,0x00
"SPI","disable",7.50543166,,
"SPI","enable",7.51540138,,
"SPI","result",7.51540164,0xDA,0x00
"SPI","result",7.51540226,0x00,0x00
"SPI","result",7.5154034,0x00,0x00
"SPI","result",7.51540402,0x00,0x00
"SPI","disable",7.51540488,,
"SPI","enable",7.51541778,,
"SPI","result",7.51541804,0xC2,0x00
"SPI","result",7.51541868,0x00,0x00
"SPI","result",7.5154198,0x00,0x00
"SPI","result",7.51542042,0x00,0x00
"SPI","disable",7.5154213,,
"SPI","enable",7.5154229,,
"SPI","result",7.51542318,0xC2,0x00
"SPI","result",7.5154238,0x00,0x00
"SPI","result",7.51542492,0x00,0x00
"SPI","result",7.51542554,0x00,0x00
"SPI","disable",7.51542642,,
"SPI","enable",7.51542804,,
"SPI","result",7.5154283,0xC2,0x00
"SPI","result",7.51542892,0x00,0x00
"SPI","result",7.51543004,0x00,0x00
"SPI","result",7.51543068,0x00,0x00
"SPI","disable",7.51543154,,
"SPI","enable",7.52540126,,
"SPI","result",7.52540154,0xDA,0x00
"SPI","result",7.52540216,0x00,0x00
"SPI","result",7.52540328,0x00,0x00
"SPI","result",7.5254039,0x00,0x00
"SPI","disable",7.52540478,,
"SPI","enable",7.52541768,,
"SPI","result",7.52541794,0xC2,0x00
"SPI","result",7.52541856,0x00,0x00
"SPI","result",7.5254197,0x00,0x00
"SPI","result",7.52542032,0x00,0x00
"SPI","disable",7.52542118,,
"SPI","enable",7.5254228,,
"SPI","result",7.52542306,0xC2,0x00
"SPI","result",7.5254237,0x00,0x00
"SPI","result",7.52542482,0x00,0x00
"SPI","result",7.52542544,0x00,0x00
"SPI","disable",7.52542632,,
"SPI","enable",7.52542792,,
"SPI","result",7.5254282,0xC2,0x00
"SPI","result",7.52542882,0x00,0x00
"SPI","result",7.52542994,0x00,0x00
"SPI","result",7.52543056,0x00,0x00
"SPI","disable",7.52543144,,
"SPI","enable",7.53540116,,
"SPI","result",7.53540142,0xDA,0x00
"SPI","result",7.53540206,0x00,0x00
"SPI","result",7.53540318,0x00,0x00
"SPI","result",7.5354038,0x00,0x00
"SPI","disable",7.53540468,,
"SPI","enable",7.53541756,,
"SPI","result",7.53541784,0xC2,0x00
"SPI","result",7.53541846,0x00,0x00
"SPI","result",7.53541958,0x00,0x00
"SPI","result",7.5354202,0x00,0x00
"SPI","disable",7.53542108,,
"SPI","enable",7.5354227,,
"SPI","result",7.53542296,0xC2,0x00
"SPI","result",7.53542358,0x00,0x00
"SPI","result",7.5354247,0x00,0x00
"SPI","result",7.53542534,0x00,0x00
"SPI","disable",7.5354262,,
"SPI","enable",7.53542782,,
"SPI","result",7.53542808,0xC2,0x00
"SPI","result",7.5354287,0x00,0x00
"SPI","result",7.53542984,0x00,0x00
"SPI","result",7.53543046,0x00,0x00
"SPI","disable",7.53543134,,
"SPI","enable",7.54540106,,
"SPI","result",7.54540132,0xDA,0x00
"SPI","result",7.54540194,0x00,0x00
"SPI","result",7.54540308,0x00,0x00
"SPI","result",7.5454037,0x00,0x00
"SPI","disable",7.54540458,,
"SPI","enable",7.54541746,,
"SPI","result",7.54541772,0xC2,0x00
"SPI","result",7.54541836,0x00,0x00
"SPI","result",7.54541948,0x00,0x00
"SPI","result",7.5454201,0x00,0x00
"SPI","disable",7.54542098,,
"SPI","enable",7.54542258,,
"SPI","result",7.54542286,0xC2,0x00
"SPI","result",7.54542348,0x00,0x00
"SPI","result",7.5454246,0x00,0x00
"SPI","result",7.54542522,0x00,0x00
"SPI","disable",7.5454261,,
"SPI","enable",7.54542772,,
"SPI","result",7.54542798,0xC2,0x00
"SPI","result",7.5454286,0x00,0x00
"SPI","result",7.54542972,0x00,0x00
"SPI","result",7.54543036,0x00,0x00
"SPI","disable",7.54543122,,
"SPI","enable",7.55540096,,
"SPI","result",7.55540122,0xDA,0x00
"SPI","result",7.55540184,0x00,0x00
"SPI","result",7.55540296,0x00,0x00
"SPI","result",7.5554036,0x00,0x00
"SPI","disable",7.55540446,,
"SPI","enable",7.55541736,,
"SPI","result",7.55541762,0xC2,0x00
"SPI","result",7.55541824,0x00,0x00
"SPI","result",7.55541938,0x00,0x00
"SPI","result",7.55542,0x00,0x00
"SPI","disable",7.55542088,,
"SPI","enable",7.55542248,,
"SPI","result",7.55542274,0xC2,0x00
"SPI","result",7.55542338,0x00,0x00
"SPI","result",7.5554245,0x00,0x00
"SPI","result",7.55542512,0x00,0x00
"SPI","disable",7.555426,,
"SPI","enable",7.5554276,,
"SPI","result",7.55542788,0xC2,0x00
"SPI","result",7.5554285,0x00,0x00
"SPI","result",7.55542962,0x00,0x00
"SPI","result",7.55543024,0x00,0x00
"SPI","disable",7.55543112,,
"SPI","enable",7.56540084,,
"SPI","result",7.56540112,0xDA,0x00
"SPI","result",7.56540174,0x00,0x00
"SPI","result",7.56540286,0x00,0x00
"SPI","result",7.56540348,0x00,0x00
"SPI","disable",7.56540436,,
"SPI","enable",7.56541726,,
"SPI","result",7.56541752,0xC2,0x00
"SPI","result",7.56541814,0x00,0x00
"SPI","result",7.56541926,0x00,0x00
"SPI","result",7.5654199,0x00,0x00
"SPI","disable",7.56542076,,
"SPI","enable",7.56542238,,
"SPI","result",7.56542264,0xC2,0x00
"SPI","result",7.56542326,0x00,0x00
"SPI","result",7.5654244,0x00,0x00
"SPI","result",7.56542502,0x00,0x00
"SPI","disable",7.56542588,,
"SPI","enable",7.5654275,,
"SPI","result",7.56542776,0xC2,0x00
"SPI","result",7.5654284,0x00,0x00
"SPI","result",7.56542952,0x00,0x00
"SPI","result",7.56543014,0x00,0x00
"SPI","disable",7.56543102,,
"SPI","enable",7.57540074,,
"SPI","result",7.575401,0xDA,0x00
"SPI","result",7.57540162,0x00,0x00
"SPI","result",7.57540276,0x00,0x00
"SPI","result",7.57540338,0x00,0x00
"SPI","disable",7.57540426,,
"SPI","enable",7.57541714,,
"SPI","result",7.57541742,0xC2,0x00
"SPI","result",7.57541804,0x00,0x00
"SPI","result",7.57541916,0x00,0x00
"SPI","result",7.57541978,0x00,0x00
"SPI","disable",7.57542066,,
"SPI","enable",7.57542228,,
"SPI","result",7.57542254,0xC2,0x00
"SPI","result",7.57542316,0x00,0x00
"SPI","result",7.57542428,0x00,0x00
"SPI","result",7.57542492,0x00,0x00
"SPI","disable",7.57542578,,
"SPI","enable",7.5754274,,
"SPI","result",7.57542766,0xC2,0x00
"SPI","result",7.57542828,0x00,0x00
"SPI","result",7.57542942,0x00,0x00
"SPI","result",7.57543004,0x00,0x00
"SPI","disable",7.5754309,,
"SPI","enable",7.59540064,,
"SPI","result",7.5954009,0xDA,0x00
"SPI","result",7.59540152,0x00,0x00
"SPI","result",7.59540266,0x00,0x00
"SPI","result",7.59540328,0x00,0x00
"SPI","disable",7.59540416,,
"SPI","enable",7.5954054,,
"SPI","result",7.59540566,0xC2,0x00
"SPI","result",7.5954063,0x00,0x00
"SPI","result",7.59540742,0x00,0x00
"SPI","result",7.59540804,0x00,0x00
"SPI","disable",7.59540892,,
"SPI","enable",7.59541548,,
"SPI","result",7.59541574,0xC2,0x00
"SPI","result",7.59541638,0x00,0x00
"SPI","result",7.5954175,0x00,0x00
"SPI","result",7.59541812,0x00,0x00
"SPI","disable",7.595419,,
"SPI","enable",7.5954206,,
"SPI","result",7.59542088,0xC2,0x00
"SPI","result",7.5954215,0x00,0x00
"SPI","result",7.59542262,0x00,0x00
"SPI","result",7.59542324,0x00,0x00
"SPI","disable",7.59542412,,
"SPI","enable",7.59542572,,
"SPI","result",7.595426,0xC2,0x00
"SPI","result",7.59542662,0x00,0x00
"SPI","result",7.59542774,0x00,0x00
"SPI","result",7.59542836,0x00,0x00
"SPI","disable",7.59542924,,
"SPI","enable",8.4356747,,
"SPI","result",8.43567496,0xDA,0x3F
"SPI","result",8.43567558,0x00,0xFF
"SPI","result",8.4356767,0x00,0xFF
"SPI","result",8.43567734,0x00,0xFF
"SPI","disable",8.4356782,,
"SPI","enable",8.43567964,,
"SPI","result",8.4356799,0xCD,0xE1
"SPI","result",8.43568052,0x00,0xE1
"SPI","result",8.43568164,0x00,0x00
"SPI","result",8.43568226,0x00,0x40
"SPI","disable",8.43568314,,
"SPI","enable",8.43568384,,
"SPI","result",8.4356841,0x4D,0x40
"SPI","result",8.43568472,0x00,0x40
"SPI","result",8.43568584,0x00,0x40
"SPI","result",8.43568646,0x00,0x40
"SPI","disable",8.43568734,,
"SPI","enable",8.43568826,,
"SPI","result",8.43568852,0xCC,0x40
"SPI","result",8.43568914,0x00,0x40
"SPI","result",8.43569028,0x00,0x04
"SPI","result",8.4356909,0x00,0x40
"SPI","disable",8.43569176,,
"SPI","enable",8.43569316,,
"SPI","result",8.43569342,0xDA,0x40
"SPI","result",8.43569406,0x00,0x40
"SPI","result",8.43569518,0x00,0xAA
"SPI","result",8.4356958,0x00,0x55
"SPI","disable",8.43569668,,
"SPI","enable",8.43569732,,
"SPI","result",8.43569758,0xDA,0x55
"SPI","result",8.4356982,0x00,0x55
"SPI","result",8.43569934,0x00,0xAA
"SPI","result",8.43569996,0x00,0x55
"SPI","disable",8.43570084,,
"SPI","enable",8.4357015,,
"SPI","result",8.43570178,0xC2,0x55
"SPI","result",8.4357024,0x00,0x55
"SPI","result",8.43570352,0x00,0x0C
"SPI","result",8.43570414,0x00,0x5B
"SPI","disable",8.43570502,,
"SPI","enable",8.43570642,,
"SPI","result",8.4357067,0x4C,0x5B
"SPI","result",8.43570732,0x00,0x5B
"SPI","result",8.43570842,0x04,0x5B
"SPI","result",8.43570906,0x40,0x5B
"SPI","disable",8.43570992,,
"SPI","enable",8.43571096,,
"SPI","result",8.43571122,0xCD,0x5B
"SPI","result",8.43571184,0x00,0x5B
"SPI","result",8.43571298,0x00,0x00
"SPI","result",8.4357136,0x00,0x00
"SPI","disable",8.43571448,,
"SPI","enable",8.43571518,,
"SPI","result",8.43571544,0x4D,0x00
"SPI","result",8.43571606,0x00,0x00
"SPI","result",8.43571718,0x00,0x00
"SPI","result",8.4357178,0x47,0x00
"SPI","disable",8.43571868,,
"SPI","enable",8.48568958,,
"SPI","result",8.48568986,0xC2,0x00
"SPI","result",8.48569048,0x00,0x00
"SPI","result",8.4856916,0x00,0x0C
"SPI","result",8.48569222,0x00,0x5B
"SPI","disable",8.4856931,,
"SPI","enable",8.48569966,,
"SPI","result",8.48569992,0xC2,0x5B
"SPI","result",8.48570056,0x00,0x5B
"SPI","result",8.48570168,0x00,0x0C
"SPI","result",8.4857023,0x00,0x5B
"SPI","disable",8.48570318,,
"SPI","enable",8.48570434,,
"SPI","result",8.48570462,0x41,0x5B
"SPI","result",8.48570524,0x00,0x5B
"SPI","result",8.48570634,0x00,0x5B
"SPI","result",8.48570698,0x58,0x5B
"SPI","disable",8.48570784,,
"SPI","enable",8.48570878,,
"SPI","result",8.48570906,0x00,0x5B
"SPI","result",8.4857097,0x00,0x5B
"SPI","result",8.48571116,0xAA,0x5B
"SPI","result",8.48571178,0xAA,0x5B
"SPI","result",8.48571328,0xAA,0x5B
"SPI","result",8.4857139,0xAA,0x5B
"SPI","result",8.48571538,0x4E,0x5B
"SPI","result",8.485716,0x00,0x5B
"SPI","result",8.48571748,0x00,0x5B
"SPI","result",8.48571812,0x00,0x5B
"SPI","result",8.4857196,0x33,0x5B
"SPI","result",8.48572022,0x33,0x5B
"SPI","result",8.4857217,0xFF,0x5B
"SPI","result",8.48572234,0xFF,0x5B
"SPI","result",8.48572382,0xD3,0x5B
"SPI","result",8.48572444,0xE2,0x5B
"SPI","result",8.48572592,0xE0,0x5B
"SPI","result",8.48572656,0x0E,0x5B
"SPI","result",8.48572804,0xE1,0x5B
"SPI","result",8.48572866,0xFF,0x5B
"SPI","result",8.48573014,0xD3,0x5B
"SPI","result",8.48573076,0xE2,0x5B
"SPI","result",8.48573226,0x86,0x5B
"SPI","result",8.48573288,0xDD,0x5B
"SPI","result",8.48573436,0x60,0x5B
"SPI","result",8.48573498,0x00,0x5B
"SPI","result",8.48573648,0x00,0x5B
"SPI","result",8.4857371,0x00,0x5B
"SPI","result",8.48573858,0x00,0x5B
"SPI","result",8.4857392,0x18,0x5B
"SPI","result",8.4857407,0x3A,0x5B
"SPI","result",8.48574132,0xFF,0x5B
"SPI","result",8.4857428,0x00,0x5B
"SPI","result",8.48574342,0x00,0x5B
"SPI","result",8.48574492,0x00,0x5B
"SPI","result",8.48574554,0x00,0x5B
"SPI","result",8.48574702,0x00,0x5B
"SPI","result",8.48574764,0x00,0x5B
"SPI","result",8.48574912,0x00,0x5B
"SPI","result",8.48574976,0x00,0x5B
"SPI","result",8.48575124,0x00,0x5B
"SPI","result",8.48575186,0x00,0x5B
"SPI","result",8.48575334,0x00,0x5B
"SPI","result",8.48575398,0x00,0x5B
"SPI","result",8.48575546,0x00,0x5B
"SPI","result",8.48575608,0x00,0x5B
"SPI","result",8.48575756,0x00,0x5B
"SPI","result",8.4857582,0x00,0x5B
"SPI","result",8.48575968,0xFF,0x5B
"SPI","result",8.4857603,0x02,0x5B
"SPI","result",8.48576178,0x00,0x5B
"SPI","result",8.48576242,0x00,0x5B
"SPI","result",8.4857639,0x00,0x5B
"SPI","result",8.48576452,0x00,0x5B
"SPI","result",8.485766,0x00,0x5B
"SPI","result",8.48576662,0x00,0x5B
"SPI","result",8.48576812,0x00,0x5B
"SPI","result",8.48576874,0x00,0x5B
"SPI","result",8.48577022,0x00,0x5B
"SPI","result",8.48577084,0x01,0x5B
"SPI","result",8.48577234,0xFF,0x5B
"SPI","result",8.48577296,0xFF,0x5B
"SPI","result",8.48577444,0xD3,0x5B
"SPI","result",8.48577506,0xE2,0x5B
"SPI","result",8.48577656,0x87,0x5B
"SPI","result",8.48577718,0x00,0x5B
"SPI","result",8.48577866,0x10,0x5B
"SPI","result",8.48577928,0x54,0x5B
"SPI","result",8.48578078,0x00,0x5B
"SPI","result",8.4857814,0x00,0x5B
"SPI","result",8.48578288,0x00,0x5B
"SPI","result",8.4857835,0x00,0x5B
"SPI","result",8.48578498,0xFE,0x5B
"SPI","result",8.48578562,0x80,0x5B
"SPI","result",8.4857871,0x00,0x5B
"SPI","result",8.48578772,0x00,0x5B
"SPI","result",8.4857892,0x00,0x5B
"SPI","result",8.48578984,0x00,0x5B
"SPI","result",8.48579132,0x00,0x5B
"SPI","result",8.48579194,0x00,0x5B
"SPI","result",8.48579342,0xE2,0x5B
"SPI","result",8.48579406,0x0E,0x5B
"SPI","result",8.48579554,0xE1,0x5B
"SPI","result",8.48579616,0xFF,0x5B
"SPI","result",8.48579764,0xFE,0x5B
"SPI","result",8.48579826,0xFF,0x5B
"SPI","result",8.48579976,0xD3,0x5B
"SPI","result",8.48580038,0xE2,0x5B
"SPI","result",8.48580186,0x55,0x5B
"SPI","result",8.48580248,0x55,0x5B
"SPI","result",8.48580398,0x00,0x00
"SPI","result",8.4858046,0x00,0x00
"SPI","disable",8.4858057,,
"SPI","enable",9.48565572,,
"SPI","result",9.48565598,0xC2,0x5B
"SPI","result",9.48565662,0x00,0x5B
"SPI","result",9.48565774,0x00,0x0C
"SPI","result",9.48565836,0x00,0x5B
"SPI","disable",9.48565924,,
"SPI","enable",9.4856658,,
"SPI","result",9.48566606,0xC2,0x5B
"SPI","result",9.48566668,0x00,0x5B
"SPI","result",9.48566782,0x00,0x0C
"SPI","result",9.48566844,0x00,0x5B
"SPI","disable",9.48566932,,
"SPI","enable",9.48567048,,
"SPI","result",9.48567076,0x41,0x5B
"SPI","result",9.48567138,0x00,0x5B
"SPI","result",9.48567248,0x00,0x5B
"SPI","result",9.4856731,0x58,0x5B
"SPI","disable",9.48567398,,
"SPI","enable",9.4856749,,
"SPI","result",9.4856752,0x00,0x5B
"SPI","result",9.48567582,0x00,0x5B
"SPI","result",9.4856773,0xAA,0x5B
"SPI","result",9.48567792,0xAA,0x5B
"SPI","result",9.4856794,0xAA,0x5B
"SPI","result",9.48568004,0xAA,0x5B
"SPI","result",9.48568152,0x4E,0x5B
"SPI","result",9.48568214,0x00,0x5B
"SPI","result",9.48568362,0x00,0x5B
"SPI","result",9.48568424,0x00,0x5B
"SPI","result",9.48568574,0x33,0x5B
"SPI","result",9.48568636,0x33,0x5B
"SPI","result",9.48568784,0xFF,0x5B
"SPI","result",9.48568846,0xFF,0x5B
"SPI","result",9.48568996,0xD3,0x5B
"SPI","result",9.48569058,0xE2,0x5B
"SPI","result",9.48569206,0xE0,0x5B
"SPI","result",9.48569268,0x0E,0x5B
"SPI","result",9.48569418,0xE1,0x5B
"SPI","result",9.4856948,0xFF,0x5B
"SPI","result",9.48569628,0xD3,0x5B
"SPI","result",9.4856969,0xE2,0x5B
"SPI","result",9.4856984,0x86,0x5B
"SPI","result",9.48569902,0xDD,0x5B
"SPI","result",9.4857005,0x60,0x5B
"SPI","result",9.48570112,0x00,0x5B
"SPI","result",9.4857026,0x00,0x5B
"SPI","result",9.48570324,0x00,0x5B
"SPI","result",9.48570472,0x00,0x5B
"SPI","result",9.48570534,0x18,0x5B
"SPI","result",9.48570682,0x3A,0x5B
"SPI","result",9.48570746,0xFF,0x5B
"SPI","result",9.48570894,0x00,0x5B
"SPI","result",9.48570956,0x00,0x5B
"SPI","result",9.48571104,0x00,0x5B
"SPI","result",9.48571168,0x00,0x5B
"SPI","result",9.48571316,0x00,0x5B
"SPI","result",9.48571378,0x00,0x5B
"SPI","result",9.48571526,0x00,0x5B
"SPI","result",9.4857159,0x00,0x5B
"SPI","result",9.48571738,0x00,0x5B
"SPI","result",9.485718,0x00,0x5B
"SPI","result",9.48571948,0x00,0x5B
"SPI","result",9.4857201,0x00,0x5B
"SPI","result",9.4857216,0x00,0x5B
"SPI","result",9.48572222,0x00,0x5B
"SPI","result",9.4857237,0x00,0x5B
"SPI","result",9.48572432,0x00,0x5B
"SPI","result",9.48572582,0xFF,0x5B
"SPI","result",9.48572644,0x02,0x5B
"SPI","result",9.48572792,0x00,0x5B
"SPI","result",9.48572854,0x00,0x5B
"SPI","result",9.48573004,0x00,0x5B
"SPI","result",9.48573066,0x00,0x5B
"SPI","result",9.48573214,0x00,0x5B
"SPI","result",9.48573276,0x00,0x5B
"SPI","result",9.48573424,0x00,0x5B
"SPI","result",9.48573488,0x00,0x5B
"SPI","result",9.48573636,0x00,0x5B
"SPI","result",9.48573698,0x01,0x5B
"SPI","result",9.48573846,0xFF,0x5B
"SPI","result",9.4857391,0xFF,0x5B
"SPI","result",9.48574058,0xD3,0x5B
"SPI","result",9.4857412,0xE2,0x5B
"SPI","result",9.48574268,0x87,0x5B
"SPI","result",9.48574332,0x00,0x5B
"SPI","result",9.4857448,0x10,0x5B
"SPI","result",9.48574542,0x54,0x5B
"SPI","result",9.4857469,0x00,0x5B
"SPI","result",9.48574754,0x00,0x5B
"SPI","result",9.48574902,0x00,0x5B
"SPI","result",9.48574964,0x00,0x5B
"SPI","result",9.48575112,0xFE,0x5B
"SPI","result",9.48575174,0x80,0x5B
"SPI","result",9.48575324,0x00,0x5B
"SPI","result",9.48575386,0x00,0x5B
"SPI","result",9.48575534,0x00,0x5B
"SPI","result",9.48575596,0x00,0x5B
"SPI","result",9.48575746,0x00,0x5B
"SPI","result",9.48575808,0x00,0x5B
"SPI","result",9.48575956,0xE2,0x5B
"SPI","result",9.48576018,0x0E,0x5B
"SPI","result",9.48576168,0xE1,0x5B
"SPI","result",9.4857623,0xFF,0x5B
"SPI","result",9.48576378,0xFE,0x5B
"SPI","result",9.4857644,0xFF,0x5B
"SPI","result",9.4857659,0xD3,0x5B
"SPI","result",9.48576652,0xE2,0x5B
"SPI","result",9.485768,0x55,0x5B
"SPI","result",9.48576862,0x55,0x5B
"SPI","result",9.4857701,0x00,0x00
"SPI","result",9.48577074,0x00,0x00
"SPI","disable",9.48577182,,
"SPI","enable",10.4856451,,
"SPI","result",10.4856454,0xC2,0x5B
"SPI","result",10.485646,0x00,0x5B
"SPI","result",10.4856471,0x00,0x0C
"SPI","result",10.4856477,0x00,0x5B
"SPI","disable",10.4856486,,
"SPI","enable",10.4856549,,
"SPI","result",10.4856552,0xC2,0x5B
"SPI","result",10.4856558,0x00,0x5B
"SPI","result",10.4856569,0x00,0x0C
"SPI","result",10.4856576,0x00,0x5B
"SPI","disable",10.4856584,,
"SPI","enable",10.4856596,,
"SPI","result",10.4856599,0x41,0x5B
"SPI","result",10.4856605,0x00,0x5B
"SPI","result",10.4856616,0x00,0x5B
"SPI","result",10.4856622,0x50,0x5B
"SPI","disable",10.4856631,,
"SPI","enable",10.485664,,
"SPI","result",10.4856643,0x00,0x5B
"SPI","result",10.485665,0x00,0x5B
"SPI","result",10.4856664,0xAA,0x5B
"SPI","result",10.485667,0xAA,0x5B
"SPI","result",10.4856685,0xAA,0x5B
"SPI","result",10.4856692,0xAA,0x5B
"SPI","result",10.4856706,0x46,0x5B
"SPI","result",10.4856713,0x00,0x5B
"SPI","result",10.4856728,0x00,0x5B
"SPI","result",10.4856734,0x00,0x5B
"SPI","result",10.4856749,0x33,0x5B
"SPI","result",10.4856755,0x33,0x5B
"SPI","result",10.485677,0x00,0x5B
"SPI","result",10.4856776,0x00,0x5B
"SPI","result",10.4856791,0x00,0x5B
"SPI","result",10.4856797,0x02,0x5B
"SPI","result",10.4856812,0xE0,0x5B
"SPI","result",10.4856818,0x0E,0x5B
"SPI","result",10.4856833,0xE1,0x5B
"SPI","result",10.4856839,0xFF,0x5B
"SPI","result",10.4856854,0xD3,0x5B
"SPI","result",10.485686,0xE2,0x5B
"SPI","result",10.4856875,0x86,0x5B
"SPI","result",10.4856881,0xDD,0x5B
"SPI","result",10.4856896,0x60,0x5B
"SPI","result",10.4856902,0x00,0x5B
"SPI","result",10.4856917,0x00,0x5B
"SPI","result",10.4856924,0x00,0x5B
"SPI","result",10.4856938,0x00,0x5B
"SPI","result",10.4856945,0x10,0x5B
"SPI","result",10.485696,0x3A,0x5B
"SPI","result",10.4856966,0xFF,0x5B
"SPI","result",10.4856981,0xFE,0x5B
"SPI","result",10.4856987,0x80,0x5B
"SPI","result",10.4857002,0x00,0x5B
"SPI","result",10.4857008,0x00,0x5B
"SPI","result",10.4857023,0x00,0x5B
"SPI","result",10.4857029,0x00,0x5B
"SPI","result",10.4857044,0x00,0x5B
"SPI","result",10.485705,0x00,0x5B
"SPI","result",10.4857065,0xE2,0x5B
"SPI","result",10.4857071,0x0E,0x5B
"SPI","result",10.4857086,0xE1,0x5B
"SPI","result",10.4857092,0xFF,0x5B
"SPI","result",10.4857107,0xFE,0x5B
"SPI","result",10.4857113,0xFF,0x5B
"SPI","result",10.4857128,0xD3,0x5B
"SPI","result",10.4857135,0xE2,0x5B
"SPI","result",10.4857149,0xFF,0x5B
"SPI","result",10.4857156,0x02,0x5B
"SPI","result",10.485717,0x00,0x5B
"SPI","result",10.4857177,0x00,0x5B
"SPI","result",10.4857192,0x00,0x5B
"SPI","result",10.4857198,0x00,0x5B
"SPI","result",10.4857213,0x00,0x5B
"SPI","result",10.4857219,0x00,0x5B
"SPI","result",10.4857234,0x00,0x5B
"SPI","result",10.485724,0x00,0x5B
"SPI","result",10.4857255,0x00,0x5B
"SPI","result",10.4857261,0x00,0x5B
"SPI","result",10.4857276,0x00,0x5B
"SPI","result",10.4857282,0x00,0x5B
"SPI","result",10.4857297,0x00,0x5B
"SPI","result",10.4857303,0x02,0x5B
"SPI","result",10.4857318,0x85,0x5B
"SPI","result",10.4857324,0x00,0x5B
"SPI","result",10.4857339,0x4F,0x5B
"SPI","result",10.4857345,0x4B,0x5B
"SPI","result",10.485736,0x00,0x5B
"SPI","result",10.4857367,0x00,0x5B
"SPI","result",10.4857381,0x00,0x5B
"SPI","result",10.4857388,0x00,0x5B
"SPI","result",10.4857402,0x01,0x5B
"SPI","result",10.4857409,0x01,0x5B
"SPI","result",10.4857424,0xE0,0x5B
"SPI","result",10.485743,0x0E,0x5B
"SPI","result",10.4857445,0xE1,0x5B
"SPI","result",10.4857451,0xFF,0x5B
"SPI","result",10.4857466,0xD3,0x5B
"SPI","result",10.4857472,0xE2,0x5B
"SPI","result",10.4857487,0x55,0x5B
"SPI","result",10.4857493,0x55,0x5B
"SPI","result",10.4857508,0xE1,0x00
"SPI","result",10.4857514,0xFF,0x00
"SPI","disable",10.4857525,,
"SPI","enable",11.3956469,,
"SPI","result",11.3956472,0xC2,0x5B
"SPI","result",11.3956478,0x00,0x5B
"SPI","result",11.3956489,0x00,0x0C
"SPI","result",11.3956496,0x00,0x5B
"SPI","disable",11.3956504,,
"SPI","enable",11.3956568,,
"SPI","result",11.395657,0xC2,0x5B
"SPI","result",11.3956576,0x00,0x5B
"SPI","result",11.3956588,0x00,0x0C
"SPI","result",11.3956594,0x00,0x5B
"SPI","disable",11.3956603,,
"SPI","enable",11.3956614,,
"SPI","result",11.3956617,0x41,0x5B
"SPI","result",11.3956623,0x00,0x5B
"SPI","result",11.3956634,0x00,0x5B
"SPI","result",11.3956641,0x50,0x5B
"SPI","disable",11.3956649,,
"SPI","enable",11.3956659,,
"SPI","result",11.3956662,0x00,0x5B
"SPI","result",11.3956668,0x00,0x5B
"SPI","result",11.3956683,0xAA,0x5B
"SPI","result",11.3956689,0xAA,0x5B
"SPI","result",11.3956704,0xAA,0x5B
"SPI","result",11.395671,0xAA,0x5B
"SPI","result",11.3956725,0x46,0x5B
"SPI","result",11.3956731,0x00,0x5B
"SPI","result",11.3956746,0x00,0x5B
"SPI","result",11.3956752,0x00,0x5B
"SPI","result",11.3956767,0x33,0x5B
"SPI","result",11.3956773,0x33,0x5B
"SPI","result",11.3956788,0x00,0x5B
"SPI","result",11.3956794,0x00,0x5B
"SPI","result",11.3956809,0x00,0x5B
"SPI","result",11.3956815,0x02,0x5B
"SPI","result",11.395683,0xE0,0x5B
"SPI","result",11.3956836,0x0E,0x5B
"SPI","result",11.3956851,0xE1,0x5B
"SPI","result",11.3956858,0xFF,0x5B
"SPI","result",11.3956872,0xD3,0x5B
"SPI","result",11.3956879,0xE2,0x5B
"SPI","result",11.3956893,0x86,0x5B
"SPI","result",11.39569,0xDD,0x5B
"SPI","result",11.3956915,0x60,0x5B
"SPI","result",11.3956921,0x00,0x5B
"SPI","result",11.3956936,0x00,0x5B
"SPI","result",11.3956942,0x00,0x5B
"SPI","result",11.3956957,0x00,0x5B
"SPI","result",11.3956963,0x10,0x5B
"SPI","result",11.3956978,0x3A,0x5B
"SPI","result",11.3956984,0xFF,0x5B
"SPI","result",11.3956999,0xFE,0x5B
"SPI","result",11.3957005,0x80,0x5B
"SPI","result",11.395702,0x00,0x5B
"SPI","result",11.3957026,0x00,0x5B
"SPI","result",11.3957041,0x00,0x5B
"SPI","result",11.3957047,0x00,0x5B
"SPI","result",11.3957062,0x00,0x5B
"SPI","result",11.3957068,0x00,0x5B
"SPI","result",11.3957083,0xE2,0x5B
"SPI","result",11.395709,0x0E,0x5B
"SPI","result",11.3957104,0xE1,0x5B
"SPI","result",11.3957111,0xFF,0x5B
"SPI","result",11.3957126,0xFE,0x5B
"SPI","result",11.3957132,0xFF,0x5B
"SPI","result",11.3957147,0xD3,0x5B
"SPI","result",11.3957153,0xE2,0x5B
"SPI","result",11.3957168,0xFF,0x5B
"SPI","result",11.3957174,0x02,0x5B
"SPI","result",11.3957189,0x00,0x5B
"SPI","result",11.3957195,0x00,0x5B
"SPI","result",11.395721,0x00,0x5B
"SPI","result",11.3957216,0x00,0x5B
"SPI","result",11.3957231,0x00,0x5B
"SPI","result",11.3957237,0x00,0x5B
"SPI","result",11.3957252,0x00,0x5B
"SPI","result",11.3957258,0x00,0x5B
"SPI","result",11.3957273,0x00,0x5B
"SPI","result",11.3957279,0x00,0x5B
"SPI","result",11.3957294,0x00,0x5B
"SPI","result",11.3957301,0x00,0x5B
"SPI","result",11.3957315,0x00,0x5B
"SPI","result",11.3957322,0x02,0x5B
"SPI","result",11.3957336,0x85,0x5B
"SPI","result",11.3957343,0x00,0x5B
"SPI","result",11.3957358,0x4F,0x5B
"SPI","result",11.3957364,0x4B,0x5B
"SPI","result",11.3957379,0x00,0x5B
"SPI","result",11.3957385,0x00,0x5B
"SPI","result",11.39574,0x00,0x5B
"SPI","result",11.3957406,0x00,0x5B
"SPI","result",11.3957421,0x01,0x5B
"SPI","result",11.3957427,0x01,0x5B
"SPI","result",11.3957442,0xE0,0x5B
"SPI","result",11.3957448,0x0E,0x5B
"SPI","result",11.3957463,0xE1,0x5B
"SPI","result",11.3957469,0xFF,0x5B
"SPI","result",11.3957484,0xD3,0x5B
"SPI","result",11.395749,0xE2,0x5B
"SPI","result",11.3957505,0x55,0x5B
"SPI","result",11.3957511,0x55,0x5B
"SPI","result",11.3957526,0xE1,0x00
"SPI","result",11.3957533,0xFF,0x00
"SPI","disable",11.3957543,,
"SPI","enable",12.2220482,,
