Time Stamp,ID,Extended,Dir,Bus,LEN,D1,D2,D3,D4,D5,D6,D7,D8
1722777328,00000200,false,Rx,0,8,00,80,49,04,00,BB,3C,00,
1722777590,00000201,false,Rx,0,8,91,00,00,00,00,00,00,91,
1722777822,00000202,false,Rx,0,8,42,00,20,00,00,00,00,62,
1722778540,00000354,false,Rx,0,8,AA,0A,55,05,00,01,00,D5,
1722779464,000002B0,false,Rx,0,5,1A,00,00,00,00,00,00,00,
1722780839,0000010C,false,Rx,0,8,04,00,55,54,15,80,01,39,
1722781052,00000153,false,Rx,0,8,20,00,10,F2,00,F2,50,64,
1722781284,00000220,false,Rx,0,7,11,C4,81,00,00,A9,0F,00,
1722781704,000002A2,false,Rx,0,8,05,00,00,00,00,00,00,00,
1722781936,00000291,false,Rx,0,8,00,00,00,00,FE,FA,FA,00,
1722782203,00000331,false,Rx,0,8,00,00,00,00,00,00,00,00,
1722782434,00000386,false,Rx,0,8,00,40,00,C0,00,40,00,80,
1722782882,00000523,false,Rx,0,8,0C,38,39,39,30,2C,00,00,
1722783148,00000524,false,Rx,0,8,74,01,00,00,00,00,00,00,
1722787109,00000109,false,Rx,0,8,00,01,FA,00,00,00,00,3D,
1722787342,00000200,false,Rx,0,8,00,80,49,04,00,FB,3C,00,
1722787575,00000201,false,Rx,0,8,D1,00,00,00,00,00,00,D1,
1722787834,00000202,false,Rx,0,8,62,00,20,00,00,00,00,42,
1722788074,0000050D,false,Rx,0,8,00,00,00,00,00,00,00,00,
1722788306,000005F5,false,Rx,0,8,00,1E,00,14,02,C9,58,99,
1722788540,00000354,false,Rx,0,8,AA,0A,55,05,00,01,00,C6,
1722788799,000005F6,false,Rx,0,8,00,00,00,00,00,00,1E,00,
1722788986,000002B0,false,Rx,0,5,18,00,00,00,00,00,00,00,
1722789244,000005F7,false,Rx,0,8,00,1E,00,00,00,58,00,00,
1722789476,000005F8,false,Rx,0,8,7E,00,E9,0F,CD,7A,5D,82,
1722789708,000005F9,false,Rx,0,8,76,6D,FF,FF,00,00,00,B9,
1722790819,00000220,false,Rx,0,7,10,A4,81,00,00,AB,0F,00,
1722791058,0000010C,false,Rx,0,8,04,00,55,54,15,80,01,06,
1722791290,00000153,false,Rx,0,8,20,00,10,F2,00,F2,60,74,
1722791549,00000291,false,Rx,0,8,00,00,00,00,FE,FA,FA,00,
1722791781,000002A2,false,Rx,0,8,04,00,00,00,00,00,00,00,
1722792047,00000331,false,Rx,0,8,00,00,00,00,00,00,00,00,
1722792279,00000387,false,Rx,0,8,C1,10,C3,69,00,04,07,00,
1722792788,00000394,false,Rx,0,8,0D,04,00,00,0D,84,15,83,
1722793201,00000523,false,Rx,0,8,0C,38,39,39,30,2C,00,00,
1722793494,00000524,false,Rx,0,8,74,01,00,00,00,00,00,00,
1722793986,00000414,false,Rx,0,8,00,00,00,00,00,00,00,00,
1722794105,00000450,false,Rx,0,3,00,26,04,00,00,00,00,00,
1722794350,00000462,false,Rx,0,8,E0,2E,A4,16,00,00,00,00,
1722794572,00000471,false,Rx,0,6,04,00,10,00,00,28,00,00,
1722794813,000004FE,false,Rx,0,8,FF,FF,7F,FF,FF,00,FF,FF,
1722795052,00000541,false,Rx,0,8,03,00,40,80,C0,00,00,0C,
1722795310,00000553,false,Rx,0,8,04,00,00,02,00,00,80,00,
1722795581,0000055C,false,Rx,0,8,8D,C0,90,9E,FE,1D,01,00,
1722795859,0000055F,false,Rx,0,8,00,00,00,00,00,00,00,00,
1722796104,00000561,false,Rx,0,8,00,00,00,00,00,00,00,00,
1722796364,00000567,false,Rx,0,8,40,10,29,18,01,00,00,00,
1722796599,00000578,false,Rx,0,6,10,00,00,00,00,00,00,00,
47145,00000588,false,Rx,0,8,A4,49,A4,49,00,00,00,00,
47173,00000109,false,Rx,0,8,00,01,FA,00,00,00,00,0A,
47189,00000200,false,Rx,0,8,00,80,49,04,00,3B,3C,00,
47205,00000201,false,Rx,0,8,11,00,00,00,00,00,00,11,
47221,00000202,false,Rx,0,8,02,00,20,00,00,00,00,22,
47237,000005B3,false,Rx,0,8,40,14,FE,00,00,00,00,00,
47253,00000354,false,Rx,0,8,AA,0A,55,05,00,01,00,B7,
47269,000005DF,false,Rx,0,8,05,1C,01,00,00,00,00,00,
47285,000005EC,false,Rx,0,8,00,00,00,00,00,00,00,00,
48805,000002B0,false,Rx,0,5,19,00,00,00,00,00,00,00,
48825,00000490,false,Rx,0,7,00,00,08,00,00,00,00,00,
48848,00000220,false,Rx,0,7,10,E4,81,00,00,AD,0F,00,
48973,0000010C,false,Rx,0,8,04,00,55,54,15,80,01,17,
49229,00000153,false,Rx,0,8,20,00,10,F2,00,F2,70,84,
49403,00000291,false,Rx,0,8,00,00,00,00,FE,FA,FA,00,
49650,000002A2,false,Rx,0,8,05,00,00,00,00,00,00,00,
49906,00000331,false,Rx,0,8,00,00,00,00,00,00,00,00,
50153,00000386,false,Rx,0,8,00,80,00,C0,00,40,00,80,
50403,00000523,false,Rx,0,8,0C,38,39,39,30,2C,00,00,
50688,00000524,false,Rx,0,8,74,01,00,00,00,00,00,00,
55206,00000109,false,Rx,0,8,00,01,FA,00,00,00,00,1B,
55386,00000200,false,Rx,0,8,00,80,49,04,00,7B,3C,00,
55633,00000201,false,Rx,0,8,51,00,00,00,00,00,00,51,
55889,00000202,false,Rx,0,8,22,00,20,00,00,00,00,02,
56136,000004EE,false,Rx,0,8,00,00,00,00,00,00,00,06,
56386,0000057F,false,Rx,0,8,80,0A,68,00,00,00,00,00,
56633,00000354,false,Rx,0,8,AA,0A,55,05,00,01,00,A8,
56888,00000581,false,Rx,0,8,00,00,00,00,00,00,00,00,
57135,0000058E,false,Rx,0,8,00,01,00,EF,28,20,00,C0,
57384,000002B0,false,Rx,0,5,1A,00,00,00,00,00,00,00,
58694,00000220,false,Rx,0,7,0E,04,82,00,00,AB,0F,00,
58950,0000010C,false,Rx,0,8,04,00,55,54,15,80,01,28,
59197,00000153,false,Rx,0,8,20,00,10,F2,00,F2,80,94,
59599,000002A2,false,Rx,0,8,04,00,00,00,00,00,00,00,
59855,00000291,false,Rx,0,8,00,00,00,00,FE,FA,FA,00,
60102,00000331,false,Rx,0,8,00,00,00,00,00,00,00,00,
60351,00000387,false,Rx,0,8,C1,10,C3,69,00,05,08,00,
60598,00000394,false,Rx,0,8,10,24,00,00,10,84,1B,83,
60856,00000523,false,Rx,0,8,0C,38,39,39,30,2C,00,00,
61178,00000524,false,Rx,0,8,74,01,00,00,00,00,00,00,
61579,00000450,false,Rx,0,3,00,26,04,00,00,00,00,00,
61909,00000462,false,Rx,0,8,E0,2E,A4,16,00,00,00,00,
62081,00000471,false,Rx,0,6,04,00,10,00,00,6C,00,00,
65034,00000109,false,Rx,0,8,00,01,FA,00,00,00,00,2C,
65281,00000200,false,Rx,0,8,00,80,49,04,00,BB,3C,00,
65531,00000201,false,Rx,0,8,91,00,00,00,00,00,00,91,
65778,00000202,false,Rx,0,8,42,00,20,00,00,00,00,62,
66411,00000354,false,Rx,0,8,AA,0A,55,05,00,01,00,99,
68788,000002B0,false,Rx,0,5,18,00,00,00,00,00,00,00,
68811,00000594,false,Rx,0,8,BE,1D,48,26,C4,9D,01,00,
68829,00000153,false,Rx,0,8,20,00,10,F2,00,F2,90,A4,
69030,0000010C,false,Rx,0,8,04,00,55,54,15,80,01,39,
69277,00000220,false,Rx,0,7,0C,E4,81,00,00,AC,0F,00,
69678,000002A2,false,Rx,0,8,05,00,00,00,00,00,00,00,
70086,00000331,false,Rx,0,8,00,00,00,00,00,00,00,00,
70333,00000291,false,Rx,0,8,00,00,00,00,FE,FA,FA,00,
70582,00000386,false,Rx,0,8,00,C0,00,C0,00,40,00,80,
71066,00000491,false,Rx,0,8,17,00,00,00,00,00,00,00,
71313,00000493,false,Rx,0,8,00,0E,FC,11,00,00,3B,01,
71790,000004E2,false,Rx,0,8,B4,00,CD,00,00,00,00,00,
72274,00000542,false,Rx,0,8,A4,3B,01,00,00,00,FF,FF,
72524,00000523,false,Rx,0,8,0C,38,39,39,30,2C,00,00,
73008,00000524,false,Rx,0,8,74,01,00,00,00,00,00,00,
73255,00000595,false,Rx,0,8,04,00,C1,C2,07,00,8D,0E,
73504,00000596,false,Rx,0,8,00,92,00,00,17,00,02,03,
73751,00000597,false,Rx,0,8,85,50,00,00,00,00,00,00,
74006,00000598,false,Rx,0,8,00,00,00,00,FF,52,03,02,
74253,00000599,false,Rx,0,8,08,00,00,00,00,00,00,00,
74502,0000059C,false,Rx,0,8,00,00,00,00,00,00,00,00,
74749,0000059E,false,Rx,0,8,00,00,00,00,8D,0E,00,00,
75082,000005A3,false,Rx,0,8,4F,00,00,00,00,00,00,00,
75484,000005D5,false,Rx,0,8,00,00,00,00,00,00,00,00,
75809,000005D6,false,Rx,0,8,C1,C2,07,00,02,03,00,62,
76063,00000109,false,Rx,0,8,00,01,FA,00,00,00,00,3D,
76310,000005D7,false,Rx,0,8,02,00,00,00,00,00,00,00,
76787,00000354,false,Rx,0,8,AA,0A,55,05,00,01,00,8A,
76967,00000200,false,Rx,0,8,00,80,49,04,00,FB,3C,00,
77214,000005D8,false,Rx,0,8,40,A4,04,00,50,00,8D,0E,
77692,000002B0,false,Rx,0,5,18,00,00,00,00,00,00,00,
77947,00000201,false,Rx,0,8,D1,00,00,00,00,00,00,D1,
78194,00000202,false,Rx,0,8,62,00,20,00,00,00,00,42,
78743,00000220,false,Rx,0,7,0E,C4,81,00,00,AF,0F,00,
78998,0000010C,false,Rx,0,8,04,00,55,54,15,80,01,06,
79170,00000153,false,Rx,0,8,20,00,10,F2,00,F2,A0,B4,
79648,000002A2,false,Rx,0,8,04,00,00,00,00,00,00,00,
80056,00000331,false,Rx,0,8,00,00,00,00,00,00,00,00,
80303,00000291,false,Rx,0,8,00,00,00,00,FE,FA,FA,00,
80478,00000387,false,Rx,0,8,C1,10,C3,69,00,06,09,00,
80961,00000394,false,Rx,0,8,0E,44,00,00,0E,84,1F,83,
81362,00000523,false,Rx,0,8,0C,38,39,39,30,2C,00,00,
81534,00000450,false,Rx,0,3,00,26,04,00,00,00,00,00,
81781,00000524,false,Rx,0,8,74,01,00,00,00,00,00,00,
82036,00000462,false,Rx,0,8,E0,2E,A4,16,00,00,00,00,
82283,00000471,false,Rx,0,6,04,00,10,00,00,70,00,00,
82458,00000579,false,Rx,0,8,A4,49,A4,49,44,00,00,FE,
82705,00000549,false,Rx,0,8,20,80,44,5F,22,15,59,77,
82960,0000057A,false,Rx,0,8,8D,C0,90,9E,FE,1D,01,80,
83207,0000057B,false,Rx,0,8,E3,01,00,00,00,50,64,A0,
83458,00000590,false,Rx,0,8,07,00,15,00,95,00,22,78,
83705,00000592,false,Rx,0,8,50,EF,05,00,00,00,05,84,
83960,00000584,false,Rx,0,8,01,00,00,29,12,40,42,33,
85125,00000109,false,Rx,0,8,00,01,FA,00,00,00,00,0A,
85705,00000200,false,Rx,0,8,00,80,49,04,00,3B,3C,00,
85960,00000201,false,Rx,0,8,11,00,00,00,00,00,00,11,
86207,00000202,false,Rx,0,8,02,00,20,00,00,00,00,22,
86456,00000354,false,Rx,0,8,AA,0A,55,05,00,01,00,7B,
87389,000002B0,false,Rx,0,5,1A,00,00,00,00,00,00,00,
88806,00000220,false,Rx,0,7,0F,C4,81,00,00,B2,0F,00,
89014,0000010C,false,Rx,0,8,04,00,55,54,15,80,01,17,
89191,00000153,false,Rx,0,8,20,00,10,F2,00,F2,B0,C4,
89449,00000291,false,Rx,0,8,00,00,00,00,FE,FA,FA,00,
89743,000002A2,false,Rx,0,8,05,00,00,00,00,00,00,00,
90246,00000331,false,Rx,0,8,00,00,00,00,00,00,00,00,
90726,00000386,false,Rx,0,8,00,00,00,00,00,40,00,80,
90906,00000523,false,Rx,0,8,0C,38,39,39,30,2C,00,00,
91228,00000524,false,Rx,0,8,74,01,00,00,00,00,00,00,
94984,00000109,false,Rx,0,8,00,01,FA,00,00,00,00,1B,
95306,00000200,false,Rx,0,8,00,80,49,04,00,7B,3C,00,
95556,00000201,false,Rx,0,8,51,00,00,00,00,00,00,51,
95803,00000202,false,Rx,0,8,22,00,20,00,00,00,00,02,
96438,00000354,false,Rx,0,8,AA,0A,55,05,00,01,00,6C,
96835,000005E5,false,Rx,0,8,00,00,00,00,00,00,00,00,
97090,000005E6,false,Rx,0,8,00,F0,00,00,00,00,00,00,
97338,000005E8,false,Rx,0,8,00,00,00,00,00,00,00,00,
97513,000002B0,false,Rx,0,5,18,00,00,00,00,00,00,00,
97760,000005E9,false,Rx,0,8,01,00,00,00,00,00,00,00,
98091,00000490,false,Rx,0,7,00,00,08,00,00,00,00,00,
98716,00000220,false,Rx,0,7,0E,E4,81,00,00,B1,0F,00,
98971,0000010C,false,Rx,0,8,04,00,55,54,15,80,01,28,
99218,00000153,false,Rx,0,8,20,00,10,F2,00,F2,C0,D4,
99467,00000291,false,Rx,0,8,00,00,00,00,FE,FA,FA,00,
99714,000002A2,false,Rx,0,8,04,00,00,00,00,00,00,00,
99969,00000331,false,Rx,0,8,00,00,00,00,00,00,00,00,
100141,00000387,false,Rx,0,8,C1,10,C3,69,00,07,0A,00,
100391,00000394,false,Rx,0,8,0F,64,00,00,0F,84,1B,83,
100637,00000523,false,Rx,0,8,0C,38,39,39,30,2C,00,00,
100893,00000524,false,Rx,0,8,74,01,00,00,00,00,00,00,
101522,00000450,false,Rx,0,3,00,26,04,00,00,00,00,00,
101820,000002A1,false,Rx,0,8,00,00,00,00,00,00,00,00,
102020,00000462,false,Rx,0,8,E0,2E,A4,16,00,00,00,00,
102268,00000540,false,Rx,0,8,32,31,16,00,CB,00,00,00,
102440,00000471,false,Rx,0,6,04,00,00,00,00,74,00,00,
105362,00000109,false,Rx,0,8,00,01,FA,00,00,00,00,2C,
105555,00000200,false,Rx,0,8,00,80,49,04,00,BB,3C,00,
105802,00000201,false,Rx,0,8,91,00,00,00,00,00,00,91,
106057,00000202,false,Rx,0,8,42,00,20,00,00,00,00,62,
106304,00000570,false,Rx,0,8,00,00,4A,00,00,00,00,00,
106554,00000354,false,Rx,0,8,AA,0A,55,05,00,01,00,5D,
107336,000002B0,false,Rx,0,5,18,00,00,00,00,00,00,00,
108925,0000010C,false,Rx,0,8,04,00,55,54,15,80,01,39,
108947,00000153,false,Rx,0,8,20,00,10,F2,00,F2,D0,E4,
109124,00000220,false,Rx,0,7,0E,E4,81,00,00,AE,0F,00,
109371,000002A2,false,Rx,0,8,05,00,00,00,00,00,00,00,
109619,00000291,false,Rx,0,8,00,00,00,00,FE,FA,FA,00,
109872,00000331,false,Rx,0,8,00,00,00,00,00,00,00,00,
110424,00000386,false,Rx,0,8,00,40,00,00,00,40,00,80,
110596,00000507,false,Rx,0,4,00,00,00,01,00,00,00,00,
110851,00000523,false,Rx,0,8,0C,38,39,39,30,2C,00,00,
111097,00000524,false,Rx,0,8,74,01,00,00,00,00,00,00,
115001,00000109,false,Rx,0,8,00,01,FA,00,00,00,00,3D,
115248,00000200,false,Rx,0,8,00,80,49,04,00,FB,3C,00,
115498,00000201,false,Rx,0,8,D1,00,00,00,00,00,00,D1,
115820,00000202,false,Rx,0,8,62,00,20,00,00,00,00,42,
116378,00000354,false,Rx,0,8,AA,0A,55,05,00,01,00,4E,
116859,000002B0,false,Rx,0,5,1A,00,00,00,00,00,00,00,
118699,00000220,false,Rx,0,7,0A,C4,81,00,00,AD,0F,00,
118954,0000010C,false,Rx,0,8,04,00,55,54,15,80,01,06,
119200,00000153,false,Rx,0,8,20,00,10,F2,00,F2,E0,F4,
119449,00000291,false,Rx,0,8,00,00,00,00,FE,FA,FA,00,
119696,000002A2,false,Rx,0,8,04,00,00,00,00,00,00,00,
119951,00000331,false,Rx,0,8,00,00,00,00,00,00,00,00,
120197,00000387,false,Rx,0,8,C1,10,C3,69,00,08,0B,00,
120446,00000394,false,Rx,0,8,0E,84,00,00,0E,84,1B,83,
121083,00000523,false,Rx,0,8,0C,38,39,39,30,2B,00,00,
121329,00000524,false,Rx,0,8,74,01,00,00,00,00,00,00,
121580,00000450,false,Rx,0,3,00,26,04,00,00,00,00,00,
121910,00000462,false,Rx,0,8,E0,2E,A4,16,00,00,00,00,
122235,00000471,false,Rx,0,6,04,00,10,00,00,78,00,00,
122637,000005DC,false,Rx,0,8,00,00,00,00,FE,00,00,00,
122892,000005DE,false,Rx,0,8,00,00,2C,7A,39,30,39,00,
125041,00000109,false,Rx,0,8,00,01,FA,00,00,00,00,0A,
125288,00000200,false,Rx,0,8,00,80,49,04,00,3B,3C,00,
125539,00000201,false,Rx,0,8,11,00,00,00,00,00,00,11,
125786,00000202,false,Rx,0,8,02,00,20,00,00,00,00,22,
126420,00000354,false,Rx,0,8,AA,0A,55,05,00,01,00,3F,
127353,000002B0,false,Rx,0,5,1A,00,00,00,00,00,00,00,
128907,00000220,false,Rx,0,7,09,C4,81,00,00,AC,0F,00,
128937,0000010C,false,Rx,0,8,04,00,55,54,15,80,01,17,
129194,00000153,false,Rx,0,8,20,00,10,F2,00,F2,00,14,
129757,000002A2,false,Rx,0,8,05,00,00,00,00,00,00,00,
130040,00000331,false,Rx,0,8,00,00,00,00,00,00,00,00,
130448,00000386,false,Rx,0,8,00,80,00,00,00,40,00,80,
130695,00000291,false,Rx,0,8,00,00,00,00,FE,FA,FA,00,
131179,00000523,false,Rx,0,8,0C,38,39,39,30,2C,00,00,
131429,00000524,false,Rx,0,8,74,01,00,00,00,00,00,00,
135030,00000109,false,Rx,0,8,00,01,FA,00,00,00,00,1B,
135277,000005F5,false,Rx,0,8,00,1E,00,14,03,C9,58,98,
135526,00000200,false,Rx,0,8,00,80,49,04,00,7B,3C,00,
135773,000005F6,false,Rx,0,8,00,00,00,00,00,00,1E,00,
135953,00000201,false,Rx,0,8,51,00,00,00,00,00,00,51,
136200,000005F7,false,Rx,0,8,00,1E,00,00,00,58,00,00,
136449,00000202,false,Rx,0,8,22,00,20,00,00,00,00,02,
136696,00000354,false,Rx,0,8,AA,0A,55,05,00,01,00,20,
136876,000002B0,false,Rx,0,5,18,00,00,00,00,00,00,00,
137123,000005F8,false,Rx,0,8,7E,00,E9,0F,CD,7A,5D,82,
137373,000005F9,false,Rx,0,8,76,6D,FF,FF,00,00,00,B9,
138759,0000010C,false,Rx,0,8,04,00,55,54,15,80,01,28,
139014,00000153,false,Rx,0,8,20,00,10,F2,00,F2,10,24,
139186,00000220,false,Rx,0,7,0B,C4,81,00,00,AA,0F,00,
139434,000002A2,false,Rx,0,8,04,00,00,00,00,00,00,00,
139917,00000331,false,Rx,0,8,00,00,00,00,00,00,00,00,
140089,00000291,false,Rx,0,8,00,00,00,00,FE,FA,FA,00,
140336,00000387,false,Rx,0,8,C1,10,C3,69,00,09,0C,00,
140583,00000394,false,Rx,0,8,0E,A4,00,00,0E,84,19,83,
140831,00000523,false,Rx,0,8,0C,38,39,39,30,2C,00,00,
141238,00000524,false,Rx,0,8,74,01,00,00,00,00,00,00,
141787,00000450,false,Rx,0,3,00,26,04,00,00,00,00,00,
142041,00000462,false,Rx,0,8,E0,2E,A4,16,00,00,00,00,
142213,00000471,false,Rx,0,6,04,00,10,00,00,BC,00,00,
142463,00000541,false,Rx,0,8,03,00,40,80,C0,00,00,0C,
142710,0000055C,false,Rx,0,8,8D,C0,90,9E,FE,1D,01,00,
142966,0000055F,false,Rx,0,8,00,00,00,00,00,00,00,00,
143288,00000561,false,Rx,0,8,00,00,00,00,00,00,00,00,
143537,00000567,false,Rx,0,8,40,10,29,18,01,00,00,00,
143709,00000578,false,Rx,0,6,10,00,00,00,00,00,00,00,
143964,00000588,false,Rx,0,8,A4,49,A4,49,00,00,00,00,
144285,000005EC,false,Rx,0,8,00,00,00,00,00,00,00,00,
145149,00000109,false,Rx,0,8,00,01,FA,00,00,00,00,2C,
145398,00000200,false,Rx,0,8,00,80,49,04,00,BB,3C,00,
145644,00000201,false,Rx,0,8,91,00,00,00,00,00,00,91,
145975,00000202,false,Rx,0,8,42,00,20,00,00,00,00,62,
146450,00000354,false,Rx,0,8,AA,0A,55,05,00,01,00,11,
147386,000002B0,false,Rx,0,5,18,00,00,00,00,00,00,00,
148954,00000490,false,Rx,0,7,00,00,08,00,00,00,00,00,
148983,00000220,false,Rx,0,7,0E,C4,81,00,00,AA,0F,00,
149001,0000010C,false,Rx,0,8,04,00,55,54,15,80,01,39,
149196,00000153,false,Rx,0,8,20,00,10,F2,00,F2,20,34,
149447,00000291,false,Rx,0,8,00,00,00,00,FE,FA,FA,00,
149694,000002A2,false,Rx,0,8,05,00,00,00,00,00,00,00,
149949,00000331,false,Rx,0,8,00,00,00,00,00,00,00,00,
150196,00000386,false,Rx,0,8,00,C0,00,00,00,40,00,80,
150447,00000523,false,Rx,0,8,0C,38,39,39,30,2C,00,00,
153591,00000524,false,Rx,0,8,74,01,00,00,00,00,00,00,
154988,00000109,false,Rx,0,8,00,01,FA,00,00,00,00,3D,
155310,00000200,false,Rx,0,8,00,80,49,04,00,FB,3C,00,
155559,00000201,false,Rx,0,8,D1,00,00,00,00,00,00,D1,
155806,00000202,false,Rx,0,8,62,00,20,00,00,00,00,42,
156062,000004EE,false,Rx,0,8,00,00,00,00,00,00,00,06,
156309,0000057F,false,Rx,0,8,80,0A,68,00,00,00,00,00,
156559,00000354,false,Rx,0,8,AA,0A,55,05,00,01,00,02,
156968,000002B0,false,Rx,0,5,19,00,00,00,00,00,00,00,
157446,00000581,false,Rx,0,8,00,00,00,00,00,00,00,00,
157618,0000058E,false,Rx,0,8,00,01,00,EF,28,20,00,C0,
158780,0000010C,false,Rx,0,8,04,00,55,54,15,80,01,06,
158959,00000153,false,Rx,0,8,20,00,10,F2,00,F2,30,44,
159206,00000220,false,Rx,0,7,0E,C4,81,00,00,AB,0F,00,
159456,000002A2,false,Rx,0,8,04,00,00,00,00,00,00,00,
159703,00000291,false,Rx,0,8,00,00,00,00,FE,FA,FA,00,
159958,00000331,false,Rx,0,8,00,00,00,00,00,00,00,00,
160205,00000387,false,Rx,0,8,C1,10,C3,69,00,0A,0D,00,
160634,00000394,false,Rx,0,8,0E,C4,00,00,0E,84,17,83,
160888,00000523,false,Rx,0,8,0C,38,39,39,30,2C,00,00,
161213,00000524,false,Rx,0,8,74,01,00,00,00,00,00,00,
161613,00000450,false,Rx,0,3,00,26,04,00,00,00,00,00,
161868,00000462,false,Rx,0,8,E0,2E,A4,16,00,00,00,00,
162115,00000471,false,Rx,0,6,04,00,10,00,00,00,00,00,
165030,00000109,false,Rx,0,8,00,01,FA,00,00,00,00,0A,
165277,00000200,false,Rx,0,8,00,80,49,04,00,3B,3C,00,
165526,00000201,false,Rx,0,8,11,00,00,00,00,00,00,11,
165773,00000202,false,Rx,0,8,02,00,20,00,00,00,00,22,
166408,00000354,false,Rx,0,8,AA,0A,55,05,00,01,00,F3,
167341,000002B0,false,Rx,0,5,1A,00,00,00,00,00,00,00,
168986,00000594,false,Rx,0,8,BE,1D,48,26,C4,9D,01,00,
169019,0000010C,false,Rx,0,8,04,00,55,54,15,80,01,17,
169119,00000153,false,Rx,0,8,20,00,10,F2,00,F2,40,54,
169384,00000220,false,Rx,0,7,0C,A4,81,00,00,AE,0F,00,
169911,00000291,false,Rx,0,8,00,00,00,00,FE,FA,FA,00,
170053,000002A2,false,Rx,0,8,05,00,00,00,00,00,00,00,
170303,00000331,false,Rx,0,8,00,00,00,00,00,00,00,00,
170554,00000386,false,Rx,0,8,00,00,00,40,00,40,00,80,
170801,00000491,false,Rx,0,8,17,00,00,00,00,00,00,00,
170981,00000493,false,Rx,0,8,00,0E,FC,11,00,00,3B,01,
171228,000004E2,false,Rx,0,8,B4,00,CD,00,00,00,00,00,
171479,00000523,false,Rx,0,8,0C,38,39,39,30,2C,00,00,
171726,00000524,false,Rx,0,8,74,01,00,00,00,00,00,00,
171981,00000542,false,Rx,0,8,A4,3B,01,00,00,00,FF,FF,
172228,00000595,false,Rx,0,8,04,00,C1,C2,07,00,8D,0E,
172478,00000596,false,Rx,0,8,00,92,00,00,17,00,02,03,
172725,00000597,false,Rx,0,8,05,50,00,00,00,00,00,00,
172904,00000598,false,Rx,0,8,00,00,00,00,FF,52,02,02,
173151,00000599,false,Rx,0,8,08,00,00,00,00,00,00,00,
173475,0000059C,false,Rx,0,8,00,00,00,00,00,00,00,00,
173722,0000059E,false,Rx,0,8,00,00,00,00,8D,0E,00,00,
173902,000005A3,false,Rx,0,8,4F,00,00,00,00,00,00,00,
174149,000005D5,false,Rx,0,8,00,00,00,00,00,00,00,00,
174398,000005D6,false,Rx,0,8,C1,C2,07,00,02,03,00,B4,
174645,000005D7,false,Rx,0,8,02,00,00,00,00,00,00,00,
174900,00000109,false,Rx,0,8,00,01,FA,00,00,00,00,1B,
175147,000005D8,false,Rx,0,8,40,A4,04,00,50,00,8D,0E,
175395,00000200,false,Rx,0,8,00,80,49,04,00,7B,3C,00,
175642,00000201,false,Rx,0,8,51,00,00,00,00,00,00,51,
175897,00000202,false,Rx,0,8,22,00,20,00,00,00,00,02,
176447,00000354,false,Rx,0,8,AA,0A,55,05,00,01,00,E4,
176928,000002B0,false,Rx,0,5,18,00,00,00,00,00,00,00,
178769,0000010C,false,Rx,0,8,04,00,55,54,15,80,01,28,
179024,00000153,false,Rx,0,8,20,00,10,F2,00,F2,50,64,
179195,00000220,false,Rx,0,7,0C,A4,81,00,00,AC,0F,00,
179442,000002A2,false,Rx,0,8,04,00,00,00,00,00,00,00,
179689,00000291,false,Rx,0,8,00,00,00,00,FE,FA,FA,00,
180202,00000331,false,Rx,0,8,00,00,00,00,00,00,00,00,
180451,00000387,false,Rx,0,8,C1,10,C3,69,00,0B,0E,00,
180698,00000394,false,Rx,0,8,0D,E4,00,00,0D,84,17,83,
181180,00000523,false,Rx,0,8,0C,38,39,39,30,2C,00,00,
181429,00000524,false,Rx,0,8,74,01,00,00,00,00,00,00,
181525,00000450,false,Rx,0,3,00,26,04,00,00,00,00,00,
181855,00000462,false,Rx,0,8,E0,2E,A4,16,00,00,00,00,
182027,00000471,false,Rx,0,6,04,00,10,00,00,04,00,00,
182426,00000579,false,Rx,0,8,A4,49,A4,49,44,00,00,FE,
182674,00000549,false,Rx,0,8,20,80,44,5F,22,15,59,77,
182929,0000057A,false,Rx,0,8,8D,C0,90,9E,FE,1D,01,80,
183175,0000057B,false,Rx,0,8,E3,01,00,00,00,50,64,A0,
183676,00000590,false,Rx,0,8,07,00,14,00,95,00,20,78,
183859,00000584,false,Rx,0,8,01,00,00,29,12,50,30,30,
184105,00000592,false,Rx,0,8,50,EF,05,00,00,00,05,C4,
184888,00000109,false,Rx,0,8,00,01,FA,00,00,00,00,2C,
185135,00000200,false,Rx,0,8,00,80,49,04,00,BB,3C,00,
185383,00000201,false,Rx,0,8,91,00,00,00,00,00,00,91,
185630,00000202,false,Rx,0,8,42,00,20,00,00,00,00,62,
186415,00000354,false,Rx,0,8,AA,0A,55,05,00,01,00,D5,
187424,000002B0,false,Rx,0,5,18,00,00,00,00,00,00,00,
189009,0000010C,false,Rx,0,8,04,00,55,54,15,80,01,39,
189036,00000153,false,Rx,0,8,20,00,10,F2,00,F2,60,74,
189151,00000220,false,Rx,0,7,0D,C4,81,00,00,A8,0F,00,
189400,000002A2,false,Rx,0,8,05,00,00,00,00,00,00,00,
189647,00000291,false,Rx,0,8,00,00,00,00,FE,FA,FA,00,
189902,00000331,false,Rx,0,8,00,00,00,00,00,00,00,00,
190149,00000386,false,Rx,0,8,00,40,00,40,00,40,00,80,
190400,00000523,false,Rx,0,8,0C,38,39,39,30,2B,00,00,
190801,00000524,false,Rx,0,8,74,01,00,00,00,00,00,00,
194860,00000109,false,Rx,0,8,00,01,FA,00,00,00,00,3D,
195107,00000200,false,Rx,0,8,00,80,49,04,00,FB,3C,00,
195354,00000201,false,Rx,0,8,D1,00,00,00,00,00,00,D1,
195676,00000202,false,Rx,0,8,62,00,20,00,00,00,00,42,
196386,00000354,false,Rx,0,8,AA,0A,55,05,00,01,00,C6,
196867,000005E5,false,Rx,0,8,00,00,00,00,00,00,00,00,
197039,000002B0,false,Rx,0,5,19,00,00,00,00,00,00,00,
197286,000005E6,false,Rx,0,8,00,F0,00,00,00,00,00,00,
197536,000005E8,false,Rx,0,8,00,00,00,00,00,00,00,00,
197783,000005E9,false,Rx,0,8,00,00,00,00,00,00,00,00,
198114,00000490,false,Rx,0,7,00,00,08,00,00,00,00,00,
198739,0000010C,false,Rx,0,8,04,00,55,54,15,80,01,06,
198993,00000153,false,Rx,0,8,20,00,10,F2,00,F2,70,84,
199165,00000220,false,Rx,0,7,0D,C4,81,00,00,AB,0F,00,
199415,000002A2,false,Rx,0,8,04,00,00,00,00,00,00,00,
199662,00000291,false,Rx,0,8,00,00,00,00,FE,FA,FA,00,
199916,00000331,false,Rx,0,8,00,00,00,00,00,00,00,00,
200164,00000387,false,Rx,0,8,C1,10,C3,69,00,FD,00,00,
200411,00000394,false,Rx,0,8,0E,04,00,00,0E,84,13,83,
200658,00000523,false,Rx,0,8,0C,38,39,39,30,2C,00,00,
200912,00000524,false,Rx,0,8,74,01,00,00,00,00,00,00,
201691,00000450,false,Rx,0,3,00,26,04,00,00,00,00,00,
202102,000002A1,false,Rx,0,8,00,00,00,00,00,00,00,00,
202351,00000462,false,Rx,0,8,E0,2E,A4,16,00,00,00,00,
202598,00000471,false,Rx,0,6,04,00,00,00,00,08,00,00,
205135,00000109,false,Rx,0,8,00,01,FA,00,00,00,00,0A,
205386,00000200,false,Rx,0,8,00,80,49,04,00,3B,3C,00,
205635,00000201,false,Rx,0,8,11,00,00,00,00,00,00,11,
205907,00000202,false,Rx,0,8,02,00,20,00,00,00,00,22,
206304,00000570,false,Rx,0,8,00,00,4A,00,00,00,00,00,
206554,00000354,false,Rx,0,8,AA,0A,55,05,00,01,00,B7,
207335,000002B0,false,Rx,0,5,1A,00,00,00,00,00,00,00,
209031,00000220,false,Rx,0,7,0C,A4,81,00,00,AD,0F,00,
209058,0000010C,false,Rx,0,8,04,00,55,54,15,80,01,17,
209247,00000153,false,Rx,0,8,20,00,10,F2,00,F2,80,94,
209510,000002A2,false,Rx,0,8,05,00,00,00,00,00,00,00,
209728,00000291,false,Rx,0,8,00,00,00,00,FE,FA,FA,00,
210540,00000331,false,Rx,0,8,00,00,00,00,00,00,00,00,
210717,00000386,false,Rx,0,8,00,80,00,40,00,40,00,80,
210895,00000507,false,Rx,0,4,00,00,00,01,00,00,00,00,
211554,00000523,false,Rx,0,8,0C,38,39,39,30,2B,00,00,
211801,00000524,false,Rx,0,8,74,01,00,00,00,00,00,00,
214870,00000109,false,Rx,0,8,00,01,FA,00,00,00,00,1B,
215117,00000200,false,Rx,0,8,00,80,49,04,00,7B,3C,00,
215367,00000201,false,Rx,0,8,51,00,00,00,00,00,00,51,
215689,00000202,false,Rx,0,8,22,00,20,00,00,00,00,02,
216398,00000354,false,Rx,0,8,AA,0A,55,05,00,01,00,A8,
216953,000002B0,false,Rx,0,5,18,00,00,00,00,00,00,00,
218718,0000010C,false,Rx,0,8,04,00,55,54,15,80,01,28,
218973,00000153,false,Rx,0,8,20,00,10,F2,00,F2,90,A4,
219221,00000220,false,Rx,0,7,0D,A4,81,00,00,AF,0F,00,
219468,000002A2,false,Rx,0,8,04,00,00,00,00,00,00,00,
219876,00000291,false,Rx,0,8,00,00,00,00,FE,FA,FA,00,
220123,00000331,false,Rx,0,8,00,00,00,00,00,00,00,00,
220373,00000387,false,Rx,0,8,C1,10,C3,69,00,FE,01,00,
220857,00000394,false,Rx,0,8,0D,24,00,00,0D,84,13,83,
221257,00000523,false,Rx,0,8,0C,38,39,39,30,2C,00,00,
221584,00000524,false,Rx,0,8,74,01,00,00,00,00,00,00,
221756,00000450,false,Rx,0,3,00,26,04,00,00,00,00,00,
222010,00000462,false,Rx,0,8,E0,2E,A4,16,00,00,00,00,
222182,00000471,false,Rx,0,6,04,00,10,00,00,4C,00,00,
224869,00000109,false,Rx,0,8,00,01,FA,00,00,00,00,2C,
225116,00000200,false,Rx,0,8,00,80,49,04,00,BB,3C,00,
225366,00000201,false,Rx,0,8,91,00,00,00,00,00,00,91,
225613,00000202,false,Rx,0,8,42,00,20,00,00,00,00,62,
226398,00000354,false,Rx,0,8,AA,0A,55,05,00,01,00,99,
227408,000002B0,false,Rx,0,5,19,00,00,00,00,00,00,00,
229147,00000220,false,Rx,0,7,0E,A4,81,00,00,AD,0F,00,
229178,0000010C,false,Rx,0,8,04,00,55,54,15,80,01,39,
229445,00000153,false,Rx,0,8,20,00,10,F2,00,F2,A0,B4,
229929,00000291,false,Rx,0,8,00,00,00,00,FE,FA,FA,00,
230101,000002A2,false,Rx,0,8,05,00,00,00,00,00,00,00,
230351,00000331,false,Rx,0,8,00,00,00,00,00,00,00,00,
230598,00000386,false,Rx,0,8,00,C0,00,40,00,40,00,80,
230853,00000523,false,Rx,0,8,0C,38,39,39,30,2C,00,00,
231100,00000524,false,Rx,0,8,74,01,00,00,00,00,00,00,
234853,00000109,false,Rx,0,8,00,01,FA,00,00,00,00,3D,
235100,000005F5,false,Rx,0,8,00,1E,00,14,04,C9,58,9F,
235351,00000200,false,Rx,0,8,00,80,49,04,00,FB,3C,00,
235598,0000050D,false,Rx,0,8,00,00,00,00,00,00,00,00,
235853,00000201,false,Rx,0,8,D1,00,00,00,00,00,00,D1,
236100,000005CA,false,Rx,0,8,00,00,00,5A,FF,50,00,00,
236347,00000202,false,Rx,0,8,62,00,20,00,00,00,00,42,
236594,00000354,false,Rx,0,8,AA,0A,55,05,00,01,00,8A,
236849,000005CB,false,Rx,0,8,00,FF,00,00,00,00,00,00,
237020,000002B0,false,Rx,0,5,18,00,00,00,00,00,00,00,
237267,000005CC,false,Rx,0,8,00,00,00,00,00,00,00,00,
237516,000005F6,false,Rx,0,8,00,00,00,00,00,00,1E,00,
237763,000005F7,false,Rx,0,8,00,1E,00,00,00,58,00,00,
238018,000005F8,false,Rx,0,8,7E,00,E9,0F,CC,7A,5D,82,
238265,000005F9,false,Rx,0,8,76,6D,FF,FF,00,00,00,B9,
238739,0000010C,false,Rx,0,8,04,00,55,54,15,80,01,06,
238994,00000153,false,Rx,0,8,20,00,10,F2,00,F2,B0,C4,
239240,00000220,false,Rx,0,7,0D,A4,81,00,00,A9,0F,00,
239415,000002A2,false,Rx,0,8,04,00,00,00,00,00,00,00,
240204,00000291,false,Rx,0,8,00,00,00,00,FE,FA,FA,00,
240453,00000331,false,Rx,0,8,00,00,00,00,00,00,00,00,
240700,00000387,false,Rx,0,8,C1,10,C3,69,00,FF,02,00,
240955,00000394,false,Rx,0,8,0D,44,00,00,0D,84,11,83,
241202,00000523,false,Rx,0,8,0C,38,39,39,30,2C,00,00,
241451,00000524,false,Rx,0,8,74,01,00,00,00,00,00,00,
242007,00000414,false,Rx,0,8,00,00,00,00,00,00,00,00,
242179,00000450,false,Rx,0,3,00,26,04,00,00,00,00,00,
242429,00000462,false,Rx,0,8,E0,2E,A4,16,00,00,00,00,
242676,00000471,false,Rx,0,6,04,00,10,00,00,10,00,00,
242929,000004FE,false,Rx,0,8,FF,FF,7F,FF,FF,00,FF,FF,
243176,00000541,false,Rx,0,8,03,00,40,80,C0,00,00,0C,
243427,00000553,false,Rx,0,8,04,00,00,02,00,00,80,00,
243674,0000055C,false,Rx,0,8,8D,C0,90,9E,FE,1D,01,00,
243929,0000055F,false,Rx,0,8,00,00,00,00,00,00,00,00,
244176,00000561,false,Rx,0,8,00,00,00,00,00,00,00,00,
244427,00000567,false,Rx,0,8,40,10,29,18,01,00,00,00,
244674,00000578,false,Rx,0,6,10,00,00,00,00,00,00,00,
244929,00000109,false,Rx,0,8,00,01,FA,00,00,00,00,0A,
245176,00000588,false,Rx,0,8,A4,49,A4,49,00,00,00,00,
245424,00000200,false,Rx,0,8,00,80,49,04,00,3B,3C,00,
245671,000005B3,false,Rx,0,8,40,14,FE,00,00,00,00,00,
245926,00000201,false,Rx,0,8,11,00,00,00,00,00,00,11,
246098,000005DF,false,Rx,0,8,05,1C,01,00,00,00,00,00,
246345,00000202,false,Rx,0,8,02,00,20,00,00,00,00,22,
246592,00000354,false,Rx,0,8,AA,0A,55,05,00,01,00,7B,
246839,000005EC,false,Rx,0,8,00,00,00,00,00,00,00,00,
247398,000002B0,false,Rx,0,5,18,00,00,00,00,00,00,00,
249194,00000490,false,Rx,0,7,00,00,08,00,00,00,00,00,
249215,00000220,false,Rx,0,7,0C,E4,81,00,00,AA,0F,00,
249233,0000010C,false,Rx,0,8,04,00,55,54,15,80,01,17,
249250,00000153,false,Rx,0,8,20,00,10,F2,00,F2,C0,D4,
249440,000002A2,false,Rx,0,8,05,00,00,00,00,00,00,00,
249687,00000291,false,Rx,0,8,00,00,00,00,FE,FA,FA,00,
250319,00000331,false,Rx,0,8,00,00,00,00,00,00,00,00,
250729,00000386,false,Rx,0,8,00,00,00,80,00,40,00,80,
250987,00000523,false,Rx,0,8,0C,38,39,39,30,2C,00,00,
251234,00000524,false,Rx,0,8,74,01,00,00,00,00,00,00,
254913,00000109,false,Rx,0,8,00,01,FA,00,00,00,00,1B,
255160,00000200,false,Rx,0,8,00,80,49,04,00,7B,3C,00,
255410,00000201,false,Rx,0,8,51,00,00,00,00,00,00,51,
255657,00000202,false,Rx,0,8,22,00,20,00,00,00,00,02,
256370,000004EE,false,Rx,0,8,00,00,00,00,00,00,00,06,
256542,00000354,false,Rx,0,8,AA,0A,55,05,00,01,00,6C,
256789,0000057F,false,Rx,0,8,80,0A,68,00,00,00,00,00,
257044,000002B0,false,Rx,0,5,1A,00,00,00,00,00,00,00,
257551,00000581,false,Rx,0,8,00,00,00,00,00,00,00,00,
257798,0000058E,false,Rx,0,8,00,01,00,EF,28,20,00,C0,
257978,000005E3,false,Rx,0,8,00,00,00,00,00,00,00,00,
258754,0000010C,false,Rx,0,8,04,00,55,54,15,80,01,28,
259009,00000153,false,Rx,0,8,20,00,10,F2,00,F2,D0,E4,
259181,00000220,false,Rx,0,7,0D,E4,81,00,00,AF,0F,00,
259429,000002A2,false,Rx,0,8,04,00,00,00,00,00,00,00,
259676,00000291,false,Rx,0,8,00,00,00,00,FE,FA,FA,00,
259931,00000331,false,Rx,0,8,00,00,00,00,00,00,00,00,
260178,00000387,false,Rx,0,8,C1,10,C3,69,00,00,03,00,
260427,00000394,false,Rx,0,8,0F,64,00,00,0F,84,1B,83,
260826,00000523,false,Rx,0,8,0C,38,39,39,30,2C,00,00,
261081,00000524,false,Rx,0,8,74,01,00,00,00,00,00,00,
261631,00000450,false,Rx,0,3,00,26,04,00,00,00,00,00,
261886,00000462,false,Rx,0,8,E0,2E,A4,16,00,00,00,00,
262057,00000471,false,Rx,0,6,04,00,10,00,00,14,00,00,
264893,00000109,false,Rx,0,8,00,01,FA,00,00,00,00,2C,
265141,00000200,false,Rx,0,8,00,80,49,04,00,BB,3C,00,
265388,00000201,false,Rx,0,8,91,00,00,00,00,00,00,91,
265635,00000202,false,Rx,0,8,42,00,20,00,00,00,00,62,
266420,00000354,false,Rx,0,8,AA,0A,55,05,00,01,00,5D,
267353,000002B0,false,Rx,0,5,18,00,00,00,00,00,00,00,
269221,0000010C,false,Rx,0,8,04,00,55,54,15,80,01,39,
269249,00000153,false,Rx,0,8,20,00,10,F2,00,F2,E0,F4,
269265,00000220,false,Rx,0,7,0D,A4,81,00,00,AD,0F,00,
269381,000002A2,false,Rx,0,8,05,00,00,00,00,00,00,00,
269943,00000291,false,Rx,0,8,00,00,00,00,FE,FA,FA,00,
270189,00000331,false,Rx,0,8,00,00,00,00,00,00,00,00,
270438,00000386,false,Rx,0,8,00,40,00,80,00,40,00,80,
270685,00000491,false,Rx,0,8,17,00,00,00,00,00,00,00,
270940,00000493,false,Rx,0,8,00,0E,FC,11,00,00,3B,01,
271187,000004E2,false,Rx,0,8,B4,00,CD,00,00,00,00,00,
271438,00000523,false,Rx,0,8,0C,38,39,39,30,2C,00,00,
271685,00000524,false,Rx,0,8,74,01,00,00,00,00,00,00,
271940,00000542,false,Rx,0,8,A4,3B,01,00,00,00,FF,FF,
272187,00000594,false,Rx,0,8,BE,1D,48,26,C4,9D,01,00,
272361,00000595,false,Rx,0,8,04,00,C1,C2,08,00,8D,0E,
272609,00000596,false,Rx,0,8,00,92,00,00,17,00,02,03,
272863,00000597,false,Rx,0,8,85,50,00,00,00,00,00,00,
273110,00000598,false,Rx,0,8,00,00,00,00,FF,52,02,02,
273359,00000599,false,Rx,0,8,08,00,00,00,00,00,00,00,
273607,0000059C,false,Rx,0,8,00,00,00,00,00,00,00,00,
273862,0000059E,false,Rx,0,8,00,00,00,00,8D,0E,00,00,
274108,000005A3,false,Rx,0,8,4F,00,00,00,00,00,00,00,
274355,000005D5,false,Rx,0,8,00,00,00,00,00,00,00,00,
274602,000005D6,false,Rx,0,8,C1,C2,08,00,02,03,00,B4,
274857,000005D7,false,Rx,0,8,02,00,00,00,00,00,00,00,
275104,00000109,false,Rx,0,8,00,01,FA,00,00,00,00,3D,
275353,000005D8,false,Rx,0,8,40,A4,04,00,50,00,8D,0E,
275600,00000200,false,Rx,0,8,00,80,49,04,00,FB,3C,00,
275855,00000201,false,Rx,0,8,D1,00,00,00,00,00,00,D1,
276103,00000202,false,Rx,0,8,62,00,20,00,00,00,00,42,
276427,00000354,false,Rx,0,8,AA,0A,55,05,00,01,00,4E,
276908,000002B0,false,Rx,0,5,19,00,00,00,00,00,00,00,
278748,0000010C,false,Rx,0,8,04,00,55,54,15,80,01,06,
279003,00000153,false,Rx,0,8,20,00,10,F2,00,F2,00,14,
279174,00000220,false,Rx,0,7,0C,C4,81,00,00,A8,0F,00,
279422,000002A2,false,Rx,0,8,04,00,00,00,00,00,00,00,
279981,00000291,false,Rx,0,8,00,00,00,00,FE,FA,FA,00,
280228,00000331,false,Rx,0,8,00,00,00,00,00,00,00,00,
280403,00000387,false,Rx,0,8,C1,10,C3,69,00,01,04,00,
280651,00000394,false,Rx,0,8,0E,84,00,00,0E,84,1B,83,
280906,00000523,false,Rx,0,8,0C,38,39,39,30,2B,00,00,
281153,00000524,false,Rx,0,8,74,01,00,00,00,00,00,00,
281478,00000450,false,Rx,0,3,00,26,04,00,00,00,00,00,
281725,00000462,false,Rx,0,8,E0,2E,A4,16,00,00,00,00,
281980,00000471,false,Rx,0,6,04,00,10,00,00,18,00,00,
282380,00000579,false,Rx,0,8,A4,49,A4,49,44,00,00,FE,
282864,00000549,false,Rx,0,8,20,80,44,5E,22,15,59,77,
284036,00000584,false,Rx,0,8,01,00,00,29,12,60,30,31,
286415,00000354,false,Rx,0,8,AA,0A,55,05,00,01,00,3F,
287423,00000109,false,Rx,0,8,00,01,FA,00,00,00,00,0A,
289388,0000010C,false,Rx,0,8,04,00,55,54,15,80,01,17,
289413,00000153,false,Rx,0,8,20,00,10,F2,00,F2,10,24,
289430,00000200,false,Rx,0,8,00,80,49,04,00,3B,3C,00,
289607,00000201,false,Rx,0,8,11,00,00,00,00,00,00,11,
290078,00000202,false,Rx,0,8,02,00,20,00,00,00,00,22,
290410,00000220,false,Rx,0,7,0E,C4,81,00,00,AB,0F,00,
290567,00000291,false,Rx,0,8,00,00,00,00,FE,FA,FA,00,
290823,000002A2,false,Rx,0,8,05,00,00,00,00,00,00,00,
291003,000002B0,false,Rx,0,5,18,00,00,00,00,00,00,00,
291250,00000331,false,Rx,0,8,00,00,00,00,00,00,00,00,
291497,00000386,false,Rx,0,8,00,80,00,80,00,40,00,80,
291744,00000523,false,Rx,0,8,0C,38,39,39,30,2B,00,00,
291999,00000524,false,Rx,0,8,74,01,00,00,00,00,00,00,
292246,0000057A,false,Rx,0,8,8D,C0,90,9E,FE,1D,01,80,
292420,0000057B,false,Rx,0,8,E3,01,00,00,00,50,64,A0,
292667,00000590,false,Rx,0,8,07,00,14,00,95,00,20,78,
292923,00000592,false,Rx,0,8,50,EF,05,00,00,00,05,04,
294838,00000109,false,Rx,0,8,00,01,FA,00,00,00,00,1B,
295093,00000200,false,Rx,0,8,00,80,49,04,00,7B,3C,00,
295340,00000201,false,Rx,0,8,51,00,00,00,00,00,00,51,
295588,00000202,false,Rx,0,8,22,00,20,00,00,00,00,02,
296447,00000354,false,Rx,0,8,AA,0A,55,05,00,01,00,20,
296853,000005E5,false,Rx,0,8,00,00,00,00,00,00,00,00,
297024,000002B0,false,Rx,0,5,18,00,00,00,00,00,00,00,
297271,000005E6,false,Rx,0,8,00,F0,00,00,00,00,00,00,
297522,000005E8,false,Rx,0,8,00,00,00,00,00,00,00,00,
297769,000005E9,false,Rx,0,8,01,00,00,00,00,00,00,00,
298175,00000490,false,Rx,0,7,00,00,08,00,00,00,00,00,
298724,0000010C,false,Rx,0,8,04,00,55,54,15,80,01,28,
298979,00000153,false,Rx,0,8,20,00,10,F2,00,F2,20,34,
299225,00000220,false,Rx,0,7,0F,E4,81,00,00,AB,0F,00,
299475,000002A2,false,Rx,0,8,04,00,00,00,00,00,00,00,
299722,00000291,false,Rx,0,8,00,00,00,00,FE,FA,FA,00,
299977,00000331,false,Rx,0,8,00,00,00,00,00,00,00,00,
300408,00000387,false,Rx,0,8,C1,10,C3,69,00,02,05,00,
300655,00000394,false,Rx,0,8,0F,A4,00,00,0F,84,17,83,
300908,00000523,false,Rx,0,8,0C,38,39,39,30,2C,00,00,
301156,00000524,false,Rx,0,8,74,01,00,00,00,00,00,00,
301707,00000450,false,Rx,0,3,00,26,04,00,00,00,00,00,
301961,000002A1,false,Rx,0,8,00,00,00,00,00,00,00,00,
302208,00000462,false,Rx,0,8,E0,2E,A4,16,00,00,00,00,
302458,00000540,false,Rx,0,8,12,31,0B,00,F5,00,00,00,
302705,00000471,false,Rx,0,6,04,00,00,00,00,5C,00,00,
304863,00000109,false,Rx,0,8,00,01,FA,00,00,00,00,2C,
305110,00000200,false,Rx,0,8,00,80,49,04,00,BB,3C,00,
305359,00000201,false,Rx,0,8,91,00,00,00,00,00,00,91,
305606,00000202,false,Rx,0,8,42,00,20,00,00,00,00,62,
306313,00000570,false,Rx,0,8,00,00,4A,00,00,00,00,00,
306561,00000354,false,Rx,0,8,AA,0A,55,05,00,01,00,11,
312120,000002B0,false,Rx,0,5,1A,00,00,00,00,00,00,00,
312141,00000220,false,Rx,0,7,0D,E4,81,00,00,A8,0F,00,
312157,0000010C,false,Rx,0,8,04,00,55,54,15,80,01,39,
312173,00000153,false,Rx,0,8,20,00,10,F2,00,F2,30,44,
312189,000002A2,false,Rx,0,8,05,00,00,00,00,00,00,00,
312206,00000291,false,Rx,0,8,00,00,00,00,FE,FA,FA,00,
312222,00000331,false,Rx,0,8,00,00,00,00,00,00,00,00,
312238,00000386,false,Rx,0,8,00,C0,00,80,00,40,00,80,
312254,00000507,false,Rx,0,4,00,00,00,01,00,00,00,00,
312269,00000523,false,Rx,0,8,0C,38,39,39,30,2C,00,00,
312286,00000524,false,Rx,0,8,74,01,00,00,00,00,00,00,
314954,00000109,false,Rx,0,8,00,01,FA,00,00,00,00,3D,
315153,00000200,false,Rx,0,8,00,80,49,04,00,FB,3C,00,
315408,00000201,false,Rx,0,8,D1,00,00,00,00,00,00,D1,
315583,00000202,false,Rx,0,8,62,00,20,00,00,00,00,42,
316440,00000354,false,Rx,0,8,AA,0A,55,05,00,01,00,02,
316921,000002B0,false,Rx,0,5,1A,00,00,00,00,00,00,00,
318759,0000010C,false,Rx,0,8,04,00,55,54,15,80,01,06,
319014,00000153,false,Rx,0,8,20,00,10,F2,00,F2,40,54,
319185,00000220,false,Rx,0,7,0D,E4,81,00,00,A9,0F,00,
319434,000002A2,false,Rx,0,8,04,00,00,00,00,00,00,00,
319680,00000291,false,Rx,0,8,00,00,00,00,FE,FA,FA,00,
319935,00000331,false,Rx,0,8,00,00,00,00,00,00,00,00,
320182,00000387,false,Rx,0,8,C1,10,C3,69,00,03,06,00,
320431,00000394,false,Rx,0,8,0F,C4,00,00,0F,84,15,83,
321297,00000523,false,Rx,0,8,0C,38,39,39,30,2C,00,00,
321544,00000524,false,Rx,0,8,74,01,00,00,00,00,00,00,
321716,00000450,false,Rx,0,3,00,26,04,00,00,00,00,00,
321970,00000462,false,Rx,0,8,E0,2E,A4,16,00,00,00,00,
322217,00000471,false,Rx,0,6,04,00,10,00,00,20,00,00,
324902,00000109,false,Rx,0,8,00,01,FA,00,00,00,00,0A,
325149,00000200,false,Rx,0,8,00,80,49,04,00,3B,3C,00,
325398,00000201,false,Rx,0,8,11,00,00,00,00,00,00,11,
325645,00000202,false,Rx,0,8,02,00,20,00,00,00,00,22,
326428,00000354,false,Rx,0,8,AA,0A,55,05,00,01,00,F3,
327437,000002B0,false,Rx,0,5,18,00,00,00,00,00,00,00,
328748,00000220,false,Rx,0,7,10,E4,81,00,00,AC,0F,00,
329003,0000010C,false,Rx,0,8,04,00,55,54,15,80,01,17,
329509,00000153,false,Rx,0,8,20,00,10,F2,00,F2,50,64,
329916,000002A2,false,Rx,0,8,05,00,00,00,00,00,00,00,
330316,00000331,false,Rx,0,8,00,00,00,00,00,00,00,00,
330566,00000291,false,Rx,0,8,00,00,00,00,FE,FA,FA,00,
330813,00000386,false,Rx,0,8,00,00,00,C0,00,40,00,80,
331296,00000523,false,Rx,0,8,0C,38,39,39,30,2C,00,00,
331699,00000524,false,Rx,0,8,74,01,00,00,00,00,00,00,
334939,00000109,false,Rx,0,8,00,01,FA,00,00,00,00,1B,
335349,00000200,false,Rx,0,8,00,80,49,04,00,7B,3C,00,
335671,00000201,false,Rx,0,8,51,00,00,00,00,00,00,51,
336183,00000202,false,Rx,0,8,22,00,20,00,00,00,00,02,
336432,000005F5,false,Rx,0,8,00,1E,00,14,05,C9,58,9E,
336678,00000354,false,Rx,0,8,AA,0A,55,05,00,01,00,E4,
336932,000005F6,false,Rx,0,8,00,00,00,00,00,00,1E,00,
337104,000002B0,false,Rx,0,5,18,00,00,00,00,00,00,00,
337353,000005F7,false,Rx,0,8,00,1E,00,00,00,58,00,00,
337600,000005F8,false,Rx,0,8,7E,00,E9,0F,CC,7A,5D,82,
337855,000005F9,false,Rx,0,8,76,6D,FF,FF,00,00,00,B9,
338707,0000010C,false,Rx,0,8,04,00,55,54,15,80,01,28,
338962,00000153,false,Rx,0,8,20,00,10,F2,00,F2,60,74,
339209,00000220,false,Rx,0,7,10,A4,81,00,00,AE,0F,00,
339458,000002A2,false,Rx,0,8,04,00,00,00,00,00,00,00,
339942,00000331,false,Rx,0,8,00,00,00,00,00,00,00,00,
340342,00000387,false,Rx,0,8,C1,10,C3,69,00,04,07,00,
340745,00000394,false,Rx,0,8,0D,E4,00,00,0D,84,17,83,
341228,00000291,false,Rx,0,8,00,00,00,00,FE,FA,FA,00,
341479,00000523,false,Rx,0,8,0C,38,39,39,30,2C,00,00,
341726,00000524,false,Rx,0,8,74,01,00,00,00,00,00,00,
341822,00000450,false,Rx,0,3,00,26,04,00,00,00,00,00,
342383,00000462,false,Rx,0,8,E0,2E,A4,16,00,00,00,00,
342555,00000471,false,Rx,0,6,04,00,10,00,00,24,00,00,
343114,00000541,false,Rx,0,8,03,00,40,80,C0,00,00,0C,
343362,0000055C,false,Rx,0,8,8D,C0,90,9E,FE,1D,01,00,
343609,0000055F,false,Rx,0,8,00,00,00,00,00,00,00,00,
343937,00000561,false,Rx,0,8,00,00,00,00,00,00,00,00,
344185,00000567,false,Rx,0,8,40,10,29,18,01,00,00,00,
344359,00000578,false,Rx,0,6,10,00,00,00,00,00,00,00,
344606,00000588,false,Rx,0,8,A4,49,A4,49,00,00,00,00,
344861,00000109,false,Rx,0,8,00,01,FA,00,00,00,00,2C,
345337,00000200,false,Rx,0,8,00,80,49,04,00,BB,3C,00,
345584,00000201,false,Rx,0,8,91,00,00,00,00,00,00,91,
346021,00000202,false,Rx,0,8,42,00,20,00,00,00,00,62,
346344,000005EC,false,Rx,0,8,00,00,00,00,00,00,00,00,
346515,00000354,false,Rx,0,8,AA,0A,55,05,00,01,00,D5,
347451,000002B0,false,Rx,0,5,18,00,00,00,00,00,00,00,
348233,00000490,false,Rx,0,7,00,00,08,00,00,00,00,00,
348707,0000010C,false,Rx,0,8,04,00,55,54,15,80,01,39,
348962,00000153,false,Rx,0,8,20,00,10,F2,00,F2,70,84,
349133,00000220,false,Rx,0,7,0D,84,81,00,00,AA,0F,00,
349383,000002A2,false,Rx,0,8,05,00,00,00,00,00,00,00,
349630,00000291,false,Rx,0,8,00,00,00,00,FE,FA,FA,00,
349883,00000331,false,Rx,0,8,00,00,00,00,00,00,00,00,
350130,00000386,false,Rx,0,8,00,40,00,C0,00,40,00,80,
350381,00000523,false,Rx,0,8,0C,38,39,39,30,2C,00,00,
350628,00000524,false,Rx,0,8,74,01,00,00,00,00,00,00,
354977,00000109,false,Rx,0,8,00,01,FA,00,00,00,00,3D,
355094,00000200,false,Rx,0,8,00,80,49,04,00,FB,3C,00,
355341,00000201,false,Rx,0,8,D1,00,00,00,00,00,00,D1,
355597,00000202,false,Rx,0,8,62,00,20,00,00,00,00,42,
356233,000004EE,false,Rx,0,8,00,00,00,00,00,00,00,06,
356483,00000354,false,Rx,0,8,AA,0A,55,05,00,01,00,C6,
356731,0000057F,false,Rx,0,8,80,0A,68,00,00,00,00,00,
356910,000002B0,false,Rx,0,5,1A,00,00,00,00,00,00,00,
357388,00000581,false,Rx,0,8,00,00,00,00,00,00,00,00,
357635,0000058E,false,Rx,0,8,00,01,00,EF,28,20,00,C0,
358721,0000010C,false,Rx,0,8,04,00,55,54,15,80,01,06,
358976,00000153,false,Rx,0,8,20,00,10,F2,00,F2,80,94,
359223,00000220,false,Rx,0,7,0E,A4,81,00,00,AB,0F,00,
359473,000002A2,false,Rx,0,8,04,00,00,00,00,00,00,00,
359719,00000291,false,Rx,0,8,00,00,00,00,FE,FA,FA,00,
359974,00000331,false,Rx,0,8,00,00,00,00,00,00,00,00,
360146,00000387,false,Rx,0,8,C1,10,C3,69,00,05,08,00,
360393,00000394,false,Rx,0,8,0D,04,00,00,0D,84,15,83,
360640,00000523,false,Rx,0,8,0C,38,39,39,30,2C,00,00,
361049,00000524,false,Rx,0,8,74,01,00,00,00,00,00,00,
361599,00000450,false,Rx,0,3,00,26,04,00,00,00,00,00,
361929,00000462,false,Rx,0,8,E0,2E,A4,16,00,00,00,00,
362101,00000471,false,Rx,0,6,04,00,10,00,00,28,00,00,
364860,00000109,false,Rx,0,8,00,01,FA,00,00,00,00,0A,
365107,00000200,false,Rx,0,8,00,80,49,04,00,3B,3C,00,
365354,00000201,false,Rx,0,8,11,00,00,00,00,00,00,11,
365601,00000202,false,Rx,0,8,02,00,20,00,00,00,00,22,
366386,00000354,false,Rx,0,8,AA,0A,55,05,00,01,00,B7,
367395,000002B0,false,Rx,0,5,1A,00,00,00,00,00,00,00,
368782,00000220,false,Rx,0,7,10,E4,81,00,00,AF,0F,00,
369037,0000010C,false,Rx,0,8,04,00,55,54,15,80,01,17,
369209,00000153,false,Rx,0,8,20,00,10,F2,00,F2,90,A4,
369458,000002A2,false,Rx,0,8,05,00,00,00,00,00,00,00,
369705,00000291,false,Rx,0,8,00,00,00,00,FE,FA,FA,00,
369960,00000331,false,Rx,0,8,00,00,00,00,00,00,00,00,
370207,00000386,false,Rx,0,8,00,80,00,C0,00,40,00,80,
370456,00000491,false,Rx,0,8,17,00,00,00,00,00,00,00,
370702,00000493,false,Rx,0,8,00,0E,FC,11,00,00,3B,01,
371417,000004E2,false,Rx,0,8,B4,00,CD,00,00,00,00,00,
371665,00000523,false,Rx,0,8,0C,38,39,39,30,2B,00,00,
371919,00000542,false,Rx,0,8,A4,3B,01,00,00,00,FF,FF,
372166,00000524,false,Rx,0,8,74,01,00,00,00,00,00,00,
372415,00000594,false,Rx,0,8,BE,1D,48,26,C4,9D,01,00,
373956,00000595,false,Rx,0,8,04,00,C1,C2,08,00,8D,0E,
373982,00000596,false,Rx,0,8,00,92,00,00,17,00,02,03,
373998,00000597,false,Rx,0,8,05,50,00,00,00,00,00,00,
374014,00000598,false,Rx,0,8,00,00,00,00,FF,52,02,02,
374030,00000599,false,Rx,0,8,08,00,00,00,00,00,00,00,
374052,0000059C,false,Rx,0,8,00,00,00,00,00,00,00,00,
374068,0000059E,false,Rx,0,8,00,00,00,00,8D,0E,00,00,
374325,000005A3,false,Rx,0,8,4F,00,00,00,00,00,00,00,
374573,000005D5,false,Rx,0,8,00,00,00,00,00,00,00,00,
374820,000005D6,false,Rx,0,8,C1,C2,08,00,02,03,00,62,
375075,00000109,false,Rx,0,8,00,01,FA,00,00,00,00,1B,
375321,00000200,false,Rx,0,8,00,80,49,04,00,7B,3C,00,
375571,00000201,false,Rx,0,8,51,00,00,00,00,00,00,51,
375818,00000202,false,Rx,0,8,22,00,20,00,00,00,00,02,
376073,000005D7,false,Rx,0,8,02,00,00,00,00,00,00,00,
376320,000005D8,false,Rx,0,8,40,A4,04,00,50,00,8D,0E,
376568,00000354,false,Rx,0,8,AA,0A,55,05,00,01,00,A8,
376815,000002B0,false,Rx,0,5,18,00,00,00,00,00,00,00,
378739,0000010C,false,Rx,0,8,04,00,55,54,15,80,01,28,
378993,00000153,false,Rx,0,8,20,00,10,F2,00,F2,A0,B4,
379165,00000220,false,Rx,0,7,0E,E4,81,00,00,AD,0F,00,
379415,000002A2,false,Rx,0,8,04,00,00,00,00,00,00,00,
379661,00000291,false,Rx,0,8,00,00,00,00,FE,FA,FA,00,
380220,00000331,false,Rx,0,8,00,00,00,00,00,00,00,00,
380469,00000387,false,Rx,0,8,C1,10,C3,69,00,06,09,00,
380716,00000394,false,Rx,0,8,0F,24,00,00,0F,84,1F,83,
380895,00000523,false,Rx,0,8,0C,38,39,39,2F,2C,00,00,
381142,00000524,false,Rx,0,8,74,01,00,00,00,00,00,00,
381466,00000450,false,Rx,0,3,00,26,04,00,00,00,00,00,
382025,00000462,false,Rx,0,8,E0,2E,A4,16,00,00,00,00,
382197,00000471,false,Rx,0,6,04,00,10,00,00,6C,00,00,
382599,00000549,false,Rx,0,8,20,80,44,5E,22,15,59,77,
382854,00000579,false,Rx,0,8,A4,49,A4,49,44,00,00,FE,
383719,0000057A,false,Rx,0,8,8D,C0,90,9E,FE,1D,01,80,
383973,0000057B,false,Rx,0,8,E3,01,00,00,00,50,64,A0,
384481,00000584,false,Rx,0,8,01,00,00,29,12,00,45,41,
384653,00000590,false,Rx,0,8,07,00,13,00,95,00,1E,78,
384908,00000592,false,Rx,0,8,50,EF,05,00,00,00,05,44,
385155,00000109,false,Rx,0,8,00,01,FA,00,00,00,00,2C,
385405,00000200,false,Rx,0,8,00,80,49,04,00,BB,3C,00,
385652,00000201,false,Rx,0,8,91,00,00,00,00,00,00,91,
385906,00000202,false,Rx,0,8,42,00,20,00,00,00,00,62,
386455,00000354,false,Rx,0,8,AA,0A,55,05,00,01,00,99,
387388,000002B0,false,Rx,0,5,18,00,00,00,00,00,00,00,
388774,00000220,false,Rx,0,7,0E,C4,81,00,00,AB,0F,00,
389029,0000010C,false,Rx,0,8,04,00,55,54,15,80,01,39,
389276,00000153,false,Rx,0,8,20,00,10,F2,00,F2,B0,C4,
389451,000002A2,false,Rx,0,8,05,00,00,00,00,00,00,00,
389698,00000291,false,Rx,0,8,00,00,00,00,FE,FA,FA,00,
389953,00000331,false,Rx,0,8,00,00,00,00,00,00,00,00,
390200,00000386,false,Rx,0,8,00,C0,00,C0,00,40,00,80,
390451,00000523,false,Rx,0,8,0C,38,39,39,30,2C,00,00,
390698,00000524,false,Rx,0,8,74,01,00,00,00,00,00,00,
394974,00000109,false,Rx,0,8,00,01,FA,00,00,00,00,3D,
395193,00000200,false,Rx,0,8,00,80,49,04,00,FB,3C,00,
395377,00000201,false,Rx,0,8,D1,00,00,00,00,00,00,D1,
395625,00000202,false,Rx,0,8,62,00,20,00,00,00,00,42,
396408,00000354,false,Rx,0,8,AA,0A,55,05,00,01,00,8A,
396889,000005E5,false,Rx,0,8,00,00,00,00,00,00,00,00,
397061,000002B0,false,Rx,0,5,19,00,00,00,00,00,00,00,
397308,000005E6,false,Rx,0,8,00,F0,00,00,00,00,00,00,
397556,000005E8,false,Rx,0,8,00,00,00,00,00,00,00,00,
397803,000005E9,false,Rx,0,8,00,00,00,00,00,00,00,00,
398209,00000490,false,Rx,0,7,00,00,08,00,00,00,00,00,
398759,0000010C,false,Rx,0,8,04,00,55,54,15,80,01,06,
398939,00000153,false,Rx,0,8,20,00,10,F2,00,F2,C0,D4,
399185,00000220,false,Rx,0,7,10,A4,81,00,00,AC,0F,00,
399662,000002A2,false,Rx,0,8,04,00,00,00,00,00,00,00,
399917,00000291,false,Rx,0,8,00,00,00,00,FE,FA,FA,00,
400164,00000331,false,Rx,0,8,00,00,00,00,00,00,00,00,
400411,00000387,false,Rx,0,8,C1,10,C3,69,00,07,0A,00,
400658,00000394,false,Rx,0,8,0D,44,00,00,0D,84,11,83,
401674,00000523,false,Rx,0,8,0C,38,39,39,30,2C,00,00,
401927,00000524,false,Rx,0,8,74,01,00,00,00,00,00,00,
402024,00000450,false,Rx,0,3,00,26,04,00,00,00,00,00,
402271,000002A1,false,Rx,0,8,00,00,00,00,00,00,00,00,
402517,00000462,false,Rx,0,8,E0,2E,A4,16,00,00,00,00,
402764,00000471,false,Rx,0,6,04,00,00,00,00,70,00,00,
404921,00000109,false,Rx,0,8,00,01,FA,00,00,00,00,0A,
405093,00000200,false,Rx,0,8,00,80,49,04,00,3B,3C,00,
405340,00000201,false,Rx,0,8,11,00,00,00,00,00,00,11,
405588,00000202,false,Rx,0,8,02,00,20,00,00,00,00,22,
406295,00000570,false,Rx,0,8,00,00,4A,00,00,00,00,00,
406544,00000354,false,Rx,0,8,AA,0A,55,05,00,01,00,7B,
407403,000002B0,false,Rx,0,5,1A,00,00,00,00,00,00,00,
408787,00000220,false,Rx,0,7,10,A4,81,00,00,B0,0F,00,
409096,0000010C,false,Rx,0,8,04,00,55,54,15,80,01,17,
409248,00000153,false,Rx,0,8,20,00,10,F2,00,F2,D0,E4,
409510,000002A2,false,Rx,0,8,05,00,00,00,00,00,00,00,
409918,00000331,false,Rx,0,8,00,00,00,00,00,00,00,00,
410318,00000386,false,Rx,0,8,00,00,00,00,00,40,00,80,
410646,00000507,false,Rx,0,4,00,00,00,01,00,00,00,00,
410900,00000291,false,Rx,0,8,00,00,00,00,FE,FA,FA,00,
411198,00000523,false,Rx,0,8,0C,38,39,39,30,2C,00,00,
411449,00000524,false,Rx,0,8,74,01,00,00,00,00,00,00,
414936,00000109,false,Rx,0,8,00,01,FA,00,00,00,00,1B,
415112,00000200,false,Rx,0,8,00,80,49,04,00,7B,3C,00,
415362,00000201,false,Rx,0,8,51,00,00,00,00,00,00,51,
415609,00000202,false,Rx,0,8,22,00,20,00,00,00,00,02,
416390,00000354,false,Rx,0,8,AA,0A,55,05,00,01,00,6C,
416872,000002B0,false,Rx,0,5,18,00,00,00,00,00,00,00,
418712,0000010C,false,Rx,0,8,04,00,55,54,15,80,01,28,
418967,00000153,false,Rx,0,8,20,00,10,F2,00,F2,E0,F4,
419214,00000220,false,Rx,0,7,0D,C4,81,00,00,AF,0F,00,
419464,000002A2,false,Rx,0,8,04,00,00,00,00,00,00,00,
419711,00000331,false,Rx,0,8,00,00,00,00,00,00,00,00,
420120,00000387,false,Rx,0,8,C1,10,C3,69,00,08,0B,00,
420522,00000394,false,Rx,0,8,0E,64,00,00,0E,84,1D,83,
420769,00000291,false,Rx,0,8,00,00,00,00,FE,FA,FA,00,
421177,00000523,false,Rx,0,8,0C,38,39,39,30,2C,00,00,
421579,00000524,false,Rx,0,8,74,01,00,00,00,00,00,00,
421751,00000450,false,Rx,0,3,00,26,04,00,00,00,00,00,
422006,00000462,false,Rx,0,8,E0,2E,A4,16,00,00,00,00,
422178,00000471,false,Rx,0,6,04,00,10,00,00,74,00,00,
424865,00000109,false,Rx,0,8,00,01,FA,00,00,00,00,2C,
425112,00000200,false,Rx,0,8,00,80,49,04,00,BB,3C,00,
425362,00000201,false,Rx,0,8,91,00,00,00,00,00,00,91,
425609,00000202,false,Rx,0,8,42,00,20,00,00,00,00,62,
426393,00000354,false,Rx,0,8,AA,0A,55,05,00,01,00,5D,
427325,000002B0,false,Rx,0,5,18,00,00,00,00,00,00,00,
428712,0000010C,false,Rx,0,8,04,00,55,54,15,80,01,39,
428892,00000153,false,Rx,0,8,20,00,10,F2,00,F2,00,14,
429138,00000220,false,Rx,0,7,0D,C4,81,00,00,AA,0F,00,
429388,000002A2,false,Rx,0,8,05,00,00,00,00,00,00,00,
429635,00000331,false,Rx,0,8,00,00,00,00,00,00,00,00,
430043,00000386,false,Rx,0,8,00,40,00,00,00,40,00,80,
434086,00000291,false,Rx,0,8,00,00,00,00,FE,FA,FA,00,
434111,00000523,false,Rx,0,8,0C,38,39,39,30,2B,00,00,
434127,00000524,false,Rx,0,8,74,01,00,00,00,00,00,00,
435022,00000109,false,Rx,0,8,00,01,FA,00,00,00,00,3D,
435201,00000200,false,Rx,0,8,00,80,49,04,00,FB,3C,00,
435397,00000201,false,Rx,0,8,D1,00,00,00,00,00,00,D1,
435881,00000202,false,Rx,0,8,62,00,20,00,00,00,00,42,
436128,0000050D,false,Rx,0,8,00,00,00,00,00,00,00,00,
436377,000005F5,false,Rx,0,8,00,1E,00,14,06,C9,58,9D,
436549,00000354,false,Rx,0,8,AA,0A,55,05,00,01,00,4E,
436797,000005F6,false,Rx,0,8,00,00,00,00,00,00,1E,00,
437051,000002B0,false,Rx,0,5,1A,00,00,00,00,00,00,00,
437297,000005F7,false,Rx,0,8,00,1E,00,00,00,58,00,00,
437469,000005F8,false,Rx,0,8,7E,00,E9,0F,CC,7A,5D,82,
437716,000005F9,false,Rx,0,8,76,6D,FF,FF,00,00,00,B9,
438724,0000010C,false,Rx,0,8,04,00,55,54,15,80,01,06,
438979,00000153,false,Rx,0,8,20,00,10,F2,00,F2,10,24,
439226,00000220,false,Rx,0,7,0E,A4,81,00,00,AA,0F,00,
439475,000002A2,false,Rx,0,8,04,00,00,00,00,00,00,00,
439722,00000331,false,Rx,0,8,00,00,00,00,00,00,00,00,
439902,00000291,false,Rx,0,8,00,00,00,00,FE,FA,FA,00,
440149,00000387,false,Rx,0,8,C1,10,C3,69,00,09,0C,00,
440397,00000394,false,Rx,0,8,0D,84,00,00,0D,84,1D,83,
440644,00000523,false,Rx,0,8,0C,38,39,39,30,2C,00,00,
440898,00000524,false,Rx,0,8,74,01,00,00,00,00,00,00,
441674,00000414,false,Rx,0,8,00,00,00,00,00,00,00,00,
441854,00000450,false,Rx,0,3,00,26,04,00,00,00,00,00,
442100,00000462,false,Rx,0,8,E0,2E,A4,16,00,00,00,00,
442423,00000471,false,Rx,0,6,04,00,10,00,00,78,00,00,
442670,000004FE,false,Rx,0,8,FF,FF,7F,FF,FF,00,FF,FF,
442924,00000541,false,Rx,0,8,03,00,40,80,C0,00,00,0C,
443171,00000553,false,Rx,0,8,04,00,00,02,00,00,80,00,
443420,0000055C,false,Rx,0,8,8D,C0,90,9E,FE,1D,01,00,
443743,0000055F,false,Rx,0,8,00,00,00,00,00,00,00,00,
443998,00000561,false,Rx,0,8,00,00,00,00,00,00,00,00,
444245,00000567,false,Rx,0,8,40,10,29,18,01,00,00,00,
444496,00000578,false,Rx,0,6,10,00,00,00,00,00,00,00,
444742,00000588,false,Rx,0,8,A4,49,A4,49,00,00,00,00,
444921,00000109,false,Rx,0,8,00,01,FA,00,00,00,00,0A,
445398,00000200,false,Rx,0,8,00,80,49,04,00,3B,3C,00,
445798,00000201,false,Rx,0,8,11,00,00,00,00,00,00,11,
445978,00000202,false,Rx,0,8,02,00,20,00,00,00,00,22,
446226,000005B3,false,Rx,0,8,40,14,FE,00,00,00,00,00,
446475,00000354,false,Rx,0,8,AA,0A,55,05,00,01,00,3F,
446721,000005DF,false,Rx,0,8,05,1C,01,00,00,00,00,00,
446976,000005EC,false,Rx,0,8,00,00,00,00,00,00,00,00,
447453,000002B0,false,Rx,0,5,18,00,00,00,00,00,00,00,
448235,00000490,false,Rx,0,7,00,00,08,00,00,00,00,00,
449023,0000010C,false,Rx,0,8,04,00,55,54,15,80,01,17,
449270,00000153,false,Rx,0,8,20,00,10,F2,00,F2,20,34,
449517,00000220,false,Rx,0,7,0F,C4,81,00,00,A9,0F,00,
449926,00000291,false,Rx,0,8,00,00,00,00,FE,FA,FA,00,
450173,000002A2,false,Rx,0,8,05,00,00,00,00,00,00,00,
450423,00000331,false,Rx,0,8,00,00,00,00,00,00,00,00,
450670,00000386,false,Rx,0,8,00,80,00,00,00,40,00,80,
450925,00000523,false,Rx,0,8,0C,38,39,39,30,2C,00,00,
451172,00000524,false,Rx,0,8,74,01,00,00,00,00,00,00,
454963,00000109,false,Rx,0,8,00,01,FA,00,00,00,00,1B,
455144,00000200,false,Rx,0,8,00,80,49,04,00,7B,3C,00,
455392,00000201,false,Rx,0,8,51,00,00,00,00,00,00,51,
455639,00000202,false,Rx,0,8,22,00,20,00,00,00,00,02,
456123,000004EE,false,Rx,0,8,00,00,00,00,00,00,00,06,
456373,0000057F,false,Rx,0,8,80,0A,68,00,00,00,00,00,
456619,00000354,false,Rx,0,8,AA,0A,55,05,00,01,00,20,
457028,000002B0,false,Rx,0,5,18,00,00,00,00,00,00,00,
457275,00000581,false,Rx,0,8,00,00,00,00,00,00,00,00,
457524,0000058E,false,Rx,0,8,00,01,00,EF,28,20,00,C0,
458759,0000010C,false,Rx,0,8,04,00,55,54,15,80,01,28,
458939,00000153,false,Rx,0,8,20,00,10,F2,00,F2,30,44,
459186,00000220,false,Rx,0,7,0F,04,82,00,00,A8,0F,00,
459434,000002A2,false,Rx,0,8,04,00,00,00,00,00,00,00,
459680,00000331,false,Rx,0,8,00,00,00,00,00,00,00,00,
459935,00000291,false,Rx,0,8,00,00,00,00,FE,FA,FA,00,
460182,00000387,false,Rx,0,8,C1,10,C3,69,00,0A,0D,00,
460660,00000394,false,Rx,0,8,10,A4,00,00,10,84,13,83,
461143,00000523,false,Rx,0,8,0C,38,39,39,30,2C,00,00,
461392,00000524,false,Rx,0,8,74,01,00,00,00,00,00,00,
461564,00000450,false,Rx,0,3,00,26,04,00,00,00,00,00,
461893,00000462,false,Rx,0,8,E0,2E,A4,16,00,00,00,00,
462065,00000471,false,Rx,0,6,04,00,10,00,00,BC,00,00,
464900,00000109,false,Rx,0,8,00,01,FA,00,00,00,00,2C,
465147,00000200,false,Rx,0,8,00,80,49,04,00,BB,3C,00,
465395,00000201,false,Rx,0,8,91,00,00,00,00,00,00,91,
465641,00000202,false,Rx,0,8,42,00,20,00,00,00,00,62,
466427,00000354,false,Rx,0,8,AA,0A,55,05,00,01,00,11,
467362,000002B0,false,Rx,0,5,1A,00,00,00,00,00,00,00,
468823,0000010C,false,Rx,0,8,04,00,55,54,15,80,01,39,
469307,00000153,false,Rx,0,8,20,00,10,F2,00,F2,40,54,
469480,00000220,false,Rx,0,7,10,24,82,00,00,A8,0F,00,
469727,00000291,false,Rx,0,8,00,00,00,00,FE,FA,FA,00,
469982,000002A2,false,Rx,0,8,05,00,00,00,00,00,00,00,
470229,00000331,false,Rx,0,8,00,00,00,00,00,00,00,00,
470479,00000386,false,Rx,0,8,00,C0,00,00,00,40,00,80,
470726,00000491,false,Rx,0,8,17,00,00,00,00,00,00,00,
471059,00000493,false,Rx,0,8,00,0E,FC,11,00,00,3B,01,
471306,000004E2,false,Rx,0,8,B4,00,CD,00,00,00,00,00,
472336,00000523,false,Rx,0,8,0C,38,39,39,30,2B,00,00,
472584,00000524,false,Rx,0,8,74,01,00,00,00,00,00,00,
474132,00000542,false,Rx,0,8,A4,3B,01,00,00,00,FF,FF,
474154,00000594,false,Rx,0,8,BE,1D,48,26,C4,9D,01,00,
474173,00000595,false,Rx,0,8,04,00,C1,C2,07,00,8D,0E,
474196,00000596,false,Rx,0,8,00,92,00,00,17,00,02,03,
474213,00000597,false,Rx,0,8,85,50,00,00,00,00,00,00,
474230,00000598,false,Rx,0,8,00,00,00,00,FF,52,02,02,
474248,00000599,false,Rx,0,8,08,00,00,00,00,00,00,00,
474508,0000059C,false,Rx,0,8,00,00,00,00,00,00,00,00,
474757,0000059E,false,Rx,0,8,00,00,00,00,8D,0E,00,00,
475233,00000109,false,Rx,0,8,00,01,FA,00,00,00,00,3D,
475427,00000200,false,Rx,0,8,00,80,49,04,00,FB,3C,00,
475633,00000201,false,Rx,0,8,D1,00,00,00,00,00,00,D1,
475890,00000202,false,Rx,0,8,62,00,20,00,00,00,00,42,
476062,000005A3,false,Rx,0,8,4F,00,00,00,00,00,00,00,
476309,000005D5,false,Rx,0,8,00,00,00,00,00,00,00,00,
476559,00000354,false,Rx,0,8,AA,0A,55,05,00,01,00,02,
476806,000005D6,false,Rx,0,8,C1,C2,07,00,02,03,00,62,
476986,000002B0,false,Rx,0,5,18,00,00,00,00,00,00,00,
477233,000005D7,false,Rx,0,8,02,00,00,00,00,00,00,00,
477484,000005D8,false,Rx,0,8,40,A4,04,00,50,00,8D,0E,
478718,0000010C,false,Rx,0,8,04,00,55,54,15,80,01,06,
478973,00000153,false,Rx,0,8,20,00,10,F2,00,F2,50,64,
479220,00000220,false,Rx,0,7,0F,24,82,00,00,A9,0F,00,
479492,000002A2,false,Rx,0,8,04,00,00,00,00,00,00,00,
479675,00000331,false,Rx,0,8,00,00,00,00,00,00,00,00,
479931,00000291,false,Rx,0,8,00,00,00,00,FE,FA,FA,00,
480178,00000387,false,Rx,0,8,C1,10,C3,69,00,0B,0E,00,
480580,00000394,false,Rx,0,8,11,C4,00,00,11,84,1F,83,
480827,00000523,false,Rx,0,8,0C,38,39,39,30,2C,00,00,
481160,00000524,false,Rx,0,8,74,01,00,00,00,00,00,00,
481486,00000450,false,Rx,0,3,00,26,04,00,00,00,00,00,
481733,00000462,false,Rx,0,8,E0,2E,A4,16,00,00,00,00,
481988,00000471,false,Rx,0,6,04,00,10,00,00,00,00,00,
482542,00000549,false,Rx,0,8,20,80,44,5E,22,15,59,77,
482789,00000579,false,Rx,0,8,A4,49,A4,49,44,00,00,FE,
483044,0000057A,false,Rx,0,8,8D,C0,90,9E,FE,1D,01,80,
483291,0000057B,false,Rx,0,8,E3,01,00,00,00,50,64,A0,
483466,00000590,false,Rx,0,8,07,00,12,00,95,00,1D,78,
483713,00000592,false,Rx,0,8,50,EF,05,00,00,00,05,84,
483968,00000584,false,Rx,0,8,01,00,00,29,12,10,45,31,
484901,00000109,false,Rx,0,8,00,01,FA,00,00,00,00,0A,
485148,00000200,false,Rx,0,8,00,80,49,04,00,3B,3C,00,
485395,00000201,false,Rx,0,8,11,00,00,00,00,00,00,11,
485642,00000202,false,Rx,0,8,02,00,20,00,00,00,00,22,
486427,00000354,false,Rx,0,8,AA,0A,55,05,00,01,00,F3,
487362,000002B0,false,Rx,0,5,19,00,00,00,00,00,00,00,
488823,00000220,false,Rx,0,7,0E,04,82,00,00,AB,0F,00,
489003,0000010C,false,Rx,0,8,04,00,55,54,15,80,01,17,
489250,00000153,false,Rx,0,8,20,00,10,F2,00,F2,60,74,
489498,000002A2,false,Rx,0,8,05,00,00,00,00,00,00,00,
489744,00000291,false,Rx,0,8,00,00,00,00,FE,FA,FA,00,
489998,00000331,false,Rx,0,8,00,00,00,00,00,00,00,00,
490245,00000386,false,Rx,0,8,00,00,00,40,00,40,00,80,
490496,00000523,false,Rx,0,8,0C,38,39,39,30,2C,00,00,
490907,00000524,false,Rx,0,8,74,01,00,00,00,00,00,00,
494913,00000109,false,Rx,0,8,00,01,FA,00,00,00,00,1B,
495091,00000200,false,Rx,0,8,00,80,49,04,00,7B,3C,00,
495338,00000201,false,Rx,0,8,51,00,00,00,00,00,00,51,
495588,00000202,false,Rx,0,8,22,00,20,00,00,00,00,02,
496372,00000354,false,Rx,0,8,AA,0A,55,05,00,01,00,E4,
496853,000005E5,false,Rx,0,8,00,00,00,00,00,00,00,00,
497025,000002B0,false,Rx,0,5,1A,00,00,00,00,00,00,00,
497272,000005E6,false,Rx,0,8,00,F0,00,00,00,00,00,00,
497522,000005E8,false,Rx,0,8,00,00,00,00,00,00,00,00,
497770,000005E9,false,Rx,0,8,01,00,00,00,00,00,00,00,
498251,00000490,false,Rx,0,7,00,00,08,00,00,00,00,00,
498724,0000010C,false,Rx,0,8,04,00,55,54,15,80,01,28,
498978,00000153,false,Rx,0,8,20,00,10,F2,00,F2,70,84,
499150,00000220,false,Rx,0,7,10,E4,81,00,00,AC,0F,00,
499400,000002A2,false,Rx,0,8,04,00,00,00,00,00,00,00,
499647,00000331,false,Rx,0,8,00,00,00,00,00,00,00,00,
500283,00000291,false,Rx,0,8,00,00,00,00,FE,FA,FA,00,
500533,00000387,false,Rx,0,8,C1,10,C3,69,00,FD,00,00,
500780,00000394,false,Rx,0,8,0F,E4,00,00,0F,84,13,83,
500960,00000523,false,Rx,0,8,0C,38,39,39,30,2C,00,00,
501207,00000524,false,Rx,0,8,74,01,00,00,00,00,00,00,
501759,00000450,false,Rx,0,3,00,26,04,00,00,00,00,00,
502013,00000462,false,Rx,0,8,E0,2E,A4,16,00,00,00,00,
502260,000002A1,false,Rx,0,8,00,00,00,00,00,00,00,00,
502512,00000471,false,Rx,0,6,04,00,00,00,00,04,00,00,
502834,00000540,false,Rx,0,8,37,31,10,00,F5,00,00,00,
504834,00000109,false,Rx,0,8,00,01,FA,00,00,00,00,2C,
505089,00000200,false,Rx,0,8,00,80,49,04,00,BB,3C,00,
505337,00000201,false,Rx,0,8,91,00,00,00,00,00,00,91,
505584,00000202,false,Rx,0,8,42,00,20,00,00,00,00,62,
506291,00000570,false,Rx,0,8,00,00,4A,00,00,00,00,00,
506542,00000354,false,Rx,0,8,AA,0A,55,05,00,01,00,D5,
507400,000002B0,false,Rx,0,5,18,00,00,00,00,00,00,00,
508712,0000010C,false,Rx,0,8,04,00,55,54,15,80,01,39,
508891,00000153,false,Rx,0,8,20,00,10,F2,00,F2,80,94,
509138,00000220,false,Rx,0,7,0F,C4,81,00,00,AB,0F,00,
509388,000002A2,false,Rx,0,8,05,00,00,00,00,00,00,00,
509635,00000331,false,Rx,0,8,00,00,00,00,00,00,00,00,
509890,00000291,false,Rx,0,8,00,00,00,00,FE,FA,FA,00,
510137,00000386,false,Rx,0,8,00,40,00,40,00,40,00,80,
510309,00000507,false,Rx,0,4,00,00,00,01,00,00,00,00,
510562,00000523,false,Rx,0,8,0C,38,39,39,30,2C,00,00,
510969,00000524,false,Rx,0,8,74,01,00,00,00,00,00,00,
514933,00000109,false,Rx,0,8,00,01,FA,00,00,00,00,3D,
515111,00000200,false,Rx,0,8,00,80,49,04,00,FB,3C,00,
515361,00000201,false,Rx,0,8,D1,00,00,00,00,00,00,D1,
515608,00000202,false,Rx,0,8,62,00,20,00,00,00,00,42,
516390,00000354,false,Rx,0,8,AA,0A,55,05,00,01,00,C6,
517021,000002B0,false,Rx,0,5,19,00,00,00,00,00,00,00,
518780,0000010C,false,Rx,0,8,04,00,55,54,15,80,01,06,
518969,00000153,false,Rx,0,8,20,00,10,F2,00,F2,90,A4,
519228,00000220,false,Rx,0,7,0D,04,82,00,00,AA,0F,00,
519426,000002A2,false,Rx,0,8,04,00,00,00,00,00,00,00,
519674,00000331,false,Rx,0,8,00,00,00,00,00,00,00,00,
519970,00000291,false,Rx,0,8,00,00,00,00,FE,FA,FA,00,
520259,00000387,false,Rx,0,8,C1,10,C3,69,00,FE,01,00,
520467,00000394,false,Rx,0,8,10,04,00,00,10,84,1D,83,
520920,00000523,false,Rx,0,8,0C,38,39,39,30,2C,00,00,
521243,00000524,false,Rx,0,8,74,01,00,00,00,00,00,00,
521567,00000450,false,Rx,0,3,00,26,04,00,00,00,00,00,
521814,00000462,false,Rx,0,8,E0,2E,A4,16,00,00,00,00,
522068,00000471,false,Rx,0,6,04,00,10,00,00,08,00,00,
524906,00000109,false,Rx,0,8,00,01,FA,00,00,00,00,0A,
525078,00000200,false,Rx,0,8,00,80,49,04,00,3B,3C,00,
525325,00000201,false,Rx,0,8,11,00,00,00,00,00,00,11,
525573,00000202,false,Rx,0,8,02,00,20,00,00,00,00,22,
526433,00000354,false,Rx,0,8,AA,0A,55,05,00,01,00,B7,
527368,000002B0,false,Rx,0,5,1A,00,00,00,00,00,00,00,
528829,00000220,false,Rx,0,7,0D,E4,81,00,00,AB,0F,00,
529009,0000010C,false,Rx,0,8,04,00,55,54,15,80,01,17,
529256,00000153,false,Rx,0,8,20,00,10,F2,00,F2,A0,B4,
529507,000002A2,false,Rx,0,8,05,00,00,00,00,00,00,00,
529754,00000331,false,Rx,0,8,00,00,00,00,00,00,00,00,
530009,00000291,false,Rx,0,8,00,00,00,00,FE,FA,FA,00,
530255,00000386,false,Rx,0,8,00,80,00,40,00,40,00,80,
530504,00000523,false,Rx,0,8,0C,38,39,39,30,2B,00,00,
530751,00000524,false,Rx,0,8,74,01,00,00,00,00,00,00,
534924,00000109,false,Rx,0,8,00,01,FA,00,00,00,00,1B,
535106,00000200,false,Rx,0,8,00,80,49,04,00,7B,3C,00,
535353,00000201,false,Rx,0,8,51,00,00,00,00,00,00,51,
535600,00000202,false,Rx,0,8,22,00,20,00,00,00,00,02,
535855,000005F5,false,Rx,0,8,00,1E,00,14,07,C9,58,9C,
536102,000005F6,false,Rx,0,8,00,00,00,00,00,00,1E,00,
536351,000005F7,false,Rx,0,8,00,1E,00,00,00,58,00,00,
536597,00000354,false,Rx,0,8,AA,0A,55,05,00,01,00,A8,
536853,000005F8,false,Rx,0,8,7E,00,E9,0F,CC,7A,5D,82,
537025,000002B0,false,Rx,0,5,18,00,00,00,00,00,00,00,
537271,000005F9,false,Rx,0,8,76,6D,FF,FF,00,00,00,B9,
538733,0000010C,false,Rx,0,8,04,00,55,54,15,80,01,28,
538988,00000153,false,Rx,0,8,20,00,10,F2,00,F2,B0,C4,
539159,00000220,false,Rx,0,7,0F,E4,81,00,00,AB,0F,00,
539408,000002A2,false,Rx,0,8,04,00,00,00,00,00,00,00,
539655,00000331,false,Rx,0,8,00,00,00,00,00,00,00,00,
539911,00000291,false,Rx,0,8,00,00,00,00,FE,FA,FA,00,
540158,00000387,false,Rx,0,8,C1,10,C3,69,00,FF,02,00,
540408,00000394,false,Rx,0,8,0F,24,00,00,0F,84,1F,83,
540655,00000523,false,Rx,0,8,0C,38,39,39,30,2C,00,00,
540910,00000524,false,Rx,0,8,74,01,00,00,00,00,00,00,
541536,00000450,false,Rx,0,3,00,26,04,00,00,00,00,00,
541867,00000462,false,Rx,0,8,E0,2E,A4,16,00,00,00,00,
542114,00000471,false,Rx,0,6,04,00,10,00,00,4C,00,00,
542362,00000541,false,Rx,0,8,03,00,40,80,C0,00,00,0C,
542609,0000055C,false,Rx,0,8,8D,C0,90,9E,FE,1D,01,00,
542864,0000055F,false,Rx,0,8,00,00,00,00,00,00,00,00,
543111,00000561,false,Rx,0,8,00,00,00,00,00,00,00,00,
543360,00000567,false,Rx,0,8,40,10,29,19,01,00,00,00,
543607,00000578,false,Rx,0,6,10,00,00,00,00,00,00,00,
543862,00000588,false,Rx,0,8,A4,49,A4,49,00,00,00,00,
544184,000005EC,false,Rx,0,8,00,00,00,00,00,00,00,00,
544893,00000109,false,Rx,0,8,00,01,FA,00,00,00,00,2C,
545140,00000200,false,Rx,0,8,00,80,49,04,00,BB,3C,00,
545388,00000201,false,Rx,0,8,91,00,00,00,00,00,00,91,
545635,00000202,false,Rx,0,8,42,00,20,00,00,00,00,62,
546420,00000354,false,Rx,0,8,AA,0A,55,05,00,01,00,99,
547353,000002B0,false,Rx,0,5,18,00,00,00,00,00,00,00,
548285,00000490,false,Rx,0,7,00,00,08,00,00,00,00,00,
548759,0000010C,false,Rx,0,8,04,00,55,54,15,80,01,39,
549015,00000153,false,Rx,0,8,20,00,10,F2,00,F2,C0,D4,
549262,00000220,false,Rx,0,7,10,24,82,00,00,AB,0F,00,
549508,000002A2,false,Rx,0,8,05,00,00,00,00,00,00,00,
549756,00000331,false,Rx,0,8,00,00,00,00,00,00,00,00,
550011,00000291,false,Rx,0,8,00,00,00,00,FE,FA,FA,00,
550258,00000386,false,Rx,0,8,00,C0,00,40,00,40,00,80,
550507,00000523,false,Rx,0,8,0C,38,39,39,30,2C,00,00,
550754,00000524,false,Rx,0,8,74,01,00,00,00,00,00,00,
554891,00000109,false,Rx,0,8,00,01,FA,00,00,00,00,3D,
555088,00000200,false,Rx,0,8,00,80,49,04,00,FB,3C,00,
555343,00000201,false,Rx,0,8,D1,00,00,00,00,00,00,D1,
555673,00000202,false,Rx,0,8,62,00,20,00,00,00,00,42,
556481,00000354,false,Rx,0,8,AA,0A,55,05,00,01,00,8A,
556963,000002B0,false,Rx,0,5,19,00,00,00,00,00,00,00,
557210,000004EE,false,Rx,0,8,00,00,00,00,00,00,00,06,
557458,0000057F,false,Rx,0,8,80,0A,68,00,00,00,00,00,
557706,00000581,false,Rx,0,8,00,00,00,00,00,00,00,00,
557961,0000058E,false,Rx,0,8,00,01,00,EF,28,20,00,C0,
558734,0000010C,false,Rx,0,8,04,00,55,54,15,80,01,06,
558989,00000153,false,Rx,0,8,20,00,10,F2,00,F2,D0,E4,
559161,00000220,false,Rx,0,7,10,04,82,00,00,AB,0F,00,
559411,000002A2,false,Rx,0,8,04,00,00,00,00,00,00,00,
559658,00000331,false,Rx,0,8,00,00,00,00,00,00,00,00,
560295,00000291,false,Rx,0,8,00,00,00,00,FE,FA,FA,00,
560544,00000387,false,Rx,0,8,C1,10,C3,69,00,00,03,00,
560715,00000394,false,Rx,0,8,10,44,00,00,10,84,19,83,
560970,00000523,false,Rx,0,8,0C,38,39,39,30,2C,00,00,
561217,00000524,false,Rx,0,8,74,01,00,00,00,00,00,00,
561617,00000450,false,Rx,0,3,00,26,04,00,00,00,00,00,
561872,00000462,false,Rx,0,8,E0,2E,A4,16,00,00,00,00,
562044,00000471,false,Rx,0,6,04,00,10,00,00,10,00,00,
564880,00000109,false,Rx,0,8,00,01,FA,00,00,00,00,0A,
565127,00000200,false,Rx,0,8,00,80,49,04,00,3B,3C,00,
565375,00000201,false,Rx,0,8,11,00,00,00,00,00,00,11,
565622,00000202,false,Rx,0,8,02,00,20,00,00,00,00,22,
566405,00000354,false,Rx,0,8,AA,0A,55,05,00,01,00,7B,
567490,000002B0,false,Rx,0,5,1A,00,00,00,00,00,00,00,
568799,00000220,false,Rx,0,7,10,04,82,00,00,AB,0F,00,
569054,0000010C,false,Rx,0,8,04,00,55,54,15,80,01,17,
569301,00000153,false,Rx,0,8,20,00,10,F2,00,F2,E0,F4,
569551,000002A2,false,Rx,0,8,05,00,00,00,00,00,00,00,
569797,00000331,false,Rx,0,8,00,00,00,00,00,00,00,00,
569976,00000291,false,Rx,0,8,00,00,00,00,FE,FA,FA,00,
570223,00000386,false,Rx,0,8,00,00,00,80,00,40,00,80,
570473,00000491,false,Rx,0,8,17,00,00,00,00,00,00,00,
570882,00000493,false,Rx,0,8,00,0E,FC,11,00,00,3B,01,
571128,000004E2,false,Rx,0,8,B4,00,CD,00,00,00,00,00,
571377,00000523,false,Rx,0,8,0C,38,39,39,30,2C,00,00,
571625,00000524,false,Rx,0,8,74,01,00,00,00,00,00,00,
571880,00000542,false,Rx,0,8,A4,3B,01,00,00,00,FF,FF,
572051,00000594,false,Rx,0,8,BE,1D,48,26,C4,9D,01,00,
572299,00000595,false,Rx,0,8,04,00,C1,C2,07,00,8D,0E,
572548,00000596,false,Rx,0,8,00,91,00,00,17,00,02,03,
574338,00000597,false,Rx,0,8,05,50,00,00,00,00,00,00,
574361,00000598,false,Rx,0,8,00,00,00,00,FF,52,03,02,
574379,00000599,false,Rx,0,8,08,00,00,00,00,00,00,00,
574396,0000059C,false,Rx,0,8,00,00,00,00,00,00,00,00,
574523,0000059E,false,Rx,0,8,00,00,00,00,8D,0E,00,00,
574771,000005A3,false,Rx,0,8,4F,00,00,00,00,00,00,00,
575026,00000109,false,Rx,0,8,00,01,FA,00,00,00,00,1B,
575273,00000200,false,Rx,0,8,00,80,49,04,00,7B,3C,00,
575522,00000201,false,Rx,0,8,51,00,00,00,00,00,00,51,
575769,00000202,false,Rx,0,8,22,00,20,00,00,00,00,02,
576024,000005D5,false,Rx,0,8,00,00,00,00,00,00,00,00,
576196,000005D6,false,Rx,0,8,C1,C2,07,00,02,03,00,B4,
576449,00000354,false,Rx,0,8,AA,0A,55,05,00,01,00,6C,
576771,000005D7,false,Rx,0,8,02,00,00,00,00,00,00,00,
576951,000002B0,false,Rx,0,5,18,00,00,00,00,00,00,00,
577198,000005D8,false,Rx,0,8,40,A4,04,00,50,00,8D,0E,
578734,0000010C,false,Rx,0,8,04,00,55,54,15,80,01,28,
578989,00000153,false,Rx,0,8,20,00,10,F2,00,F2,00,14,
579161,00000220,false,Rx,0,7,0F,04,82,00,00,A8,0F,00,
579411,000002A2,false,Rx,0,8,04,00,00,00,00,00,00,00,
579658,00000331,false,Rx,0,8,00,00,00,00,00,00,00,00,
580066,00000291,false,Rx,0,8,00,00,00,00,FE,FA,FA,00,
580313,00000387,false,Rx,0,8,C1,10,C3,69,00,01,04,00,
580561,00000394,false,Rx,0,8,10,64,00,00,10,84,17,83,
580808,00000523,false,Rx,0,8,0C,38,39,39,30,2C,00,00,
581063,00000524,false,Rx,0,8,74,01,00,00,00,00,00,00,
581463,00000450,false,Rx,0,3,00,26,04,00,00,00,00,00,
581710,00000462,false,Rx,0,8,E0,2E,A4,16,00,00,00,00,
581965,00000471,false,Rx,0,6,04,00,10,00,00,14,00,00,
582440,00000579,false,Rx,0,8,A4,49,A4,49,44,00,00,FE,
582687,00000549,false,Rx,0,8,20,80,44,5E,22,15,59,77,
582867,0000057A,false,Rx,0,8,8D,C0,90,9E,FE,1D,01,80,
583114,0000057B,false,Rx,0,8,E3,01,00,00,00,50,64,A0,
583361,00000590,false,Rx,0,8,07,00,12,00,94,00,1D,78,
583609,00000592,false,Rx,0,8,50,EF,05,00,00,00,05,C4,
583864,00000584,false,Rx,0,8,01,00,00,29,12,20,36,41,
584875,00000109,false,Rx,0,8,00,01,FA,00,00,00,00,2C,
585122,00000200,false,Rx,0,8,00,80,49,04,00,BB,3C,00,
585371,00000201,false,Rx,0,8,91,00,00,00,00,00,00,91,
586083,00000202,false,Rx,0,8,42,00,20,00,00,00,00,62,
586408,00000354,false,Rx,0,8,AA,0A,55,05,00,01,00,5D,
587417,000002B0,false,Rx,0,5,18,00,00,00,00,00,00,00,
588653,0000010C,false,Rx,0,8,04,00,55,54,15,80,01,39,
588907,00000153,false,Rx,0,8,20,00,10,F2,00,F2,10,24,
589154,00000220,false,Rx,0,7,0F,E4,81,00,00,A8,0F,00,
589403,000002A2,false,Rx,0,8,05,00,00,00,00,00,00,00,
589650,00000331,false,Rx,0,8,00,00,00,00,00,00,00,00,
590059,00000291,false,Rx,0,8,00,00,00,00,FE,FA,FA,00,
590308,00000386,false,Rx,0,8,00,40,00,80,00,40,00,80,
590559,00000523,false,Rx,0,8,0C,38,39,39,30,2C,00,00,
590891,00000524,false,Rx,0,8,74,01,00,00,00,00,00,00,
594943,00000109,false,Rx,0,8,00,01,FA,00,00,00,00,3D,
595118,00000200,false,Rx,0,8,00,80,49,04,00,FB,3C,00,
595418,00000201,false,Rx,0,8,D1,00,00,00,00,00,00,D1,
595822,00000202,false,Rx,0,8,62,00,20,00,00,00,00,42,
596378,00000354,false,Rx,0,8,AA,0A,55,05,00,01,00,4E,
596859,000005E5,false,Rx,0,8,00,00,00,00,00,00,00,00,
597031,000002B0,false,Rx,0,5,1A,00,00,00,00,00,00,00,
597277,000005E6,false,Rx,0,8,00,F0,00,00,00,00,00,00,
597526,000005E8,false,Rx,0,8,00,00,00,00,00,00,00,00,
597773,000005E9,false,Rx,0,8,00,00,00,00,00,00,00,00,
598329,00000490,false,Rx,0,7,00,00,08,00,00,00,00,00,
598730,0000010C,false,Rx,0,8,04,00,55,54,15,80,01,06,
598985,00000153,false,Rx,0,8,20,00,10,F2,00,F2,20,34,
599156,00000220,false,Rx,0,7,0E,A4,81,00,00,AB,0F,00,
599405,000002A2,false,Rx,0,8,04,00,00,00,00,00,00,00,
599653,00000331,false,Rx,0,8,00,00,00,00,00,00,00,00,
600290,00000387,false,Rx,0,8,C1,10,C3,69,00,02,05,00,
600691,00000394,false,Rx,0,8,0D,84,00,00,0D,84,1D,83,
601100,00000291,false,Rx,0,8,00,00,00,00,FE,FA,FA,00,
601787,00000450,false,Rx,0,3,00,26,04,00,00,00,00,00,
602195,00000462,false,Rx,0,8,E0,2E,A4,16,00,00,00,00,
602442,000002A1,false,Rx,0,8,00,00,00,00,00,00,00,00,
602614,00000471,false,Rx,0,6,04,00,00,00,00,18,00,00,
602869,00000523,false,Rx,0,8,0C,38,39,39,30,2B,00,00,
603269,00000524,false,Rx,0,8,74,01,00,00,00,00,00,00,
604888,00000109,false,Rx,0,8,00,01,FA,00,00,00,00,0A,
605135,00000200,false,Rx,0,8,00,80,49,04,00,3B,3C,00,
605386,00000201,false,Rx,0,8,11,00,00,00,00,00,00,11,
605870,00000202,false,Rx,0,8,02,00,20,00,00,00,00,22,
606343,00000570,false,Rx,0,8,00,00,4A,00,00,00,00,00,
606591,00000354,false,Rx,0,8,AA,0A,55,05,00,01,00,3F,
607375,000002B0,false,Rx,0,5,18,00,00,00,00,00,00,00,
608838,0000010C,false,Rx,0,8,04,00,55,54,15,80,01,17,
609017,00000153,false,Rx,0,8,20,00,10,F2,00,F2,30,44,
609264,00000220,false,Rx,0,7,0D,64,81,00,00,AB,0F,00,
609513,000002A2,false,Rx,0,8,05,00,00,00,00,00,00,00,
609760,00000331,false,Rx,0,8,00,00,00,00,00,00,00,00,
610015,00000291,false,Rx,0,8,00,00,00,00,FE,FA,FA,00,
610261,00000386,false,Rx,0,8,00,80,00,80,00,40,00,80,
610433,00000507,false,Rx,0,4,00,00,00,01,00,00,00,00,
610680,00000523,false,Rx,0,8,0C,38,39,39,30,2C,00,00,
610933,00000524,false,Rx,0,8,74,01,00,00,00,00,00,00,
614945,00000109,false,Rx,0,8,00,01,FA,00,00,00,00,1B,
615127,00000200,false,Rx,0,8,00,80,49,04,00,7B,3C,00,
615904,00000201,false,Rx,0,8,51,00,00,00,00,00,00,51,
616088,00000202,false,Rx,0,8,22,00,20,00,00,00,00,02,
616411,00000354,false,Rx,0,8,AA,0A,55,05,00,01,00,20,
616902,000002B0,false,Rx,0,5,18,00,00,00,00,00,00,00,
618702,0000010C,false,Rx,0,8,04,00,55,54,15,80,01,28,
618958,00000153,false,Rx,0,8,20,00,10,F2,00,F2,40,54,
619206,00000220,false,Rx,0,7,0D,44,81,00,00,A9,0F,00,
619456,000002A2,false,Rx,0,8,04,00,00,00,00,00,00,00,
619703,00000331,false,Rx,0,8,00,00,00,00,00,00,00,00,
619958,00000291,false,Rx,0,8,00,00,00,00,FE,FA,FA,00,
620130,00000387,false,Rx,0,8,C1,10,C3,69,00,03,06,00,
620608,00000394,false,Rx,0,8,0A,A4,00,00,0A,84,11,83,
621092,00000523,false,Rx,0,8,0C,38,39,39,30,2C,00,00,
621421,00000524,false,Rx,0,8,74,01,00,00,00,00,00,00,
621593,00000450,false,Rx,0,3,00,26,04,00,00,00,00,00,
621839,00000462,false,Rx,0,8,E0,2E,A4,16,00,00,00,00,
622094,00000471,false,Rx,0,6,04,00,10,00,00,5C,00,00,
624853,00000109,false,Rx,0,8,00,01,FA,00,00,00,00,2C,
625100,00000200,false,Rx,0,8,00,80,49,04,00,BB,3C,00,
625577,00000201,false,Rx,0,8,91,00,00,00,00,00,00,91,
625825,00000202,false,Rx,0,8,42,00,20,00,00,00,00,62,
626458,00000354,false,Rx,0,8,AA,0A,55,05,00,01,00,11,
627314,000002B0,false,Rx,0,5,1A,00,00,00,00,00,00,00,
628776,0000010C,false,Rx,0,8,04,00,55,54,15,80,01,39,
629031,00000153,false,Rx,0,8,20,00,10,F2,00,F2,50,64,
629278,00000220,false,Rx,0,7,0E,64,81,00,00,A7,0F,00,
629453,000002A2,false,Rx,0,8,05,00,00,00,00,00,00,00,
629699,00000331,false,Rx,0,8,00,00,00,00,00,00,00,00,
630258,00000386,false,Rx,0,8,00,C0,00,80,00,40,00,80,
630509,00000291,false,Rx,0,8,00,00,00,00,FE,FA,FA,00,
630917,00000523,false,Rx,0,8,0C,38,39,39,30,2C,00,00,
631318,00000524,false,Rx,0,8,74,01,00,00,00,00,00,00,
634987,00000109,false,Rx,0,8,00,01,FA,00,00,00,00,3D,
635328,00000200,false,Rx,0,8,00,80,49,04,00,FB,3C,00,
635553,00000201,false,Rx,0,8,D1,00,00,00,00,00,00,D1,
635801,00000202,false,Rx,0,8,62,00,20,00,00,00,00,42,
636057,0000050D,false,Rx,0,8,00,00,00,00,00,00,00,00,
636304,000005F5,false,Rx,0,8,00,1E,00,14,08,C9,58,93,
636479,00000354,false,Rx,0,8,AA,0A,55,05,00,01,00,02,
636801,000005F6,false,Rx,0,8,00,00,00,00,00,00,1E,00,
636981,000002B0,false,Rx,0,5,18,00,00,00,00,00,00,00,
637228,000005F7,false,Rx,0,8,00,1E,00,00,00,58,00,00,
637403,000005F8,false,Rx,0,8,7E,00,E9,0F,CD,7A,5D,82,
637650,000005F9,false,Rx,0,8,76,6D,FF,FF,00,00,00,B9,
638735,0000010C,false,Rx,0,8,04,00,55,54,15,80,01,06,
638990,00000153,false,Rx,0,8,20,00,10,F2,00,F2,60,74,
639161,00000220,false,Rx,0,7,0E,A4,81,00,00,A7,0F,00,
639410,000002A2,false,Rx,0,8,04,00,00,00,00,00,00,00,
639657,00000331,false,Rx,0,8,00,00,00,00,00,00,00,00,
640065,00000387,false,Rx,0,8,C1,10,C3,69,00,04,07,00,
640469,00000394,false,Rx,0,8,0D,C4,00,00,0D,84,19,83,
640716,00000291,false,Rx,0,8,00,00,00,00,FE,FA,FA,00,
640970,00000523,false,Rx,0,8,0C,38,39,39,30,2C,00,00,
641373,00000524,false,Rx,0,8,74,01,00,00,00,00,00,00,
641770,00000414,false,Rx,0,8,00,00,00,00,00,00,00,00,
641874,00000450,false,Rx,0,3,00,26,04,00,00,00,00,00,
642121,00000462,false,Rx,0,8,E0,2E,A4,16,00,00,00,00,
642371,00000471,false,Rx,0,6,04,00,10,00,00,20,00,00,
642693,000004FE,false,Rx,0,8,FF,FF,7F,FF,FF,00,FF,FF,
642948,00000541,false,Rx,0,8,03,00,40,80,C0,00,00,0C,
643195,00000553,false,Rx,0,8,04,00,00,02,00,00,80,00,
643443,0000055C,false,Rx,0,8,8D,C0,90,9E,FE,1D,01,00,
643689,0000055F,false,Rx,0,8,00,00,00,00,00,00,00,00,
643944,00000561,false,Rx,0,8,00,00,00,00,00,00,00,00,
644191,00000567,false,Rx,0,8,40,10,29,19,01,00,00,00,
644440,00000578,false,Rx,0,6,10,00,00,00,00,00,00,00,
644687,00000588,false,Rx,0,8,A4,49,A4,49,00,00,00,00,
644942,00000109,false,Rx,0,8,00,01,FA,00,00,00,00,0A,
646877,00000200,false,Rx,0,8,00,80,49,04,00,3B,3C,00,
647125,00000201,false,Rx,0,8,11,00,00,00,00,00,00,11,
647373,00000202,false,Rx,0,8,02,00,20,00,00,00,00,22,
647545,00000354,false,Rx,0,8,AA,0A,55,05,00,01,00,F3,
647792,000005B3,false,Rx,0,8,40,14,FE,00,00,00,00,00,
648047,000002B0,false,Rx,0,5,18,00,00,00,00,00,00,00,
648293,000005D0,false,Rx,0,8,BA,D3,12,00,00,00,00,00,
648544,00000490,false,Rx,0,7,00,00,08,00,00,00,00,00,
648791,000005D3,false,Rx,0,8,0F,00,00,00,00,00,00,00,
649045,0000010C,false,Rx,0,8,04,00,55,54,15,80,01,17,
649292,00000153,false,Rx,0,8,20,00,10,F2,00,F2,70,84,
649466,00000220,false,Rx,0,7,0E,04,82,00,00,A8,0F,00,
649979,00000291,false,Rx,0,8,00,00,00,00,FE,FA,FA,00,
650225,000002A2,false,Rx,0,8,05,00,00,00,00,00,00,00,
650475,00000331,false,Rx,0,8,00,00,00,00,00,00,00,00,
650722,00000386,false,Rx,0,8,00,00,00,C0,00,40,00,80,
650978,00000523,false,Rx,0,8,0C,38,39,39,30,2C,00,00,
651225,000005D4,false,Rx,0,8,0F,00,00,00,00,00,00,00,
651475,00000524,false,Rx,0,8,74,01,00,00,00,00,00,00,
651722,000005DF,false,Rx,0,8,05,1C,01,00,00,00,00,00,
651978,000005EC,false,Rx,0,8,00,00,00,00,00,00,00,00,
654967,00000109,false,Rx,0,8,00,01,FA,00,00,00,00,1B,
655381,00000200,false,Rx,0,8,00,80,49,04,00,7B,3C,00,
655628,00000201,false,Rx,0,8,51,00,00,00,00,00,00,51,
655883,00000202,false,Rx,0,8,22,00,20,00,00,00,00,02,
656130,000004EE,false,Rx,0,8,00,00,00,00,00,00,00,06,
656378,0000057F,false,Rx,0,8,80,0A,68,00,00,00,00,00,
656625,00000354,false,Rx,0,8,AA,0A,55,05,00,01,00,E4,
656880,00000581,false,Rx,0,8,00,00,00,00,00,00,00,00,
657051,000002B0,false,Rx,0,5,1A,00,00,00,00,00,00,00,
657298,0000058E,false,Rx,0,8,00,01,00,EF,28,20,00,C0,
658762,0000010C,false,Rx,0,8,04,00,55,54,15,80,01,28,
658942,00000153,false,Rx,0,8,20,00,10,F2,00,F2,80,94,
659188,00000220,false,Rx,0,7,0E,04,82,00,00,AA,0F,00,
659437,000002A2,false,Rx,0,8,04,00,00,00,00,00,00,00,
659684,00000331,false,Rx,0,8,00,00,00,00,00,00,00,00,
659939,00000291,false,Rx,0,8,00,00,00,00,FE,FA,FA,00,
660186,00000387,false,Rx,0,8,C1,10,C3,69,00,05,08,00,
660433,00000394,false,Rx,0,8,10,E4,00,00,10,84,1F,83,
660604,00000523,false,Rx,0,8,0C,38,39,39,30,2C,00,00,
661162,00000524,false,Rx,0,8,74,01,00,00,00,00,00,00,
661636,00000450,false,Rx,0,3,00,26,04,00,00,00,00,00,
661891,00000462,false,Rx,0,8,E0,2E,A4,16,00,00,00,00,
662062,00000471,false,Rx,0,6,04,00,10,00,00,24,00,00,
664901,00000109,false,Rx,0,8,00,01,FA,00,00,00,00,2C,
665300,00000200,false,Rx,0,8,00,80,49,04,00,BB,3C,00,
665550,00000201,false,Rx,0,8,91,00,00,00,00,00,00,91,
665881,00000202,false,Rx,0,8,42,00,20,00,00,00,00,62,
666431,00000354,false,Rx,0,8,AA,0A,55,05,00,01,00,D5,
667366,000002B0,false,Rx,0,5,18,00,00,00,00,00,00,00,
668677,0000010C,false,Rx,0,8,04,00,55,54,15,80,01,39,
668932,00000153,false,Rx,0,8,20,00,10,F2,00,F2,90,A4,
669104,00000220,false,Rx,0,7,0E,E4,81,00,00,AD,0F,00,
669353,000002A2,false,Rx,0,8,05,00,00,00,00,00,00,00,
669600,00000331,false,Rx,0,8,00,00,00,00,00,00,00,00,
669855,00000386,false,Rx,0,8,00,40,00,C0,00,40,00,80,
670102,00000291,false,Rx,0,8,00,00,00,00,FE,FA,FA,00,
670655,00000491,false,Rx,0,8,17,00,00,00,00,00,00,00,
670910,00000493,false,Rx,0,8,00,0E,FC,11,00,00,3B,01,
671082,000004E2,false,Rx,0,8,B4,00,CD,00,00,00,00,00,
671329,00000523,false,Rx,0,8,0C,38,39,39,30,2C,00,00,
671579,00000542,false,Rx,0,8,A4,3B,01,00,00,00,FF,FF,
671826,00000524,false,Rx,0,8,74,01,00,00,00,00,00,00,
672081,00000594,false,Rx,0,8,BE,1D,48,26,C4,9D,01,00,
672328,00000595,false,Rx,0,8,04,00,C1,C2,07,00,8D,0E,
672577,00000596,false,Rx,0,8,00,91,00,00,17,00,02,03,
672823,00000597,false,Rx,0,8,85,50,00,00,00,00,00,00,
673004,00000598,false,Rx,0,8,00,00,00,00,FF,52,03,02,
674489,00000599,false,Rx,0,8,08,00,00,00,00,00,00,00,
674519,0000059C,false,Rx,0,8,00,00,00,00,00,00,00,00,
674536,0000059E,false,Rx,0,8,00,00,00,00,8D,0E,00,00,
674553,000005A3,false,Rx,0,8,4F,00,00,00,00,00,00,00,
674570,000005D5,false,Rx,0,8,00,00,00,00,00,00,00,00,
674758,000005D6,false,Rx,0,8,C1,C2,07,00,02,03,00,B4,
675013,00000109,false,Rx,0,8,00,01,FA,00,00,00,00,3D,
675298,00000200,false,Rx,0,8,00,80,49,04,00,FB,3C,00,
675578,00000201,false,Rx,0,8,D1,00,00,00,00,00,00,D1,
675773,00000202,false,Rx,0,8,62,00,20,00,00,00,00,42,
675981,000005D7,false,Rx,0,8,02,00,00,00,00,00,00,00,
676230,000005D8,false,Rx,0,8,40,A4,04,00,50,00,8D,0E,
676479,00000354,false,Rx,0,8,AA,0A,55,05,00,01,00,C6,
676960,000002B0,false,Rx,0,5,18,00,00,00,00,00,00,00,
678724,0000010C,false,Rx,0,8,04,00,55,54,15,80,01,06,
678978,00000153,false,Rx,0,8,20,00,10,F2,00,F2,A0,B4,
679150,00000220,false,Rx,0,7,0E,E4,81,00,00,AE,0F,00,
679400,000002A2,false,Rx,0,8,04,00,00,00,00,00,00,00,
679958,00000291,false,Rx,0,8,00,00,00,00,FE,FA,FA,00,
680206,00000331,false,Rx,0,8,00,00,00,00,00,00,00,00,
680380,00000387,false,Rx,0,8,C1,10,C3,69,00,06,09,00,
680626,00000394,false,Rx,0,8,0F,04,00,00,0F,84,11,83,
680879,00000523,false,Rx,0,8,0C,38,39,39,30,2C,00,00,
681126,00000524,false,Rx,0,8,74,01,00,00,00,00,00,00,
681601,00000450,false,Rx,0,3,00,26,04,00,00,00,00,00,
681855,00000462,false,Rx,0,8,E0,2E,A4,16,00,00,00,00,
682102,00000471,false,Rx,0,6,04,00,10,00,00,28,00,00,
682427,00000579,false,Rx,0,8,A4,49,A4,49,44,00,00,FE,
682674,00000549,false,Rx,0,8,20,80,44,5E,22,15,59,77,
682927,0000057A,false,Rx,0,8,8D,C0,90,9E,FE,1D,01,80,
683098,0000057B,false,Rx,0,8,E3,01,00,00,00,50,64,A0,
683345,00000590,false,Rx,0,8,07,00,13,00,94,00,1E,78,
683610,00000592,false,Rx,0,8,50,EF,05,00,00,00,05,04,
683866,00000584,false,Rx,0,8,01,00,00,29,12,30,41,46,
684877,00000109,false,Rx,0,8,00,01,FA,00,00,00,00,0A,
686619,00000354,false,Rx,0,8,AA,0A,55,05,00,01,00,B7,
686791,00000200,false,Rx,0,8,00,80,49,04,00,3B,3C,00,
687121,00000201,false,Rx,0,8,11,00,00,00,00,00,00,11,
687370,00000202,false,Rx,0,8,02,00,20,00,00,00,00,22,
687542,000002B0,false,Rx,0,5,1A,00,00,00,00,00,00,00,
688780,0000010C,false,Rx,0,8,04,00,55,54,15,80,01,17,
689034,00000153,false,Rx,0,8,20,00,10,F2,00,F2,B0,C4,
689281,00000220,false,Rx,0,7,0F,E4,81,00,00,AB,0F,00,
689531,000002A2,false,Rx,0,8,05,00,00,00,00,00,00,00,
689778,00000331,false,Rx,0,8,00,00,00,00,00,00,00,00,
690184,00000386,false,Rx,0,8,00,80,00,C0,00,40,00,80,
690584,00000291,false,Rx,0,8,00,00,00,00,FE,FA,FA,00,
690831,00000523,false,Rx,0,8,0C,38,39,39,30,2C,00,00,
691086,00000524,false,Rx,0,8,74,01,00,00,00,00,00,00,
695207,00000109,false,Rx,0,8,00,01,FA,00,00,00,00,1B,
695388,00000200,false,Rx,0,8,00,80,49,04,00,7B,3C,00,
695654,00000201,false,Rx,0,8,51,00,00,00,00,00,00,51,
695910,00000202,false,Rx,0,8,22,00,20,00,00,00,00,02,
696409,00000354,false,Rx,0,8,AA,0A,55,05,00,01,00,A8,
696889,000005E5,false,Rx,0,8,00,00,00,00,00,00,00,00,
697061,000002B0,false,Rx,0,5,18,00,00,00,00,00,00,00,
697308,000005E6,false,Rx,0,8,00,F0,00,00,00,00,00,00,
697556,000005E8,false,Rx,0,8,00,00,00,00,00,00,00,00,
697803,000005E9,false,Rx,0,8,01,00,00,00,00,00,00,00,
698362,00000490,false,Rx,0,7,00,00,08,00,00,00,00,00,
698684,0000010C,false,Rx,0,8,04,00,55,54,15,80,01,28,
698938,00000153,false,Rx,0,8,20,00,10,F2,00,F2,C0,D4,
699185,00000220,false,Rx,0,7,0F,C4,81,00,00,AC,0F,00,
699433,000002A2,false,Rx,0,8,04,00,00,00,00,00,00,00,
699680,00000331,false,Rx,0,8,00,00,00,00,00,00,00,00,
699935,00000387,false,Rx,0,8,C1,10,C3,69,00,07,0A,00,
700334,00000394,false,Rx,0,8,0E,24,00,00,0E,84,11,83,
700584,00000291,false,Rx,0,8,00,00,00,00,FE,FA,FA,00,
700831,00000523,false,Rx,0,8,0C,38,39,39,30,2C,00,00,
701239,00000524,false,Rx,0,8,74,01,00,00,00,00,00,00,
701637,00000450,false,Rx,0,3,00,26,04,00,00,00,00,00,
701892,00000462,false,Rx,0,8,E0,2E,A4,16,00,00,00,00,
702067,00000471,false,Rx,0,6,04,00,00,00,00,6C,00,00,
702393,000002A1,false,Rx,0,8,00,00,00,00,00,00,00,00,
702640,00000540,false,Rx,0,8,1D,31,12,00,95,00,00,00,
705174,00000109,false,Rx,0,8,00,01,FA,00,00,00,00,2C,
705421,00000200,false,Rx,0,8,00,80,49,04,00,BB,3C,00,
705668,00000201,false,Rx,0,8,91,00,00,00,00,00,00,91,
705923,00000202,false,Rx,0,8,42,00,20,00,00,00,00,62,
706321,00000570,false,Rx,0,8,00,00,4A,00,00,00,00,00,
706571,00000354,false,Rx,0,8,AA,0A,55,05,00,01,00,99,
707428,000002B0,false,Rx,0,5,1A,00,00,00,00,00,00,00,
708814,0000010C,false,Rx,0,8,04,00,55,54,15,80,01,39,
708994,00000153,false,Rx,0,8,20,00,10,F2,00,F2,D0,E4,
709241,00000220,false,Rx,0,7,0F,C4,81,00,00,AD,0F,00,
709490,000002A2,false,Rx,0,8,05,00,00,00,00,00,00,00,
709737,00000331,false,Rx,0,8,00,00,00,00,00,00,00,00,
710145,00000386,false,Rx,0,8,00,C0,00,C0,00,40,00,80,
710317,00000507,false,Rx,0,4,00,00,00,01,00,00,00,00,
714609,00000291,false,Rx,0,8,00,00,00,00,FE,FA,FA,00,
714636,00000523,false,Rx,0,8,0C,38,39,39,30,2C,00,00,
714653,00000524,false,Rx,0,8,74,01,00,00,00,00,00,00,
714859,00000109,false,Rx,0,8,00,01,FA,00,00,00,00,3D,
715106,00000200,false,Rx,0,8,00,80,49,04,00,FB,3C,00,
715404,00000201,false,Rx,0,8,D1,00,00,00,00,00,00,D1,
715709,00000202,false,Rx,0,8,62,00,20,00,00,00,00,42,
716427,00000354,false,Rx,0,8,AA,0A,55,05,00,01,00,8A,
716910,000002B0,false,Rx,0,5,18,00,00,00,00,00,00,00,
718712,0000010C,false,Rx,0,8,04,00,55,54,15,80,01,06,
718980,00000153,false,Rx,0,8,20,00,10,F2,00,F2,E0,F4,
719152,00000220,false,Rx,0,7,0F,A4,81,00,00,AC,0F,00,
719400,000002A2,false,Rx,0,8,04,00,00,00,00,00,00,00,
719647,00000331,false,Rx,0,8,00,00,00,00,00,00,00,00,
719902,00000387,false,Rx,0,8,C1,10,C3,69,00,08,0B,00,
720302,00000291,false,Rx,0,8,00,00,00,00,FE,FA,FA,00,
720550,00000394,false,Rx,0,8,0D,44,00,00,0D,84,11,83,
720798,00000523,false,Rx,0,8,0C,38,39,39,30,2C,00,00,
721053,00000524,false,Rx,0,8,74,01,00,00,00,00,00,00,
721528,00000450,false,Rx,0,3,00,26,04,00,00,00,00,00,
721775,00000462,false,Rx,0,8,E0,2E,A4,16,00,00,00,00,
722030,00000471,false,Rx,0,6,04,00,10,00,00,70,00,00,
725018,00000109,false,Rx,0,8,00,01,FA,00,00,00,00,0A,
726381,00000200,false,Rx,0,8,00,80,49,04,00,3B,3C,00,
726627,00000354,false,Rx,0,8,AA,0A,55,05,00,01,00,7B,
726882,00000201,false,Rx,0,8,11,00,00,00,00,00,00,11,
727130,00000202,false,Rx,0,8,02,00,20,00,00,00,00,22,
727380,000002B0,false,Rx,0,5,1A,00,00,00,00,00,00,00,
728851,0000010C,false,Rx,0,8,04,00,55,54,15,80,01,17,
729023,00000153,false,Rx,0,8,20,00,10,F2,00,F2,00,14,
729270,00000220,false,Rx,0,7,0E,C4,81,00,00,AD,0F,00,
729518,000002A2,false,Rx,0,8,05,00,00,00,00,00,00,00,
729765,00000331,false,Rx,0,8,00,00,00,00,00,00,00,00,
730020,00000291,false,Rx,0,8,00,00,00,00,FE,FA,FA,00,
730266,00000386,false,Rx,0,8,00,00,00,00,00,40,00,80,
730669,00000523,false,Rx,0,8,0C,38,39,39,30,2C,00,00,
731002,00000524,false,Rx,0,8,74,01,00,00,00,00,00,00,
734915,00000109,false,Rx,0,8,00,01,FA,00,00,00,00,1B,
735090,000005F5,false,Rx,0,8,00,1E,00,14,09,C9,58,92,
735337,00000200,false,Rx,0,8,00,80,49,04,00,7B,3C,00,
735588,000005F6,false,Rx,0,8,00,00,00,00,00,00,1E,00,
735835,00000201,false,Rx,0,8,51,00,00,00,00,00,00,51,
736091,000005F7,false,Rx,0,8,00,1E,00,00,00,58,00,00,
736337,00000202,false,Rx,0,8,22,00,20,00,00,00,00,02,
736585,00000354,false,Rx,0,8,AA,0A,55,05,00,01,00,6C,
736832,000005F8,false,Rx,0,8,7E,00,E9,0F,CC,7A,5D,82,
737011,000002B0,false,Rx,0,5,18,00,00,00,00,00,00,00,
737258,000005F9,false,Rx,0,8,76,6D,FF,FF,00,00,00,B9,
738724,0000010C,false,Rx,0,8,04,00,55,54,15,80,01,28,
738979,00000153,false,Rx,0,8,20,00,10,F2,00,F2,10,24,
739151,00000220,false,Rx,0,7,0E,E4,81,00,00,AD,0F,00,
739704,000002A2,false,Rx,0,8,04,00,00,00,00,00,00,00,
739958,00000331,false,Rx,0,8,00,00,00,00,00,00,00,00,
740360,00000291,false,Rx,0,8,00,00,00,00,FE,FA,FA,00,
740607,00000387,false,Rx,0,8,C1,10,C3,69,00,09,0C,00,
740862,00000394,false,Rx,0,8,0F,64,00,00,0F,84,1B,83,
741034,00000523,false,Rx,0,8,0C,38,39,39,30,2C,00,00,
741281,00000524,false,Rx,0,8,74,01,00,00,00,00,00,00,
741606,00000450,false,Rx,0,3,00,26,04,00,00,00,00,00,
741860,00000462,false,Rx,0,8,E0,2E,A4,16,00,00,00,00,
742107,00000471,false,Rx,0,6,04,00,10,00,00,74,00,00,
742355,00000541,false,Rx,0,8,03,00,40,80,C0,00,00,0C,
742602,0000055C,false,Rx,0,8,8D,C0,90,9E,FE,1D,01,00,
742857,0000055F,false,Rx,0,8,00,00,00,00,00,00,00,00,
743104,00000561,false,Rx,0,8,00,00,00,00,00,00,00,00,
743353,00000567,false,Rx,0,8,40,10,29,19,01,00,00,00,
743600,00000578,false,Rx,0,6,10,00,00,00,00,00,00,00,
743855,00000588,false,Rx,0,8,A4,49,A4,49,00,00,00,00,
744102,000005EC,false,Rx,0,8,00,00,00,00,00,00,00,00,
745193,00000109,false,Rx,0,8,00,01,FA,00,00,00,00,2C,
745441,00000200,false,Rx,0,8,00,80,49,04,00,BB,3C,00,
745688,00000201,false,Rx,0,8,91,00,00,00,00,00,00,91,
745942,00000202,false,Rx,0,8,42,00,20,00,00,00,00,62,
746418,00000354,false,Rx,0,8,AA,0A,55,05,00,01,00,5D,
747351,000002B0,false,Rx,0,5,1B,00,00,00,00,00,00,00,
748362,00000490,false,Rx,0,7,00,00,08,00,00,00,00,00,
748684,0000010C,false,Rx,0,8,04,00,55,54,15,80,01,39,
748937,00000153,false,Rx,0,8,20,00,10,F2,00,F2,20,34,
749109,00000220,false,Rx,0,7,0E,E4,81,00,00,AB,0F,00,
749359,000002A2,false,Rx,0,8,05,00,00,00,00,00,00,00,
749607,00000331,false,Rx,0,8,00,00,00,00,00,00,00,00,
749861,00000386,false,Rx,0,8,00,40,00,00,00,40,00,80,
750262,00000291,false,Rx,0,8,00,00,00,00,FE,FA,FA,00,
750509,00000523,false,Rx,0,8,0C,38,39,39,30,2C,00,00,
750756,00000524,false,Rx,0,8,74,01,00,00,00,00,00,00,
754937,00000109,false,Rx,0,8,00,01,FA,00,00,00,00,3D,
755112,00000200,false,Rx,0,8,00,80,49,04,00,FB,3C,00,
755363,00000201,false,Rx,0,8,D1,00,00,00,00,00,00,D1,
755694,00000202,false,Rx,0,8,62,00,20,00,00,00,00,42,
756027,0000057F,false,Rx,0,8,80,0A,68,00,00,00,00,00,
756228,000004EE,false,Rx,0,8,00,00,00,00,00,00,00,06,
756479,00000354,false,Rx,0,8,AA,0A,55,05,00,01,00,4E,
756726,00000581,false,Rx,0,8,00,00,00,00,00,00,00,00,
756906,000002B0,false,Rx,0,5,18,00,00,00,00,00,00,00,
757153,0000058E,false,Rx,0,8,00,01,00,EF,28,20,00,C0,
758694,0000010C,false,Rx,0,8,04,00,55,54,15,80,01,06,
758949,00000153,false,Rx,0,8,20,00,10,F2,00,F2,30,44,
759196,00000220,false,Rx,0,7,0E,E4,81,00,00,A7,0F,00,
759443,000002A2,false,Rx,0,8,04,00,00,00,00,00,00,00,
759690,00000331,false,Rx,0,8,00,00,00,00,00,00,00,00,
759869,00000387,false,Rx,0,8,C1,10,C3,69,00,0A,0D,00,
760498,00000291,false,Rx,0,8,00,00,00,00,FE,FA,FA,00,
760745,00000394,false,Rx,0,8,0F,84,00,00,0F,84,19,83,
760999,00000523,false,Rx,0,8,0C,38,39,39,30,2C,00,00,
761246,00000524,false,Rx,0,8,74,01,00,00,00,00,00,00,
761571,00000450,false,Rx,0,3,00,26,04,00,00,00,00,00,
761818,00000462,false,Rx,0,8,E0,2E,A4,16,00,00,00,00,
762073,00000471,false,Rx,0,6,04,00,10,00,00,78,00,00,
764988,00000109,false,Rx,0,8,00,01,FA,00,00,00,00,0A,
766088,00000200,false,Rx,0,8,00,80,49,04,00,3B,3C,00,
766335,00000201,false,Rx,0,8,11,00,00,00,00,00,00,11,
766584,00000354,false,Rx,0,8,AA,0A,55,05,00,01,00,3F,
766831,00000202,false,Rx,0,8,02,00,20,00,00,00,00,22,
767388,000002B0,false,Rx,0,5,18,00,00,00,00,00,00,00,
768774,0000010C,false,Rx,0,8,04,00,55,54,15,80,01,17,
769028,00000153,false,Rx,0,8,20,00,10,F2,00,F2,40,54,
769275,00000220,false,Rx,0,7,10,E4,81,00,00,A7,0F,00,
769524,000002A2,false,Rx,0,8,05,00,00,00,00,00,00,00,
769771,00000331,false,Rx,0,8,00,00,00,00,00,00,00,00,
770026,00000386,false,Rx,0,8,00,80,00,00,00,40,00,80,
770582,00000291,false,Rx,0,8,00,00,00,00,FE,FA,FA,00,
770828,00000491,false,Rx,0,8,17,00,00,00,00,00,00,00,
771084,00000493,false,Rx,0,8,00,0E,FC,11,00,00,3B,01,
771330,000004E2,false,Rx,0,8,B4,00,CD,00,00,00,00,00,
771808,00000523,false,Rx,0,8,0C,38,39,39,30,2C,00,00,
772062,00000524,false,Rx,0,8,74,01,00,00,00,00,00,00,
772310,00000542,false,Rx,0,8,A4,3B,01,00,00,00,FF,FF,
772559,00000594,false,Rx,0,8,BE,1D,48,26,C4,9D,01,00,
772731,00000595,false,Rx,0,8,04,00,C1,C2,06,00,8D,0E,
772985,00000596,false,Rx,0,8,00,92,00,00,17,00,02,03,
773233,00000597,false,Rx,0,8,05,50,00,00,00,00,00,00,
774828,00000598,false,Rx,0,8,00,00,00,00,FF,52,02,02,
774866,00000599,false,Rx,0,8,08,00,00,00,00,00,00,00,
774885,0000059C,false,Rx,0,8,00,00,00,00,00,00,00,00,
774906,0000059E,false,Rx,0,8,00,00,00,00,8D,0E,00,00,
774922,000005A3,false,Rx,0,8,4F,00,00,00,00,00,00,00,
775104,000005D5,false,Rx,0,8,00,00,00,00,00,00,00,00,
775506,000005D6,false,Rx,0,8,C1,C2,06,00,02,03,00,62,
775831,000005D7,false,Rx,0,8,02,00,00,00,00,00,00,00,
776085,000005D8,false,Rx,0,8,40,A4,04,00,50,00,8D,0E,
776410,00000354,false,Rx,0,8,AA,0A,55,05,00,01,00,20,
776890,000002B0,false,Rx,0,5,1A,00,00,00,00,00,00,00,
778730,0000010C,false,Rx,0,8,04,00,55,54,15,80,01,28,
778985,00000153,false,Rx,0,8,20,00,10,F2,00,F2,50,64,
779157,00000220,false,Rx,0,7,0F,C4,81,00,00,A9,0F,00,
779405,000002A2,false,Rx,0,8,04,00,00,00,00,00,00,00,
779653,00000331,false,Rx,0,8,00,00,00,00,00,00,00,00,
779907,00000387,false,Rx,0,8,C1,10,C3,69,00,0B,0E,00,
780307,00000291,false,Rx,0,8,00,00,00,00,FE,FA,FA,00,
780556,00000394,false,Rx,0,8,0E,A4,00,00,0E,84,19,83,
780803,00000523,false,Rx,0,8,0C,38,39,39,30,2C,00,00,
781058,00000524,false,Rx,0,8,74,01,00,00,00,00,00,00,
781608,00000450,false,Rx,0,3,00,26,04,00,00,00,00,00,
781862,00000462,false,Rx,0,8,E0,2E,A4,16,00,00,00,00,
782109,00000471,false,Rx,0,6,04,00,10,00,00,BC,00,00,
782356,00000109,false,Rx,0,8,00,01,FA,00,00,00,00,1B,
782603,00000200,false,Rx,0,8,00,80,49,04,00,7B,3C,00,
782858,00000201,false,Rx,0,8,51,00,00,00,00,00,00,51,
783105,00000202,false,Rx,0,8,22,00,20,00,00,00,00,02,
783353,00000549,false,Rx,0,8,20,80,44,5E,22,15,59,77,
783600,00000579,false,Rx,0,8,A4,49,A4,49,44,00,00,FE,
783772,0000057A,false,Rx,0,8,8D,C0,90,9E,FE,1D,01,80,
784027,0000057B,false,Rx,0,8,E3,01,00,00,00,50,64,A0,
784274,00000584,false,Rx,0,8,01,00,00,29,12,40,42,33,
784910,00000109,false,Rx,0,8,00,01,FA,00,00,00,00,2C,
785157,00000200,false,Rx,0,8,00,80,49,04,00,BB,3C,00,
785406,00000201,false,Rx,0,8,91,00,00,00,00,00,00,91,
785653,00000202,false,Rx,0,8,42,00,20,00,00,00,00,62,
785907,00000590,false,Rx,0,8,07,00,13,00,95,00,1F,78,
786079,00000592,false,Rx,0,8,50,EF,05,00,00,00,05,44,
786403,00000354,false,Rx,0,8,AA,0A,55,05,00,01,00,11,
787336,000002B0,false,Rx,0,5,18,00,00,00,00,00,00,00,
788798,0000010C,false,Rx,0,8,04,00,55,54,15,80,01,39,
788978,00000153,false,Rx,0,8,20,00,10,F2,00,F2,60,74,
789225,00000220,false,Rx,0,7,0F,C4,81,00,00,AB,0F,00,
789475,000002A2,false,Rx,0,8,05,00,00,00,00,00,00,00,
789722,00000331,false,Rx,0,8,00,00,00,00,00,00,00,00,
789976,00000386,false,Rx,0,8,00,C0,00,00,00,40,00,80,
790377,00000291,false,Rx,0,8,00,00,00,00,FE,FA,FA,00,
790624,00000523,false,Rx,0,8,0C,38,39,39,30,2B,00,00,
790879,00000524,false,Rx,0,8,74,01,00,00,00,00,00,00,
794931,00000109,false,Rx,0,8,00,01,FA,00,00,00,00,3D,
795128,00000200,false,Rx,0,8,00,80,49,04,00,FB,3C,00,
795380,00000201,false,Rx,0,8,D1,00,00,00,00,00,00,D1,
795597,00000202,false,Rx,0,8,62,00,20,00,00,00,00,42,
796432,00000354,false,Rx,0,8,AA,0A,55,05,00,01,00,02,
796835,000005E5,false,Rx,0,8,00,00,00,00,00,00,00,00,
797014,000002B0,false,Rx,0,5,1A,00,00,00,00,00,00,00,
797261,000005E6,false,Rx,0,8,00,F0,00,00,00,00,00,00,
797509,000005E8,false,Rx,0,8,00,00,00,00,00,00,00,00,
797756,000005E9,false,Rx,0,8,00,00,00,00,00,00,00,00,
798463,00000490,false,Rx,0,7,00,00,08,00,00,00,00,00,
798711,0000010C,false,Rx,0,8,04,00,55,54,15,80,01,06,
798966,00000153,false,Rx,0,8,20,00,10,F2,00,F2,70,84,
799213,00000220,false,Rx,0,7,0F,C4,81,00,00,AA,0F,00,
799463,000002A2,false,Rx,0,8,04,00,00,00,00,00,00,00,
799710,00000331,false,Rx,0,8,00,00,00,00,00,00,00,00,
799889,00000387,false,Rx,0,8,C1,10,C3,69,00,FD,00,00,
800522,00000291,false,Rx,0,8,00,00,00,00,FE,FA,FA,00,
800769,00000394,false,Rx,0,8,0E,C4,00,00,0E,84,17,83,
800949,00000523,false,Rx,0,8,0C,38,39,39,30,2C,00,00,
801195,00000524,false,Rx,0,8,74,01,00,00,00,00,00,00,
801593,00000450,false,Rx,0,3,00,26,04,00,00,00,00,00,
802077,00000462,false,Rx,0,8,E0,2E,A4,16,00,00,00,00,
802324,000002A1,false,Rx,0,8,00,00,00,00,00,00,00,00,
802573,00000471,false,Rx,0,6,00,00,00,00,00,00,00,00,
805035,00000109,false,Rx,0,8,00,01,FA,00,00,00,00,0A,
805724,00000200,false,Rx,0,8,00,80,49,04,00,3B,3C,00,
805979,00000201,false,Rx,0,8,11,00,00,00,00,00,00,11,
806226,00000202,false,Rx,0,8,02,00,20,00,00,00,00,22,
806475,00000354,false,Rx,0,8,AA,0A,55,05,00,01,00,F3,
806722,00000570,false,Rx,0,8,00,00,4A,00,00,00,00,00,
807431,000002B0,false,Rx,0,5,18,00,00,00,00,00,00,00,
808817,0000010C,false,Rx,0,8,04,00,55,54,15,80,01,17,
809072,00000153,false,Rx,0,8,20,00,10,F2,00,F2,80,94,
809244,00000220,false,Rx,0,7,0D,A4,81,00,00,A9,0F,00,
809493,000002A2,false,Rx,0,8,05,00,00,00,00,00,00,00,
809740,00000331,false,Rx,0,8,00,00,00,00,00,00,00,00,
809995,00000386,false,Rx,0,8,00,00,00,40,00,40,00,80,
810242,00000291,false,Rx,0,8,00,00,00,00,FE,FA,FA,00,
810417,00000507,false,Rx,0,4,00,00,00,01,00,00,00,00,
810664,00000523,false,Rx,0,8,0C,38,39,39,30,2C,00,00,
811075,00000524,false,Rx,0,8,74,01,00,00,00,00,00,00,
814964,00000109,false,Rx,0,8,00,01,FA,00,00,00,00,1B,
815164,00000200,false,Rx,0,8,00,80,49,04,00,7B,3C,00,
815335,00000201,false,Rx,0,8,51,00,00,00,00,00,00,51,
815584,00000202,false,Rx,0,8,22,00,20,00,00,00,00,02,
816442,00000354,false,Rx,0,8,AA,0A,55,05,00,01,00,E4,
816923,000002B0,false,Rx,0,5,19,00,00,00,00,00,00,00,
818695,0000010C,false,Rx,0,8,04,00,55,54,15,80,01,28,
818928,00000153,false,Rx,0,8,20,00,10,F2,00,F2,90,A4,
819184,00000220,false,Rx,0,7,0C,A4,81,00,00,AA,0F,00,
819433,000002A2,false,Rx,0,8,04,00,00,00,00,00,00,00,
819680,00000331,false,Rx,0,8,00,00,00,00,00,00,00,00,
819933,00000387,false,Rx,0,8,C1,10,C3,69,00,FE,01,00,
820332,00000291,false,Rx,0,8,00,00,00,00,FE,FA,FA,00,
820582,00000394,false,Rx,0,8,0D,E4,00,00,0D,84,17,83,
820771,00000523,false,Rx,0,8,0C,38,39,39,2F,2C,00,00,
821032,00000524,false,Rx,0,8,74,01,00,00,00,00,00,00,
821506,00000450,false,Rx,0,3,00,26,04,00,00,00,00,00,
821827,00000462,false,Rx,0,8,E0,2E,A4,16,00,00,00,00,
822007,00000471,false,Rx,0,6,04,00,10,00,00,04,00,00,
824996,00000109,false,Rx,0,8,00,01,FA,00,00,00,00,2C,
825243,00000200,false,Rx,0,8,00,80,49,04,00,BB,3C,00,
825492,00000201,false,Rx,0,8,91,00,00,00,00,00,00,91,
825739,00000202,false,Rx,0,8,42,00,20,00,00,00,00,62,
826449,00000354,false,Rx,0,8,AA,0A,55,05,00,01,00,D5,
827383,000002B0,false,Rx,0,5,1A,00,00,00,00,00,00,00,
828694,0000010C,false,Rx,0,8,04,00,55,54,15,80,01,39,
828949,00000153,false,Rx,0,8,20,00,10,F2,00,F2,A0,B4,
829120,00000220,false,Rx,0,7,0E,E4,81,00,00,AB,0F,00,
829369,000002A2,false,Rx,0,8,05,00,00,00,00,00,00,00,
829616,00000331,false,Rx,0,8,00,00,00,00,00,00,00,00,
829871,00000386,false,Rx,0,8,00,40,00,40,00,40,00,80,
830271,00000291,false,Rx,0,8,00,00,00,00,FE,FA,FA,00,
830522,00000523,false,Rx,0,8,0C,38,39,39,30,2C,00,00,
830769,00000524,false,Rx,0,8,74,01,00,00,00,00,00,00,
834911,00000109,false,Rx,0,8,00,01,FA,00,00,00,00,3D,
835120,00000200,false,Rx,0,8,00,80,49,04,00,FB,3C,00,
835372,00000201,false,Rx,0,8,D1,00,00,00,00,00,00,D1,
835673,00000202,false,Rx,0,8,62,00,20,00,00,00,00,42,
836076,0000050D,false,Rx,0,8,00,00,00,00,00,00,00,00,
836092,000005F5,false,Rx,0,8,00,1E,00,14,0A,C9,58,91,
836371,000005F6,false,Rx,0,8,00,00,00,00,00,00,1E,00,
836544,00000354,false,Rx,0,8,AA,0A,55,05,00,01,00,C6,
836791,000005F7,false,Rx,0,8,00,1E,00,00,00,58,00,00,
837046,000002B0,false,Rx,0,5,18,00,00,00,00,00,00,00,
837293,000005F8,false,Rx,0,8,7E,00,E9,0F,CC,7A,5D,82,
837466,000005F9,false,Rx,0,8,76,6D,FF,FF,00,00,00,B9,
838701,0000010C,false,Rx,0,8,04,00,55,54,15,80,01,06,
838956,00000153,false,Rx,0,8,20,00,10,F2,00,F2,B0,C4,
839203,00000220,false,Rx,0,7,11,04,82,00,00,AB,0F,00,
839453,000002A2,false,Rx,0,8,04,00,00,00,00,00,00,00,
839700,00000331,false,Rx,0,8,00,00,00,00,00,00,00,00,
839880,00000387,false,Rx,0,8,C1,10,C3,69,00,FF,02,00,
840127,00000291,false,Rx,0,8,00,00,00,00,FE,FA,FA,00,
840376,00000394,false,Rx,0,8,10,04,00,00,10,84,1D,83,
840622,00000523,false,Rx,0,8,0C,38,39,39,30,2C,00,00,
840877,00000524,false,Rx,0,8,74,01,00,00,00,00,00,00,
841730,00000414,false,Rx,0,8,00,00,00,00,00,00,00,00,
841909,00000450,false,Rx,0,3,00,26,04,00,00,00,00,00,
842156,00000462,false,Rx,0,8,E0,2E,A4,16,00,00,00,00,
842406,00000471,false,Rx,0,6,04,00,10,00,00,08,00,00,
842653,000004FE,false,Rx,0,8,FF,FF,7F,FF,FF,00,FF,FF,
842907,00000541,false,Rx,0,8,03,00,40,80,C0,00,00,0C,
843229,00000553,false,Rx,0,8,04,00,00,02,00,00,80,00,
843479,0000055C,false,Rx,0,8,8D,C0,90,9E,FE,1D,01,00,
843726,0000055F,false,Rx,0,8,00,00,00,00,00,00,00,00,
843980,00000561,false,Rx,0,8,00,00,00,00,00,00,00,00,
844227,00000567,false,Rx,0,8,40,10,29,19,01,00,00,00,
844475,00000578,false,Rx,0,6,10,00,00,00,00,00,00,00,
844722,00000588,false,Rx,0,8,A4,49,A4,49,00,00,00,00,
845362,00000109,false,Rx,0,8,00,01,FA,00,00,00,00,0A,
845609,00000200,false,Rx,0,8,00,80,49,04,00,3B,3C,00,
845864,00000201,false,Rx,0,8,11,00,00,00,00,00,00,11,
