Time Stamp,ID,Extended,Dir,Bus,LEN,D1,D2,D3,D4,D5,D6,D7,D8
97637502,0000010C,false,Rx,0,8,04,00,55,54,15,80,01,06,
97637871,000004EE,false,Rx,0,8,00,00,00,00,00,00,00,06,
97638137,0000057F,false,Rx,0,8,80,0A,66,00,00,00,00,00,
97638369,00000581,false,Rx,0,8,00,00,00,00,00,00,00,00,
97638605,0000058E,false,Rx,0,8,00,01,00,EF,28,20,00,C0,
97638942,00000109,false,Rx,0,8,00,01,FA,00,00,00,00,1B,
97639208,00000200,false,Rx,0,8,00,80,49,04,00,7B,3C,00,
97639547,00000201,false,Rx,0,8,51,00,00,00,00,00,00,51,
97639805,00000202,false,Rx,0,8,22,00,20,00,00,00,00,02,
97640045,00000491,false,Rx,0,8,18,00,00,00,00,00,00,00,
97640303,00000493,false,Rx,0,8,00,0E,FC,11,00,00,2C,01,
97640537,000004E2,false,Rx,0,8,AF,00,C3,00,00,00,00,00,
97640769,00000542,false,Rx,0,8,A6,2C,01,00,00,00,FF,FF,
97641009,00000594,false,Rx,0,8,C7,1C,48,26,C4,9F,00,00,
97641241,00000595,false,Rx,0,8,03,00,C2,C3,09,00,9B,0E,
97641475,00000596,false,Rx,0,8,00,92,00,00,18,00,02,03,
97641706,00000597,false,Rx,0,8,05,50,00,00,00,00,00,00,
97641972,00000598,false,Rx,0,8,00,00,00,00,4D,53,02,02,
97642204,00000599,false,Rx,0,8,08,00,00,00,00,00,00,00,
97642463,0000059C,false,Rx,0,8,00,00,00,00,00,00,00,00,
97642695,0000059E,false,Rx,0,8,00,00,00,00,9B,0E,00,00,
97642961,000005A3,false,Rx,0,8,4F,00,00,00,00,00,00,00,
97643193,00000291,false,Rx,0,8,00,00,00,00,FE,FA,FA,00,
97643398,000002B0,false,Rx,0,5,59,00,00,00,00,00,00,00,
97643632,00000523,false,Rx,0,8,0C,38,36,36,2E,2B,00,00,
97643863,00000354,false,Rx,0,8,AA,0A,55,05,00,01,00,20,
97644103,00000524,false,Rx,0,8,75,01,00,00,00,00,00,00,
97644361,000005D5,false,Rx,0,8,00,00,00,00,00,00,00,00,
97644596,000005D6,false,Rx,0,8,C2,C3,09,00,02,03,00,62,
97644828,00000153,false,Rx,0,8,20,00,10,F2,00,F2,10,24,
97645041,00000220,false,Rx,0,7,11,C4,81,00,00,B1,0F,00,
97645299,000002A2,false,Rx,0,8,05,00,00,00,00,00,00,00,
97645532,00000331,false,Rx,0,8,00,00,00,00,00,00,00,00,
97645764,00000387,false,Rx,0,8,1B,7A,2C,CE,00,9B,0C,00,
97646004,00000394,false,Rx,0,8,0E,C4,00,00,0E,84,17,83,
97646156,00000450,false,Rx,0,3,00,26,04,00,00,00,00,00,
97646414,000005D7,false,Rx,0,8,02,00,00,00,00,00,00,00,
97646648,00000462,false,Rx,0,8,E0,2E,A4,16,00,00,00,00,
97646880,000005D8,false,Rx,0,8,40,A6,03,00,50,00,9B,0E,
97647094,00000471,false,Rx,0,6,04,00,10,00,00,20,00,00,
97647326,000005F5,false,Rx,0,8,00,1E,00,14,0B,C9,59,91,
97647587,000005F6,false,Rx,0,8,00,00,00,00,00,00,1E,00,
97647819,0000010C,false,Rx,0,8,04,00,55,54,15,80,01,17,
97648059,000005F7,false,Rx,0,8,00,1E,00,00,00,58,00,00,
97648291,000005F8,false,Rx,0,8,7D,00,E9,0F,CC,7A,60,74,
97648526,000005F9,false,Rx,0,8,86,74,FF,FF,00,00,00,AD,
97648950,00000109,false,Rx,0,8,00,01,FA,00,00,00,00,2C,
97649208,00000200,false,Rx,0,8,00,80,49,04,00,BB,3C,00,
97649440,00000201,false,Rx,0,8,91,00,00,00,00,00,00,91,
97649675,00000202,false,Rx,0,8,42,00,20,00,00,00,00,62,
97653133,00000291,false,Rx,0,8,00,00,00,00,FE,FA,FA,00,
97653392,00000523,false,Rx,0,8,0C,38,36,36,2E,2B,00,00,
97653758,00000354,false,Rx,0,8,AA,0A,55,05,00,01,00,11,
97653937,000002B0,false,Rx,0,5,59,00,00,00,00,00,00,00,
97654198,00000524,false,Rx,0,8,75,01,00,00,00,00,00,00,
97654792,00000220,false,Rx,0,7,11,E4,81,00,00,AC,0F,00,
97655042,00000153,false,Rx,0,8,20,00,10,F2,00,F2,20,34,
97655294,000002A2,false,Rx,0,8,04,00,00,00,00,00,00,00,
97655561,00000331,false,Rx,0,8,00,00,00,00,00,00,00,00,
97655775,00000386,false,Rx,0,8,00,80,00,40,00,40,00,80,
62087,0000010C,false,Rx,0,8,04,00,55,54,15,80,01,28,
63559,00000109,false,Rx,0,8,00,01,FA,00,00,00,00,3D,
63581,00000200,false,Rx,0,8,00,80,49,04,00,FB,3C,00,
63597,00000201,false,Rx,0,8,D1,00,00,00,00,00,00,D1,
63803,00000202,false,Rx,0,8,62,00,20,00,00,00,00,42,
67006,00000291,false,Rx,0,8,00,00,00,00,FE,FA,FA,00,
67195,00000523,false,Rx,0,8,0C,38,36,36,2E,2B,00,00,
67367,000002B0,false,Rx,0,5,58,00,00,00,00,00,00,00,
67619,00000524,false,Rx,0,8,75,01,00,00,00,00,00,00,
67866,00000354,false,Rx,0,8,AA,0A,55,05,00,01,00,02,
68725,00000220,false,Rx,0,7,10,24,82,00,00,AA,0F,00,
69207,00000153,false,Rx,0,8,20,00,10,F2,00,F2,30,44,
69457,000002A2,false,Rx,0,8,05,00,00,00,00,00,00,00,
70017,00000331,false,Rx,0,8,00,00,00,00,00,00,00,00,
70242,00000387,false,Rx,0,8,1B,7A,2C,CE,00,9C,0D,00,
70493,00000394,false,Rx,0,8,11,E4,00,00,11,84,1D,83,
70742,00000450,false,Rx,0,3,00,26,04,00,00,00,00,00,
71073,00000462,false,Rx,0,8,E0,2E,A4,16,00,00,00,00,
71320,00000471,false,Rx,0,6,04,00,10,00,00,24,00,00,
71568,0000010C,false,Rx,0,8,04,00,55,54,15,80,01,39,
71815,00000541,false,Rx,0,8,03,00,40,00,C0,00,00,0C,
72032,0000055C,false,Rx,0,8,8D,C0,90,9E,FE,1D,01,00,
72313,0000055F,false,Rx,0,8,00,00,00,00,00,00,00,00,
72565,00000561,false,Rx,0,8,00,00,00,00,00,00,00,00,
72812,00000567,false,Rx,0,8,40,10,09,04,01,00,00,00,
73220,00000109,false,Rx,0,8,00,01,FA,00,00,00,00,0A,
74170,00000578,false,Rx,0,6,10,00,00,00,00,00,00,00,
74574,00000588,false,Rx,0,8,A4,49,A4,49,00,00,00,00,
75085,000005EC,false,Rx,0,8,00,00,00,00,00,00,00,00,
75332,00000200,false,Rx,0,8,00,80,49,04,00,3B,3C,00,
75582,00000201,false,Rx,0,8,11,00,00,00,00,00,00,11,
75912,00000202,false,Rx,0,8,02,00,20,00,00,00,00,22,
76920,00000291,false,Rx,0,8,00,00,00,00,FE,FA,FA,00,
77167,00000523,false,Rx,0,8,0C,38,36,36,2E,2B,00,00,
77493,00000524,false,Rx,0,8,75,01,00,00,00,00,00,00,
77664,00000354,false,Rx,0,8,AA,0A,55,05,00,01,00,F3,
77920,000002B0,false,Rx,0,5,58,00,00,00,00,00,00,00,
78167,00000570,false,Rx,0,8,00,00,4A,00,00,00,00,00,
78791,00000220,false,Rx,0,7,10,24,82,00,00,AE,0F,00,
78970,00000153,false,Rx,0,8,20,00,10,F2,00,F2,40,54,
79217,000002A2,false,Rx,0,8,04,00,00,00,00,00,00,00,
79467,00000331,false,Rx,0,8,00,00,00,00,00,00,00,00,
79713,00000386,false,Rx,0,8,00,C0,00,40,00,40,00,80,
79885,00000507,false,Rx,0,4,00,00,00,01,00,00,00,00,
80518,00000490,false,Rx,0,7,00,00,08,00,00,00,00,00,
81452,0000010C,false,Rx,0,8,04,00,55,54,15,80,01,06,
83591,00000109,false,Rx,0,8,00,01,FA,00,00,00,00,1B,
83612,00000200,false,Rx,0,8,00,80,49,04,00,7B,3C,00,
83629,00000201,false,Rx,0,8,51,00,00,00,00,00,00,51,
83743,00000202,false,Rx,0,8,22,00,20,00,00,00,00,02,
86138,000005E5,false,Rx,0,8,00,00,00,00,00,00,00,00,
86385,000005E6,false,Rx,0,8,00,F0,00,00,00,00,00,00,
86636,000005E8,false,Rx,0,8,00,00,00,00,00,00,00,00,
86883,000005E9,false,Rx,0,8,01,00,00,00,00,00,00,00,
87137,00000291,false,Rx,0,8,00,00,00,00,FE,FA,FA,00,
87309,000002B0,false,Rx,0,5,58,00,00,00,00,00,00,00,
87558,00000523,false,Rx,0,8,0C,38,36,36,2E,2B,00,00,
87805,00000354,false,Rx,0,8,AA,0A,55,05,00,01,00,E4,
88060,00000524,false,Rx,0,8,75,01,00,00,00,00,00,00,
88536,00000450,false,Rx,0,3,00,26,04,00,00,00,00,00,
88783,00000153,false,Rx,0,8,20,00,10,F2,00,F2,50,64,
89267,00000220,false,Rx,0,7,11,E4,81,00,00,B2,0F,00,
89772,000002A2,false,Rx,0,8,05,00,00,00,00,00,00,00,
90285,00000331,false,Rx,0,8,00,00,00,00,00,00,00,00,
90613,00000462,false,Rx,0,8,E0,2E,A4,16,00,00,00,00,
90860,00000387,false,Rx,0,8,1B,7A,2C,CE,00,9D,0E,00,
91115,00000394,false,Rx,0,8,0F,04,00,00,0F,84,11,83,
91287,00000471,false,Rx,0,6,04,00,10,00,00,28,00,00,
91536,0000010C,false,Rx,0,8,04,00,55,54,15,80,01,17,
92929,00000109,false,Rx,0,8,00,01,FA,00,00,00,00,2C,
93176,00000200,false,Rx,0,8,00,80,49,04,00,BB,3C,00,
93425,00000201,false,Rx,0,8,91,00,00,00,00,00,00,91,
93746,00000202,false,Rx,0,8,42,00,20,00,00,00,00,62,
97195,00000291,false,Rx,0,8,00,00,00,00,FE,FA,FA,00,
97444,00000523,false,Rx,0,8,0C,38,36,36,2E,2B,00,00,
97691,00000354,false,Rx,0,8,AA,0A,55,05,00,01,00,D5,
97863,000002B0,false,Rx,0,5,58,00,00,00,00,00,00,00,
98118,00000524,false,Rx,0,8,75,01,00,00,00,00,00,00,
98744,00000220,false,Rx,0,7,11,C4,81,00,00,B2,0F,00,
98999,00000153,false,Rx,0,8,20,00,10,F2,00,F2,60,74,
99245,000002A2,false,Rx,0,8,04,00,00,00,00,00,00,00,
99493,00000331,false,Rx,0,8,00,00,00,00,00,00,00,00,
99740,00000386,false,Rx,0,8,00,00,00,80,00,40,00,80,
101437,0000010C,false,Rx,0,8,04,00,55,54,15,80,01,28,
103627,00000109,false,Rx,0,8,00,01,FA,00,00,00,00,3D,
103650,00000200,false,Rx,0,8,00,80,49,04,00,FB,3C,00,
103767,00000201,false,Rx,0,8,D1,00,00,00,00,00,00,D1,
104021,00000202,false,Rx,0,8,62,00,20,00,00,00,00,42,
107017,00000291,false,Rx,0,8,00,00,00,00,FE,FA,FA,00,
107354,000002B0,false,Rx,0,5,58,00,00,00,00,00,00,00,
107681,00000354,false,Rx,0,8,AA,0A,55,05,00,01,00,C6,
108089,00000523,false,Rx,0,8,0C,38,36,36,2E,2B,00,00,
108492,00000524,false,Rx,0,8,75,01,00,00,00,00,00,00,
108740,00000220,false,Rx,0,7,12,24,82,00,00,AD,0F,00,
108994,00000153,false,Rx,0,8,20,00,10,F2,00,F2,70,84,
109501,000002A2,false,Rx,0,8,05,00,00,00,00,00,00,00,
109748,00000331,false,Rx,0,8,00,00,00,00,00,00,00,00,
110003,00000387,false,Rx,0,8,1B,7A,2C,CE,00,8F,00,00,
110250,00000394,false,Rx,0,8,11,24,00,00,11,84,19,83,
110347,00000450,false,Rx,0,3,00,26,04,00,00,00,00,00,
110595,00000462,false,Rx,0,8,E0,2E,A4,16,00,00,00,00,
110925,00000471,false,Rx,0,6,04,00,10,00,00,6C,00,00,
111398,0000010C,false,Rx,0,8,04,00,55,54,15,80,01,39,
112942,00000109,false,Rx,0,8,00,01,FA,00,00,00,00,0A,
113189,00000200,false,Rx,0,8,00,80,49,04,00,3B,3C,00,
113741,00000201,false,Rx,0,8,11,00,00,00,00,00,00,11,
113995,00000202,false,Rx,0,8,02,00,20,00,00,00,00,22,
116980,00000291,false,Rx,0,8,00,00,00,00,FE,FA,FA,00,
117227,00000523,false,Rx,0,8,0C,38,36,36,2E,2B,00,00,
117629,00000524,false,Rx,0,8,75,01,00,00,00,00,00,00,
117801,000002B0,false,Rx,0,5,59,00,00,00,00,00,00,00,
118056,00000354,false,Rx,0,8,AA,0A,55,05,00,01,00,B7,
118756,00000220,false,Rx,0,7,13,64,82,00,00,AD,0F,00,
119011,00000153,false,Rx,0,8,20,00,10,F2,00,F2,80,94,
119258,000002A2,false,Rx,0,8,04,00,00,00,00,00,00,00,
119507,00000331,false,Rx,0,8,00,00,00,00,00,00,00,00,
119754,00000386,false,Rx,0,8,00,40,00,80,00,40,00,80,
121455,0000010C,false,Rx,0,8,04,00,55,54,15,80,01,06,
123674,00000109,false,Rx,0,8,00,01,FA,00,00,00,00,1B,
123703,00000200,false,Rx,0,8,00,80,49,04,00,7B,3C,00,
123719,00000201,false,Rx,0,8,51,00,00,00,00,00,00,51,
123736,00000202,false,Rx,0,8,22,00,20,00,00,00,00,02,
126976,00000291,false,Rx,0,8,00,00,00,00,FE,FA,FA,00,
127376,000002B0,false,Rx,0,5,58,00,00,00,00,00,00,00,
127550,00000523,false,Rx,0,8,0C,38,36,36,2E,2B,00,00,
127797,00000354,false,Rx,0,8,AA,0A,55,05,00,01,00,A8,
128204,00000524,false,Rx,0,8,75,01,00,00,00,00,00,00,
128678,00000450,false,Rx,0,3,00,26,04,00,00,00,00,00,
128932,00000153,false,Rx,0,8,20,00,10,F2,00,F2,90,A4,
129333,00000220,false,Rx,0,7,13,24,82,00,00,AD,0F,00,
129582,000002A1,false,Rx,0,8,00,00,00,00,00,00,00,00,
130094,00000462,false,Rx,0,8,E0,2E,A4,16,00,00,00,00,
130341,000002A2,false,Rx,0,8,05,00,00,00,00,00,00,00,
130515,00000471,false,Rx,0,6,04,00,00,00,00,70,00,00,
130762,00000331,false,Rx,0,8,00,00,00,00,00,00,00,00,
131017,00000490,false,Rx,0,7,00,00,08,00,00,00,00,00,
131264,00000387,false,Rx,0,8,1B,7A,2C,CE,00,90,01,00,
131742,0000010C,false,Rx,0,8,04,00,55,54,15,80,01,17,
131996,00000394,false,Rx,0,8,11,44,00,00,11,84,17,83,
132428,00000549,false,Rx,0,8,B0,81,41,64,A2,14,59,6F,
132675,00000540,false,Rx,0,8,A0,30,0B,00,02,01,00,00,
132929,00000579,false,Rx,0,8,A4,49,A4,49,44,00,00,FE,
133176,00000109,false,Rx,0,8,00,01,FA,00,00,00,00,2C,
133424,00000200,false,Rx,0,8,00,80,49,04,00,BB,3C,00,
133746,00000201,false,Rx,0,8,91,00,00,00,00,00,00,91,
134001,00000202,false,Rx,0,8,42,00,20,00,00,00,00,62,
134248,0000057A,false,Rx,0,8,8D,C0,90,9E,FE,1D,01,80,
134498,0000057B,false,Rx,0,8,E3,01,00,00,00,50,64,A0,
134745,00000590,false,Rx,0,8,07,00,1B,00,95,00,2A,75,
135000,00000592,false,Rx,0,8,40,EF,05,00,00,00,05,44,
136997,00000291,false,Rx,0,8,00,00,00,00,FE,FA,FA,00,
137397,00000523,false,Rx,0,8,0C,38,36,36,2E,2B,00,00,
137644,00000354,false,Rx,0,8,AA,0A,55,05,00,01,00,99,
137891,000002B0,false,Rx,0,5,58,00,00,00,00,00,00,00,
138070,00000524,false,Rx,0,8,75,01,00,00,00,00,00,00,
138317,00000584,false,Rx,0,8,01,00,00,14,12,50,30,30,
138791,00000220,false,Rx,0,7,13,24,82,00,00,AC,0F,00,
138969,00000153,false,Rx,0,8,20,00,10,F2,00,F2,A0,B4,
139216,000002A2,false,Rx,0,8,04,00,00,00,00,00,00,00,
139467,00000331,false,Rx,0,8,00,00,00,00,00,00,00,00,
139714,00000386,false,Rx,0,8,00,80,00,80,00,40,00,80,
141485,0000010C,false,Rx,0,8,04,00,55,54,15,80,01,28,
141732,000004EE,false,Rx,0,8,00,00,00,00,00,00,00,06,
141987,0000057F,false,Rx,0,8,80,0A,66,00,00,00,00,00,
142234,00000581,false,Rx,0,8,00,00,00,00,00,00,00,00,
143714,0000058E,false,Rx,0,8,00,01,00,EF,28,20,00,C0,
143740,00000542,false,Rx,0,8,A6,2C,01,00,00,00,FF,FF,
143758,00000491,false,Rx,0,8,18,00,00,00,00,00,00,00,
143950,00000493,false,Rx,0,8,00,0E,FC,11,00,00,2C,01,
144226,00000109,false,Rx,0,8,00,01,FA,00,00,00,00,3D,
144474,000004E2,false,Rx,0,8,AF,00,C3,00,00,00,00,00,
144770,00000200,false,Rx,0,8,00,80,49,04,00,FB,3C,00,
144956,00000594,false,Rx,0,8,C7,1C,48,26,C4,9F,00,00,
145129,00000201,false,Rx,0,8,D1,00,00,00,00,00,00,D1,
145376,00000595,false,Rx,0,8,03,00,C2,C3,09,00,9B,0E,
145624,00000202,false,Rx,0,8,62,00,20,00,00,00,00,42,
145872,00000596,false,Rx,0,8,00,92,00,00,18,00,02,03,
146127,00000597,false,Rx,0,8,85,50,00,00,00,00,00,00,
146374,00000598,false,Rx,0,8,00,00,00,00,4D,53,02,02,
146622,00000599,false,Rx,0,8,08,00,00,00,00,00,00,00,
146869,0000059C,false,Rx,0,8,00,00,00,00,00,00,00,00,
147277,000002B0,false,Rx,0,5,59,00,00,00,00,00,00,00,
147451,00000291,false,Rx,0,8,00,00,00,00,FE,FA,FA,00,
147698,00000354,false,Rx,0,8,AA,0A,55,05,00,01,00,8A,
147952,00000523,false,Rx,0,8,0C,38,36,36,2E,2B,00,00,
148200,0000059E,false,Rx,0,8,00,00,00,00,9B,0E,00,00,
148447,0000050D,false,Rx,0,8,00,00,00,00,00,00,00,00,
148772,00000220,false,Rx,0,7,13,44,82,00,00,AB,0F,00,
149027,00000153,false,Rx,0,8,20,00,10,F2,00,F2,B0,C4,
149274,000002A2,false,Rx,0,8,05,00,00,00,00,00,00,00,
149521,00000331,false,Rx,0,8,00,00,00,00,00,00,00,00,
149693,00000387,false,Rx,0,8,1B,7A,2C,CE,00,91,02,00,
149948,00000394,false,Rx,0,8,12,64,00,00,12,84,13,83,
150120,00000450,false,Rx,0,3,00,26,04,00,00,00,00,00,
150366,00000524,false,Rx,0,8,75,01,00,00,00,00,00,00,
150613,00000462,false,Rx,0,8,E0,2E,A4,16,00,00,00,00,
151096,00000471,false,Rx,0,6,04,00,10,00,00,74,00,00,
151343,000005A3,false,Rx,0,8,4F,00,00,00,00,00,00,00,
151515,000005CA,false,Rx,0,8,00,00,00,5A,FF,50,00,00,
151763,0000010C,false,Rx,0,8,04,00,55,54,15,80,01,39,
152018,000005CB,false,Rx,0,8,00,FF,00,00,00,00,00,00,
152265,000005CC,false,Rx,0,8,00,00,00,00,00,00,00,00,
152515,000005D5,false,Rx,0,8,00,00,00,00,00,00,00,00,
152761,000005D6,false,Rx,0,8,C2,C3,09,00,02,03,00,62,
153169,000005D7,false,Rx,0,8,02,00,00,00,00,00,00,00,
153418,00000109,false,Rx,0,8,00,01,FA,00,00,00,00,0A,
153590,000005D8,false,Rx,0,8,40,A6,03,00,50,00,9B,0E,
154073,000005DC,false,Rx,0,8,00,00,00,00,FE,00,00,00,
154580,000005DE,false,Rx,0,8,00,00,2B,7B,36,2E,36,00,
155017,000005F5,false,Rx,0,8,00,1E,00,14,0C,C9,59,96,
155493,000005F6,false,Rx,0,8,00,00,00,00,00,00,1E,00,
155976,000005F7,false,Rx,0,8,00,1E,00,00,00,58,00,00,
156223,00000200,false,Rx,0,8,00,80,49,04,00,3B,3C,00,
156395,000005F8,false,Rx,0,8,7D,00,E9,0F,CC,7A,60,74,
156643,00000201,false,Rx,0,8,11,00,00,00,00,00,00,11,
156890,000005F9,false,Rx,0,8,86,74,FF,FF,00,00,00,AD,
157373,00000291,false,Rx,0,8,00,00,00,00,FE,FA,FA,00,
157623,00000202,false,Rx,0,8,02,00,20,00,00,00,00,22,
157869,000002B0,false,Rx,0,5,58,00,00,00,00,00,00,00,
158049,00000354,false,Rx,0,8,AA,0A,55,05,00,01,00,7B,
158452,00000523,false,Rx,0,8,0C,38,36,36,2E,2B,00,00,
158699,00000524,false,Rx,0,8,75,01,00,00,00,00,00,00,
158954,00000153,false,Rx,0,8,20,00,10,F2,00,F2,C0,D4,
159201,00000220,false,Rx,0,7,13,44,82,00,00,AB,0F,00,
159450,000002A2,false,Rx,0,8,04,00,00,00,00,00,00,00,
159697,00000331,false,Rx,0,8,00,00,00,00,00,00,00,00,
159952,00000386,false,Rx,0,8,00,C0,00,80,00,40,00,80,
161490,0000010C,false,Rx,0,8,04,00,55,54,15,80,01,06,
163717,00000109,false,Rx,0,8,00,01,FA,00,00,00,00,1B,
163740,00000200,false,Rx,0,8,00,80,49,04,00,7B,3C,00,
163757,00000201,false,Rx,0,8,51,00,00,00,00,00,00,51,
163774,00000202,false,Rx,0,8,22,00,20,00,00,00,00,02,
167332,000002B0,false,Rx,0,5,58,00,00,00,00,00,00,00,
167581,00000291,false,Rx,0,8,00,00,00,00,FE,FA,FA,00,
167827,00000354,false,Rx,0,8,AA,0A,55,05,00,01,00,6C,
168085,00000523,false,Rx,0,8,0C,38,36,36,2E,2B,00,00,
168786,00000220,false,Rx,0,7,13,24,82,00,00,AD,0F,00,
168966,00000153,false,Rx,0,8,20,00,10,F2,00,F2,D0,E4,
169472,000002A2,false,Rx,0,8,05,00,00,00,00,00,00,00,
169984,00000331,false,Rx,0,8,00,00,00,00,00,00,00,00,
170384,00000414,false,Rx,0,8,00,00,00,00,00,00,00,00,
170634,00000387,false,Rx,0,8,1B,7A,2C,CE,00,92,03,00,
170731,00000450,false,Rx,0,3,00,26,04,00,00,00,00,00,
170986,00000394,false,Rx,0,8,11,84,00,00,11,84,13,83,
171232,00000462,false,Rx,0,8,E0,2E,A4,16,00,00,00,00,
171479,00000471,false,Rx,0,6,04,00,10,00,00,78,00,00,
171726,0000010C,false,Rx,0,8,04,00,55,54,15,80,01,17,
171981,000004FE,false,Rx,0,8,FF,FF,7F,FF,FF,00,FF,FF,
172197,00000541,false,Rx,0,8,03,00,40,00,C0,00,00,0C,
172484,00000553,false,Rx,0,8,04,00,00,00,00,00,80,00,
172884,0000055C,false,Rx,0,8,8D,C0,90,9E,FE,1D,01,00,
173139,00000109,false,Rx,0,8,00,01,FA,00,00,00,00,2C,
173386,0000055F,false,Rx,0,8,00,00,00,00,00,00,00,00,
173636,00000200,false,Rx,0,8,00,80,49,04,00,BB,3C,00,
173883,00000561,false,Rx,0,8,00,00,00,00,00,00,00,00,
174072,00000201,false,Rx,0,8,91,00,00,00,00,00,00,91,
174330,00000567,false,Rx,0,8,40,10,09,04,01,00,00,00,
174580,00000202,false,Rx,0,8,42,00,20,00,00,00,00,62,
174827,00000578,false,Rx,0,6,10,00,00,00,00,00,00,00,
175007,00000588,false,Rx,0,8,A4,49,A4,49,00,00,00,00,
175328,000005B3,false,Rx,0,8,40,14,FE,00,00,00,00,00,
175578,000005D0,false,Rx,0,8,B7,D3,12,00,00,00,00,00,
175825,000005D3,false,Rx,0,8,0F,00,00,00,00,00,00,00,
176080,000005D4,false,Rx,0,8,0F,00,00,00,00,00,00,00,
176327,000005DF,false,Rx,0,8,05,1C,01,00,00,00,00,00,
176576,000005EC,false,Rx,0,8,00,00,00,00,00,00,00,00,
177660,00000354,false,Rx,0,8,AA,0A,55,05,00,01,00,5D,
177914,000002B0,false,Rx,0,5,59,00,00,00,00,00,00,00,
178085,00000570,false,Rx,0,8,00,00,4A,00,00,00,00,00,
178787,00000220,false,Rx,0,7,14,04,82,00,00,AE,0F,00,
179041,00000153,false,Rx,0,8,20,00,10,F2,00,F2,E0,F4,
179288,000002A2,false,Rx,0,8,04,00,00,00,00,00,00,00,
179538,00000331,false,Rx,0,8,00,00,00,00,00,00,00,00,
179784,00000386,false,Rx,0,8,00,00,00,C0,00,40,00,80,
179962,00000507,false,Rx,0,4,00,00,00,01,00,00,00,00,
180903,00000291,false,Rx,0,8,00,00,00,00,FE,FA,FA,00,
181150,00000490,false,Rx,0,7,00,00,08,00,00,00,00,00,
181397,00000523,false,Rx,0,8,0C,38,36,36,2E,2B,00,00,
181644,0000010C,false,Rx,0,8,04,00,55,54,15,80,01,28,
181891,00000524,false,Rx,0,8,75,01,00,00,00,00,00,00,
183754,00000109,false,Rx,0,8,00,01,FA,00,00,00,00,3D,
183782,00000200,false,Rx,0,8,00,80,49,04,00,FB,3C,00,
183799,00000201,false,Rx,0,8,D1,00,00,00,00,00,00,D1,
183815,00000202,false,Rx,0,8,62,00,20,00,00,00,00,42,
186177,000005E5,false,Rx,0,8,00,00,00,00,00,00,00,00,
186357,000005E6,false,Rx,0,8,00,F0,00,00,00,00,00,00,
186608,000005E8,false,Rx,0,8,00,00,00,00,00,00,00,00,
186855,000005E9,false,Rx,0,8,00,00,00,00,00,00,00,00,
187264,00000291,false,Rx,0,8,00,00,00,00,FE,FA,FA,00,
187513,000002B0,false,Rx,0,5,58,00,00,00,00,00,00,00,
187685,00000354,false,Rx,0,8,AA,0A,55,05,00,01,00,4E,
187938,00000523,false,Rx,0,8,0C,38,36,36,2E,2B,00,00,
188185,00000524,false,Rx,0,8,75,01,00,00,00,00,00,00,
188585,00000450,false,Rx,0,3,00,26,04,00,00,00,00,00,
188832,00000153,false,Rx,0,8,20,00,10,F2,00,F2,00,14,
189315,00000462,false,Rx,0,8,E0,2E,A4,16,00,00,00,00,
189565,00000220,false,Rx,0,7,14,04,82,00,00,AD,0F,00,
189737,00000471,false,Rx,0,6,04,00,10,00,00,BC,00,00,
189992,000002A2,false,Rx,0,8,05,00,00,00,00,00,00,00,
190239,00000331,false,Rx,0,8,00,00,00,00,00,00,00,00,
190490,00000387,false,Rx,0,8,1B,7A,2C,CE,00,93,04,00,
190737,00000394,false,Rx,0,8,10,A4,00,00,10,84,13,83,
191447,0000010C,false,Rx,0,8,04,00,55,54,15,80,01,39,
192916,00000109,false,Rx,0,8,00,01,FA,00,00,00,00,0A,
193163,00000200,false,Rx,0,8,00,80,49,04,00,3B,3C,00,
193486,00000201,false,Rx,0,8,11,00,00,00,00,00,00,11,
193733,00000202,false,Rx,0,8,02,00,20,00,00,00,00,22,
197027,00000291,false,Rx,0,8,00,00,00,00,FE,FA,FA,00,
197274,00000523,false,Rx,0,8,0C,38,36,36,2E,2B,00,00,
197681,00000354,false,Rx,0,8,AA,0A,55,05,00,01,00,3F,
197936,000002B0,false,Rx,0,5,58,00,00,00,00,00,00,00,
198183,00000524,false,Rx,0,8,75,01,00,00,00,00,00,00,
198808,00000220,false,Rx,0,7,12,04,82,00,00,AC,0F,00,
198988,00000153,false,Rx,0,8,20,00,10,F2,00,F2,10,24,
199234,000002A2,false,Rx,0,8,04,00,00,00,00,00,00,00,
199483,00000331,false,Rx,0,8,00,00,00,00,00,00,00,00,
199730,00000386,false,Rx,0,8,00,40,00,C0,00,40,00,80,
201505,0000010C,false,Rx,0,8,04,00,55,54,15,80,01,06,
203825,00000109,false,Rx,0,8,00,01,FA,00,00,00,00,1B,
203853,00000200,false,Rx,0,8,00,80,49,04,00,7B,3C,00,
203870,00000201,false,Rx,0,8,51,00,00,00,00,00,00,51,
203887,00000202,false,Rx,0,8,22,00,20,00,00,00,00,02,
207435,00000291,false,Rx,0,8,00,00,00,00,FE,FA,FA,00,
207606,000002B0,false,Rx,0,5,58,00,00,00,00,00,00,00,
207853,00000354,false,Rx,0,8,AA,0A,55,05,00,01,00,20,
208108,00000523,false,Rx,0,8,0C,38,36,36,2E,2B,00,00,
208355,00000524,false,Rx,0,8,75,01,00,00,00,00,00,00,
208756,00000220,false,Rx,0,7,12,24,82,00,00,AF,0F,00,
209011,00000153,false,Rx,0,8,20,00,10,F2,00,F2,20,34,
209518,000002A2,false,Rx,0,8,05,00,00,00,00,00,00,00,
209953,00000450,false,Rx,0,3,00,26,04,00,00,00,00,00,
210200,00000331,false,Rx,0,8,00,00,00,00,00,00,00,00,
210371,00000462,false,Rx,0,8,E0,2E,A4,16,00,00,00,00,
210619,00000387,false,Rx,0,8,1B,7A,2C,CE,00,94,05,00,
210866,00000471,false,Rx,0,6,04,00,10,00,00,00,00,00,
211120,00000394,false,Rx,0,8,11,C4,00,00,11,84,1F,83,
211595,0000010C,false,Rx,0,8,04,00,55,54,15,80,01,17,
213068,00000109,false,Rx,0,8,00,01,FA,00,00,00,00,2C,
213315,00000200,false,Rx,0,8,00,80,49,04,00,BB,3C,00,
213640,00000201,false,Rx,0,8,91,00,00,00,00,00,00,91,
213887,00000202,false,Rx,0,8,42,00,20,00,00,00,00,62,
217108,00000291,false,Rx,0,8,00,00,00,00,FE,FA,FA,00,
217434,00000523,false,Rx,0,8,0C,38,36,36,2E,2B,00,00,
217682,00000354,false,Rx,0,8,AA,0A,55,05,00,01,00,11,
217853,000002B0,false,Rx,0,5,58,00,00,00,00,00,00,00,
218186,00000524,false,Rx,0,8,75,01,00,00,00,00,00,00,
218811,00000220,false,Rx,0,7,14,44,82,00,00,B1,0F,00,
218990,00000153,false,Rx,0,8,20,00,10,F2,00,F2,30,44,
219312,000002A2,false,Rx,0,8,04,00,00,00,00,00,00,00,
219561,00000331,false,Rx,0,8,00,00,00,00,00,00,00,00,
219808,00000386,false,Rx,0,8,00,80,00,C0,00,40,00,80,
221505,0000010C,false,Rx,0,8,04,00,55,54,15,80,01,28,
223921,00000109,false,Rx,0,8,00,01,FA,00,00,00,00,3D,
223942,00000200,false,Rx,0,8,00,80,49,04,00,FB,3C,00,
223958,00000201,false,Rx,0,8,D1,00,00,00,00,00,00,D1,
223974,00000202,false,Rx,0,8,62,00,20,00,00,00,00,42,
227162,00000291,false,Rx,0,8,00,00,00,00,FE,FA,FA,00,
227265,000002B0,false,Rx,0,5,58,00,00,00,00,00,00,00,
227518,00000523,false,Rx,0,8,0C,38,36,36,2E,2B,00,00,
227765,00000354,false,Rx,0,8,AA,0A,55,05,00,01,00,02,
228020,00000524,false,Rx,0,8,75,01,00,00,00,00,00,00,
228645,00000450,false,Rx,0,3,00,26,04,00,00,00,00,00,
228891,00000153,false,Rx,0,8,20,00,10,F2,00,F2,40,54,
229071,00000220,false,Rx,0,7,14,44,82,00,00,AF,0F,00,
229318,000002A2,false,Rx,0,8,05,00,00,00,00,00,00,00,
229568,000002A1,false,Rx,0,8,00,00,00,00,00,00,00,00,
229815,00000331,false,Rx,0,8,00,00,00,00,00,00,00,00,
230222,00000462,false,Rx,0,8,E0,2E,A4,16,00,00,00,00,
230394,00000387,false,Rx,0,8,1B,7A,2C,CE,00,95,06,00,
230643,00000471,false,Rx,0,6,04,00,00,00,00,04,00,00,
230890,00000394,false,Rx,0,8,12,E4,00,00,12,84,1B,83,
231069,00000490,false,Rx,0,7,00,00,08,00,00,00,00,00,
231315,00000549,false,Rx,0,8,B0,81,41,64,A2,14,59,6F,
231565,0000010C,false,Rx,0,8,04,00,55,54,15,80,01,39,
231812,00000579,false,Rx,0,8,A4,49,A4,49,44,00,00,FE,
232067,0000057A,false,Rx,0,8,8D,C0,90,9E,FE,1D,01,80,
232314,0000057B,false,Rx,0,8,E3,01,00,00,00,50,64,A0,
232561,00000590,false,Rx,0,8,07,00,19,00,95,00,28,75,
232808,00000592,false,Rx,0,8,40,EF,05,00,00,00,05,84,
233063,00000109,false,Rx,0,8,00,01,FA,00,00,00,00,0A,
233310,00000200,false,Rx,0,8,00,80,49,04,00,3B,3C,00,
233559,00000201,false,Rx,0,8,11,00,00,00,00,00,00,11,
233881,00000202,false,Rx,0,8,02,00,20,00,00,00,00,22,
237103,00000291,false,Rx,0,8,00,00,00,00,FE,FA,FA,00,
237350,00000523,false,Rx,0,8,0C,38,36,36,2E,2B,00,00,
237755,00000354,false,Rx,0,8,AA,0A,55,05,00,01,00,F3,
237935,000002B0,false,Rx,0,5,59,00,00,00,00,00,00,00,
238181,00000524,false,Rx,0,8,75,01,00,00,00,00,00,00,
238430,00000584,false,Rx,0,8,01,00,00,14,12,60,30,31,
238752,00000220,false,Rx,0,7,12,24,82,00,00,AF,0F,00,
239007,00000153,false,Rx,0,8,20,00,10,F2,00,F2,50,64,
239254,000002A2,false,Rx,0,8,04,00,00,00,00,00,00,00,
239503,00000331,false,Rx,0,8,00,00,00,00,00,00,00,00,
239750,00000386,false,Rx,0,8,00,C0,00,C0,00,40,00,80,
241449,0000010C,false,Rx,0,8,04,00,55,54,15,80,01,06,
241935,000004EE,false,Rx,0,8,00,00,00,00,00,00,00,06,
242182,0000057F,false,Rx,0,8,80,0A,66,00,00,00,00,00,
242430,00000581,false,Rx,0,8,00,00,00,00,00,00,00,00,
243961,0000058E,false,Rx,0,8,00,01,00,EF,28,20,00,C0,
243985,00000109,false,Rx,0,8,00,01,FA,00,00,00,00,1B,
244002,00000200,false,Rx,0,8,00,80,49,04,00,7B,3C,00,
244024,00000594,false,Rx,0,8,C7,1C,48,26,C4,9F,00,00,
244040,00000201,false,Rx,0,8,51,00,00,00,00,00,00,51,
244056,00000491,false,Rx,0,8,18,00,00,00,00,00,00,00,
244422,00000493,false,Rx,0,8,00,0E,FC,11,00,00,2C,01,
244935,000004E2,false,Rx,0,8,AF,00,C3,00,00,00,00,00,
245440,00000542,false,Rx,0,8,A6,2C,01,00,00,00,FF,FF,
245687,00000202,false,Rx,0,8,22,00,20,00,00,00,00,02,
245859,00000595,false,Rx,0,8,03,00,C2,C3,0A,00,9B,0E,
246114,00000596,false,Rx,0,8,00,92,00,00,18,00,02,03,
246361,00000597,false,Rx,0,8,05,50,00,00,00,00,00,00,
246611,00000598,false,Rx,0,8,00,00,00,00,4D,53,02,02,
246858,00000599,false,Rx,0,8,08,00,00,00,00,00,00,00,
247114,00000291,false,Rx,0,8,00,00,00,00,FE,FA,FA,00,
247285,000002B0,false,Rx,0,5,59,00,00,00,00,00,00,00,
247533,00000523,false,Rx,0,8,0C,38,36,36,2D,2B,00,00,
247780,00000354,false,Rx,0,8,AA,0A,55,05,00,01,00,E4,
248521,00000524,false,Rx,0,8,75,01,00,00,00,00,00,00,
248693,00000450,false,Rx,0,3,00,26,04,00,00,00,00,00,
248947,00000153,false,Rx,0,8,20,00,10,F2,00,F2,60,74,
249119,00000220,false,Rx,0,7,13,24,82,00,00,B1,0F,00,
249366,000002A2,false,Rx,0,8,05,00,00,00,00,00,00,00,
249613,00000331,false,Rx,0,8,00,00,00,00,00,00,00,00,
249860,00000387,false,Rx,0,8,1B,7A,2C,CE,00,96,07,00,
250115,00000394,false,Rx,0,8,11,04,00,00,11,84,1B,83,
250362,00000462,false,Rx,0,8,E0,2E,A4,16,00,00,00,00,
250610,0000059C,false,Rx,0,8,00,00,00,00,00,00,00,00,
250782,00000471,false,Rx,0,6,04,00,10,00,00,08,00,00,
251037,0000059E,false,Rx,0,8,00,00,00,00,9B,0E,00,00,
251284,000005A3,false,Rx,0,8,4F,00,00,00,00,00,00,00,
251532,000005D5,false,Rx,0,8,00,00,00,00,00,00,00,00,
251779,0000010C,false,Rx,0,8,04,00,55,54,15,80,01,17,
252035,000005D6,false,Rx,0,8,C2,C3,0A,00,02,03,00,B7,
252281,000005D7,false,Rx,0,8,02,00,00,00,00,00,00,00,
252455,000005D8,false,Rx,0,8,40,A6,03,00,50,00,9B,0E,
252702,000005F5,false,Rx,0,8,00,1E,00,14,0D,C9,59,97,
252957,00000109,false,Rx,0,8,00,01,FA,00,00,00,00,2C,
253204,000005F6,false,Rx,0,8,00,00,00,00,00,00,1E,00,
253452,00000200,false,Rx,0,8,00,80,49,04,00,BB,3C,00,
253699,000005F7,false,Rx,0,8,00,1E,00,00,00,58,00,00,
253952,00000201,false,Rx,0,8,91,00,00,00,00,00,00,91,
254200,000005F8,false,Rx,0,8,7D,00,E9,0F,CC,7A,60,74,
254450,00000202,false,Rx,0,8,42,00,20,00,00,00,00,62,
254697,000005F9,false,Rx,0,8,86,74,FF,FF,00,00,00,AD,
257078,00000291,false,Rx,0,8,00,00,00,00,FE,FA,FA,00,
257325,00000523,false,Rx,0,8,0C,38,36,36,2E,2B,00,00,
257576,00000524,false,Rx,0,8,75,01,00,00,00,00,00,00,
257823,000002B0,false,Rx,0,5,58,00,00,00,00,00,00,00,
258003,00000354,false,Rx,0,8,AA,0A,55,05,00,01,00,D5,
258779,00000220,false,Rx,0,7,13,44,82,00,00,B3,0F,00,
259035,00000153,false,Rx,0,8,20,00,10,F2,00,F2,70,84,
259282,000002A2,false,Rx,0,8,04,00,00,00,00,00,00,00,
259530,00000331,false,Rx,0,8,00,00,00,00,00,00,00,00,
259777,00000386,false,Rx,0,8,00,00,00,00,00,40,00,80,
261474,0000010C,false,Rx,0,8,04,00,55,54,15,80,01,28,
264003,00000109,false,Rx,0,8,00,01,FA,00,00,00,00,3D,
264023,00000200,false,Rx,0,8,00,80,49,04,00,FB,3C,00,
264039,00000201,false,Rx,0,8,D1,00,00,00,00,00,00,D1,
264239,00000202,false,Rx,0,8,62,00,20,00,00,00,00,42,
267176,00000291,false,Rx,0,8,00,00,00,00,FE,FA,FA,00,
267284,000002B0,false,Rx,0,5,58,00,00,00,00,00,00,00,
267611,00000523,false,Rx,0,8,0C,38,36,36,2E,2B,00,00,
267858,00000354,false,Rx,0,8,AA,0A,55,05,00,01,00,C6,
268113,00000524,false,Rx,0,8,75,01,00,00,00,00,00,00,
268814,00000220,false,Rx,0,7,12,44,82,00,00,B1,0F,00,
269297,00000153,false,Rx,0,8,20,00,10,F2,00,F2,80,94,
269472,000002A2,false,Rx,0,8,05,00,00,00,00,00,00,00,
269985,00000331,false,Rx,0,8,00,00,00,00,00,00,00,00,
270309,00000450,false,Rx,0,3,00,26,04,00,00,00,00,00,
270483,00000387,false,Rx,0,8,1B,7A,2C,CE,00,97,08,00,
270730,00000462,false,Rx,0,8,E0,2E,A4,16,00,00,00,00,
270986,00000394,false,Rx,0,8,12,24,00,00,12,84,17,83,
271233,00000471,false,Rx,0,6,04,00,10,00,00,4C,00,00,
271405,0000010C,false,Rx,0,8,04,00,55,54,15,80,01,39,
271652,00000541,false,Rx,0,8,03,00,40,00,C0,00,00,0C,
271906,0000055C,false,Rx,0,8,8D,C0,90,9E,FE,1D,01,00,
272229,0000055F,false,Rx,0,8,00,00,00,00,00,00,00,00,
272478,00000561,false,Rx,0,8,00,00,00,00,00,00,00,00,
272725,00000567,false,Rx,0,8,40,10,09,04,01,00,00,00,
272980,00000109,false,Rx,0,8,00,01,FA,00,00,00,00,0A,
273152,00000578,false,Rx,0,6,10,00,00,00,00,00,00,00,
273398,00000200,false,Rx,0,8,00,80,49,04,00,3B,3C,00,
273645,00000588,false,Rx,0,8,A4,49,A4,49,00,00,00,00,
273900,00000201,false,Rx,0,8,11,00,00,00,00,00,00,11,
274175,000005EC,false,Rx,0,8,00,00,00,00,00,00,00,00,
274451,00000202,false,Rx,0,8,02,00,20,00,00,00,00,22,
277105,00000291,false,Rx,0,8,00,00,00,00,FE,FA,FA,00,
277512,00000523,false,Rx,0,8,0C,38,36,36,2E,2B,00,00,
277759,00000354,false,Rx,0,8,AA,0A,55,05,00,01,00,B7,
277939,000002B0,false,Rx,0,5,58,00,00,00,00,00,00,00,
278492,00000524,false,Rx,0,8,75,01,00,00,00,00,00,00,
278739,00000570,false,Rx,0,8,00,00,4A,00,00,00,00,00,
278994,00000153,false,Rx,0,8,20,00,10,F2,00,F2,90,A4,
279241,00000220,false,Rx,0,7,12,64,82,00,00,AE,0F,00,
279489,000002A2,false,Rx,0,8,04,00,00,00,00,00,00,00,
279736,00000331,false,Rx,0,8,00,00,00,00,00,00,00,00,
279991,00000386,false,Rx,0,8,00,40,00,00,00,40,00,80,
280163,00000507,false,Rx,0,4,00,00,00,01,00,00,00,00,
280636,00000490,false,Rx,0,7,00,00,08,00,00,00,00,00,
281493,0000010C,false,Rx,0,8,04,00,55,54,15,80,01,06,
284007,00000109,false,Rx,0,8,00,01,FA,00,00,00,00,1B,
284030,00000200,false,Rx,0,8,00,80,49,04,00,7B,3C,00,
284048,00000201,false,Rx,0,8,51,00,00,00,00,00,00,51,
284065,00000202,false,Rx,0,8,22,00,20,00,00,00,00,02,
286162,000005E5,false,Rx,0,8,00,00,00,00,00,00,00,00,
286334,000005E6,false,Rx,0,8,00,F0,00,00,00,00,00,00,
286582,000005E8,false,Rx,0,8,00,00,00,00,00,00,00,00,
286912,000005E9,false,Rx,0,8,01,00,00,00,00,00,00,00,
287467,00000291,false,Rx,0,8,00,00,00,00,FE,FA,FA,00,
287639,000002B0,false,Rx,0,5,58,00,00,00,00,00,00,00,
287886,00000354,false,Rx,0,8,AA,0A,55,05,00,01,00,A8,
288141,00000523,false,Rx,0,8,0C,38,36,36,2D,2B,00,00,
288467,00000524,false,Rx,0,8,75,01,00,00,00,00,00,00,
288639,00000450,false,Rx,0,3,00,26,04,00,00,00,00,00,
288885,00000153,false,Rx,0,8,20,00,10,F2,00,F2,A0,B4,
289065,00000220,false,Rx,0,7,14,64,82,00,00,AD,0F,00,
289569,00000462,false,Rx,0,8,E0,2E,A4,16,00,00,00,00,
289817,000002A2,false,Rx,0,8,05,00,00,00,00,00,00,00,
289996,00000471,false,Rx,0,6,04,00,10,00,00,10,00,00,
290243,00000331,false,Rx,0,8,00,00,00,00,00,00,00,00,
290492,00000387,false,Rx,0,8,1B,7A,2C,CE,00,98,09,00,
290739,00000394,false,Rx,0,8,13,44,00,00,13,84,13,83,
291520,0000010C,false,Rx,0,8,04,00,55,54,15,80,01,17,
293067,00000109,false,Rx,0,8,00,01,FA,00,00,00,00,2C,
293315,00000200,false,Rx,0,8,00,80,49,04,00,BB,3C,00,
293640,00000201,false,Rx,0,8,91,00,00,00,00,00,00,91,
293886,00000202,false,Rx,0,8,42,00,20,00,00,00,00,62,
297108,00000291,false,Rx,0,8,00,00,00,00,FE,FA,FA,00,
297355,00000523,false,Rx,0,8,0C,38,36,36,2D,2B,00,00,
297683,00000354,false,Rx,0,8,AA,0A,55,05,00,01,00,99,
297854,000002B0,false,Rx,0,5,59,00,00,00,00,00,00,00,
298109,00000524,false,Rx,0,8,75,01,00,00,00,00,00,00,
298811,00000220,false,Rx,0,7,13,04,82,00,00,B0,0F,00,
298990,00000153,false,Rx,0,8,20,00,10,F2,00,F2,B0,C4,
299237,000002A2,false,Rx,0,8,04,00,00,00,00,00,00,00,
299485,00000331,false,Rx,0,8,00,00,00,00,00,00,00,00,
299732,00000386,false,Rx,0,8,00,80,00,00,00,40,00,80,
301429,0000010C,false,Rx,0,8,04,00,55,54,15,80,01,28,
303992,00000109,false,Rx,0,8,00,01,FA,00,00,00,00,3D,
304020,00000200,false,Rx,0,8,00,80,49,04,00,FB,3C,00,
304037,00000201,false,Rx,0,8,D1,00,00,00,00,00,00,D1,
304054,00000202,false,Rx,0,8,62,00,20,00,00,00,00,42,
307267,000002B0,false,Rx,0,5,59,00,00,00,00,00,00,00,
307677,00000354,false,Rx,0,8,AA,0A,55,05,00,01,00,8A,
307933,00000291,false,Rx,0,8,00,00,00,00,FE,FA,FA,00,
308333,00000523,false,Rx,0,8,0C,38,36,36,2E,2B,00,00,
308595,00000524,false,Rx,0,8,75,01,00,00,00,00,00,00,
308767,00000220,false,Rx,0,7,13,04,82,00,00,B0,0F,00,
309021,00000153,false,Rx,0,8,20,00,10,F2,00,F2,C0,D4,
309269,000002A2,false,Rx,0,8,05,00,00,00,00,00,00,00,
309518,00000331,false,Rx,0,8,00,00,00,00,00,00,00,00,
309843,00000387,false,Rx,0,8,1B,7A,2C,CE,00,99,0A,00,
310098,00000394,false,Rx,0,8,10,64,00,00,10,84,17,83,
310269,00000450,false,Rx,0,3,00,26,04,00,00,00,00,00,
310518,00000462,false,Rx,0,8,E0,2E,A4,16,00,00,00,00,
310765,00000471,false,Rx,0,6,04,00,10,00,00,14,00,00,
311550,0000010C,false,Rx,0,8,04,00,55,54,15,80,01,39,
312945,00000109,false,Rx,0,8,00,01,FA,00,00,00,00,0A,
313191,00000200,false,Rx,0,8,00,80,49,04,00,3B,3C,00,
313440,00000201,false,Rx,0,8,11,00,00,00,00,00,00,11,
313686,00000202,false,Rx,0,8,02,00,20,00,00,00,00,22,
317515,00000291,false,Rx,0,8,00,00,00,00,FE,FA,FA,00,
317762,00000354,false,Rx,0,8,AA,0A,55,05,00,01,00,7B,
318017,000002B0,false,Rx,0,5,58,00,00,00,00,00,00,00,
318189,00000523,false,Rx,0,8,0C,38,36,36,2D,2B,00,00,
318512,00000524,false,Rx,0,8,75,01,00,00,00,00,00,00,
318834,00000220,false,Rx,0,7,13,44,82,00,00,AE,0F,00,
319014,00000153,false,Rx,0,8,20,00,10,F2,00,F2,D0,E4,
319261,000002A2,false,Rx,0,8,04,00,00,00,00,00,00,00,
319510,00000331,false,Rx,0,8,00,00,00,00,00,00,00,00,
319756,00000386,false,Rx,0,8,00,C0,00,00,00,40,00,80,
321452,0000010C,false,Rx,0,8,04,00,55,54,15,80,01,06,
324111,00000109,false,Rx,0,8,00,01,FA,00,00,00,00,1B,
324134,00000200,false,Rx,0,8,00,80,49,04,00,7B,3C,00,
324150,00000201,false,Rx,0,8,51,00,00,00,00,00,00,51,
324166,00000202,false,Rx,0,8,22,00,20,00,00,00,00,02,
327161,00000291,false,Rx,0,8,00,00,00,00,FE,FA,FA,00,
327411,000002B0,false,Rx,0,5,59,00,00,00,00,00,00,00,
327583,00000523,false,Rx,0,8,0C,38,36,36,2E,2B,00,00,
327830,00000354,false,Rx,0,8,AA,0A,55,05,00,01,00,6C,
328085,00000524,false,Rx,0,8,75,01,00,00,00,00,00,00,
328635,00000450,false,Rx,0,3,00,26,04,00,00,00,00,00,
328807,00000153,false,Rx,0,8,20,00,10,F2,00,F2,E0,F4,
329061,00000220,false,Rx,0,7,12,64,82,00,00,AE,0F,00,
329568,000002A1,false,Rx,0,8,00,00,00,00,00,00,00,00,
329815,000002A2,false,Rx,0,8,05,00,00,00,00,00,00,00,
330327,00000462,false,Rx,0,8,E0,2E,A4,16,00,00,00,00,
330576,00000331,false,Rx,0,8,00,00,00,00,00,00,00,00,
330748,00000471,false,Rx,0,6,04,00,00,00,00,18,00,00,
331003,00000387,false,Rx,0,8,1B,7A,2C,CE,00,9A,0B,00,
331250,00000490,false,Rx,0,7,00,00,08,00,00,00,00,00,
331499,00000394,false,Rx,0,8,13,84,00,00,13,84,1F,83,
331746,0000010C,false,Rx,0,8,04,00,55,54,15,80,01,17,
331924,00000540,false,Rx,0,8,C6,30,05,00,95,00,00,00,
332170,00000549,false,Rx,0,8,B0,81,41,64,A2,14,59,6F,
332418,00000579,false,Rx,0,8,A4,49,A4,49,44,00,00,FE,
332665,0000057A,false,Rx,0,8,8D,C0,90,9E,FE,1D,01,80,
333151,00000109,false,Rx,0,8,00,01,FA,00,00,00,00,2C,
333398,00000200,false,Rx,0,8,00,80,49,04,00,BB,3C,00,
333645,00000201,false,Rx,0,8,91,00,00,00,00,00,00,91,
333892,00000202,false,Rx,0,8,42,00,20,00,00,00,00,62,
334147,0000057B,false,Rx,0,8,E3,01,00,00,00,50,64,A0,
334469,00000590,false,Rx,0,8,07,00,19,00,95,00,27,76,
334716,00000592,false,Rx,0,8,40,EF,05,00,00,00,05,C4,
337175,00000291,false,Rx,0,8,00,00,00,00,FE,FA,FA,00,
337425,00000523,false,Rx,0,8,0C,38,36,36,2E,2B,00,00,
337672,00000354,false,Rx,0,8,AA,0A,55,05,00,01,00,5D,
337844,000002B0,false,Rx,0,5,58,00,00,00,00,00,00,00,
338251,00000584,false,Rx,0,8,01,00,00,14,12,00,45,41,
338728,00000524,false,Rx,0,8,75,01,00,00,00,00,00,00,
338984,00000153,false,Rx,0,8,20,00,10,F2,00,F2,00,14,
339155,00000220,false,Rx,0,7,0F,E4,81,00,00,AE,0F,00,
339405,000002A2,false,Rx,0,8,04,00,00,00,00,00,00,00,
339652,00000331,false,Rx,0,8,00,00,00,00,00,00,00,00,
339907,00000386,false,Rx,0,8,00,00,00,40,00,40,00,80,
341445,0000010C,false,Rx,0,8,04,00,55,54,15,80,01,28,
341692,0000057F,false,Rx,0,8,80,0A,66,00,00,00,00,00,
342251,000004EE,false,Rx,0,8,00,00,00,00,00,00,00,06,
342501,00000581,false,Rx,0,8,00,00,00,00,00,00,00,00,
342672,0000058E,false,Rx,0,8,00,01,00,EF,28,20,00,C0,
344161,00000109,false,Rx,0,8,00,01,FA,00,00,00,00,3D,
344184,00000200,false,Rx,0,8,00,80,49,04,00,FB,3C,00,
344201,00000491,false,Rx,0,8,18,00,00,00,00,00,00,00,
344221,00000201,false,Rx,0,8,D1,00,00,00,00,00,00,D1,
344237,00000493,false,Rx,0,8,00,0E,FC,11,00,00,2C,01,
344423,000004E2,false,Rx,0,8,AF,00,C3,00,00,00,00,00,
345044,00000542,false,Rx,0,8,A6,2C,01,00,00,00,FF,FF,
345211,00000202,false,Rx,0,8,62,00,20,00,00,00,00,42,
345390,00000594,false,Rx,0,8,C7,1C,48,26,C4,9F,00,00,
345715,00000595,false,Rx,0,8,03,00,C2,C3,0B,00,9B,0E,
345970,00000596,false,Rx,0,8,00,92,00,00,18,00,02,03,
346216,00000597,false,Rx,0,8,85,50,00,00,00,00,00,00,
346464,00000598,false,Rx,0,8,00,00,00,00,4D,53,02,02,
346712,00000599,false,Rx,0,8,08,00,00,00,00,00,00,00,
346967,0000059C,false,Rx,0,8,00,00,00,00,00,00,00,00,
347139,0000059E,false,Rx,0,8,00,00,00,00,9B,0E,00,00,
347386,00000291,false,Rx,0,8,00,00,00,00,FE,FA,FA,00,
347636,000002B0,false,Rx,0,5,59,00,00,00,00,00,00,00,
347882,00000354,false,Rx,0,8,AA,0A,55,05,00,01,00,4E,
348061,00000523,false,Rx,0,8,0C,38,36,36,2D,2B,00,00,
348308,0000050D,false,Rx,0,8,00,00,00,00,00,00,00,00,
348559,00000524,false,Rx,0,8,75,01,00,00,00,00,00,00,
348730,00000450,false,Rx,0,3,00,26,04,00,00,00,00,00,
348985,00000153,false,Rx,0,8,20,00,10,F2,00,F2,10,24,
349157,00000220,false,Rx,0,7,10,C4,81,00,00,AD,0F,00,
349405,000002A2,false,Rx,0,8,05,00,00,00,00,00,00,00,
349652,00000331,false,Rx,0,8,00,00,00,00,00,00,00,00,
349907,00000387,false,Rx,0,8,1B,7A,2C,CE,00,9B,0C,00,
350153,00000394,false,Rx,0,8,0E,A4,00,00,0E,84,19,83,
350403,00000462,false,Rx,0,8,E0,2E,A4,16,00,00,00,00,
350650,000005A3,false,Rx,0,8,4F,00,00,00,00,00,00,00,
350822,00000471,false,Rx,0,6,04,00,10,00,00,5C,00,00,
351076,000005D5,false,Rx,0,8,00,00,00,00,00,00,00,00,
351323,000005D6,false,Rx,0,8,C2,C3,0B,00,02,03,00,B7,
351574,0000010C,false,Rx,0,8,04,00,55,54,15,80,01,39,
351821,000005D7,false,Rx,0,8,02,00,00,00,00,00,00,00,
352000,000005D8,false,Rx,0,8,40,A6,03,00,50,00,9B,0E,
352248,000005F5,false,Rx,0,8,00,1E,00,14,0E,C9,59,94,
352495,000005F6,false,Rx,0,8,00,00,00,00,00,00,1E,00,
352742,000005F7,false,Rx,0,8,00,1E,00,00,00,58,00,00,
352996,00000109,false,Rx,0,8,00,01,FA,00,00,00,00,0A,
353244,000005F8,false,Rx,0,8,7D,00,E9,0F,CC,7A,60,74,
357956,00000200,false,Rx,0,8,00,80,49,04,00,3B,3C,00,
357982,000005F9,false,Rx,0,8,86,74,FF,FF,00,00,00,AD,
357998,00000201,false,Rx,0,8,11,00,00,00,00,00,00,11,
358026,00000202,false,Rx,0,8,02,00,20,00,00,00,00,22,
358045,00000291,false,Rx,0,8,00,00,00,00,FE,FA,FA,00,
358063,00000523,false,Rx,0,8,0C,38,36,36,2E,2B,00,00,
358079,000002B0,false,Rx,0,5,59,00,00,00,00,00,00,00,
358095,00000354,false,Rx,0,8,AA,0A,55,05,00,01,00,3F,
358346,00000524,false,Rx,0,8,75,01,00,00,00,00,00,00,
358821,00000220,false,Rx,0,7,12,04,82,00,00,AD,0F,00,
359001,00000153,false,Rx,0,8,20,00,10,F2,00,F2,20,34,
359248,000002A2,false,Rx,0,8,04,00,00,00,00,00,00,00,
359498,00000331,false,Rx,0,8,00,00,00,00,00,00,00,00,
359745,00000386,false,Rx,0,8,00,40,00,40,00,40,00,80,
361445,0000010C,false,Rx,0,8,04,00,55,54,15,80,01,06,
364179,00000109,false,Rx,0,8,00,01,FA,00,00,00,00,1B,
364205,00000200,false,Rx,0,8,00,80,49,04,00,7B,3C,00,
364224,00000201,false,Rx,0,8,51,00,00,00,00,00,00,51,
364241,00000202,false,Rx,0,8,22,00,20,00,00,00,00,02,
367243,00000291,false,Rx,0,8,00,00,00,00,FE,FA,FA,00,
367433,000002B0,false,Rx,0,5,58,00,00,00,00,00,00,00,
367604,00000523,false,Rx,0,8,0C,38,36,36,2E,2B,00,00,
367852,00000354,false,Rx,0,8,AA,0A,55,05,00,01,00,20,
368257,00000524,false,Rx,0,8,75,01,00,00,00,00,00,00,
368808,00000220,false,Rx,0,7,12,64,82,00,00,AB,0F,00,
369291,00000153,false,Rx,0,8,20,00,10,F2,00,F2,30,44,
369538,000002A2,false,Rx,0,8,05,00,00,00,00,00,00,00,
370049,00000331,false,Rx,0,8,00,00,00,00,00,00,00,00,
370374,00000414,false,Rx,0,8,00,00,00,00,00,00,00,00,
370623,00000387,false,Rx,0,8,1B,7A,2C,CE,00,9C,0D,00,
370795,00000450,false,Rx,0,3,00,26,04,00,00,00,00,00,
371049,00000394,false,Rx,0,8,13,C4,00,00,13,84,1B,83,
371296,00000462,false,Rx,0,8,E0,2E,A4,16,00,00,00,00,
371469,00000471,false,Rx,0,6,04,00,10,00,00,20,00,00,
371716,0000010C,false,Rx,0,8,04,00,55,54,15,80,01,17,
371974,000004FE,false,Rx,0,8,FF,FF,7F,FF,FF,00,FF,FF,
372221,00000541,false,Rx,0,8,03,00,40,00,C0,00,00,0C,
372468,00000553,false,Rx,0,8,04,00,00,00,00,00,80,00,
372716,0000055C,false,Rx,0,8,8D,C0,90,9E,FE,1D,01,00,
372970,00000109,false,Rx,0,8,00,01,FA,00,00,00,00,2C,
373217,0000055F,false,Rx,0,8,00,00,00,00,00,00,00,00,
373695,00000561,false,Rx,0,8,00,00,00,00,00,00,00,00,
374103,00000567,false,Rx,0,8,40,10,09,04,01,00,00,00,
374505,00000578,false,Rx,0,6,10,00,00,00,00,00,00,00,
374913,00000588,false,Rx,0,8,A4,49,A4,49,00,00,00,00,
375160,000005B3,false,Rx,0,8,40,14,FE,00,00,00,00,00,
375408,000005DF,false,Rx,0,8,05,1C,01,00,00,00,00,00,
375730,000005EC,false,Rx,0,8,00,00,00,00,00,00,00,00,
377202,00000291,false,Rx,0,8,00,00,00,00,FE,FA,FA,00,
377468,00000523,false,Rx,0,8,0C,38,36,36,2E,2B,00,00,
377677,00000354,false,Rx,0,8,AA,0A,55,05,00,01,00,11,
378086,000002B0,false,Rx,0,5,58,00,00,00,00,00,00,00,
378565,00000570,false,Rx,0,8,00,00,4A,00,00,00,00,00,
379048,00000524,false,Rx,0,8,75,01,00,00,00,00,00,00,
379300,00000153,false,Rx,0,8,20,00,10,F2,00,F2,40,54,
379584,00000220,false,Rx,0,7,12,84,82,00,00,AB,0F,00,
379835,000002A2,false,Rx,0,8,04,00,00,00,00,00,00,00,
380090,00000331,false,Rx,0,8,00,00,00,00,00,00,00,00,
380337,00000386,false,Rx,0,8,00,80,00,40,00,40,00,80,
380510,00000507,false,Rx,0,4,00,00,00,01,00,00,00,00,
380757,00000490,false,Rx,0,7,00,00,08,00,00,00,00,00,
381467,0000010C,false,Rx,0,8,04,00,55,54,15,80,01,28,
382323,00000200,false,Rx,0,8,00,80,49,04,00,BB,3C,00,
382574,00000201,false,Rx,0,8,91,00,00,00,00,00,00,91,
382821,00000202,false,Rx,0,8,42,00,20,00,00,00,00,62,
384276,00000109,false,Rx,0,8,00,01,FA,00,00,00,00,3D,
384297,00000200,false,Rx,0,8,00,80,49,04,00,FB,3C,00,
384313,00000201,false,Rx,0,8,D1,00,00,00,00,00,00,D1,
386121,000005E5,false,Rx,0,8,00,00,00,00,00,00,00,00,
386368,000005E6,false,Rx,0,8,00,F0,00,00,00,00,00,00,
386617,000005E8,false,Rx,0,8,00,00,00,00,00,00,00,00,
386865,000005E9,false,Rx,0,8,00,00,00,00,00,00,00,00,
387348,000002B0,false,Rx,0,5,59,00,00,00,00,00,00,00,
387749,00000354,false,Rx,0,8,AA,0A,55,05,00,01,00,02,
388003,00000291,false,Rx,0,8,00,00,00,00,FE,FA,FA,00,
388250,00000523,false,Rx,0,8,0C,38,36,36,2E,2B,00,00,
388578,00000524,false,Rx,0,8,75,01,00,00,00,00,00,00,
388825,00000153,false,Rx,0,8,20,00,10,F2,00,F2,50,64,
389004,00000450,false,Rx,0,3,00,26,04,00,00,00,00,00,
389251,00000220,false,Rx,0,7,13,64,82,00,00,AC,0F,00,
389425,00000462,false,Rx,0,8,E0,2E,A4,16,00,00,00,00,
389672,000002A2,false,Rx,0,8,05,00,00,00,00,00,00,00,
389927,00000471,false,Rx,0,6,04,00,10,00,00,24,00,00,
390174,00000331,false,Rx,0,8,00,00,00,00,00,00,00,00,
390422,00000387,false,Rx,0,8,1B,7A,2C,CE,00,9D,0E,00,
390669,00000394,false,Rx,0,8,13,E4,00,00,13,84,19,83,
391527,0000010C,false,Rx,0,8,04,00,55,54,15,80,01,39,
392922,00000109,false,Rx,0,8,00,01,FA,00,00,00,00,0A,
393169,00000200,false,Rx,0,8,00,80,49,04,00,3B,3C,00,
393418,00000201,false,Rx,0,8,11,00,00,00,00,00,00,11,
393665,00000202,false,Rx,0,8,02,00,20,00,00,00,00,22,
397570,00000291,false,Rx,0,8,00,00,00,00,FE,FA,FA,00,
397817,000002B0,false,Rx,0,5,58,00,00,00,00,00,00,00,
397996,00000354,false,Rx,0,8,AA,0A,55,05,00,01,00,F3,
398243,00000523,false,Rx,0,8,0C,38,36,36,2E,2B,00,00,
398493,00000524,false,Rx,0,8,75,01,00,00,00,00,00,00,
398815,00000220,false,Rx,0,7,12,24,82,00,00,AD,0F,00,
399070,00000153,false,Rx,0,8,20,00,10,F2,00,F2,60,74,
399316,000002A2,false,Rx,0,8,04,00,00,00,00,00,00,00,
399565,00000331,false,Rx,0,8,00,00,00,00,00,00,00,00,
399811,00000386,false,Rx,0,8,00,C0,00,40,00,40,00,80,
401434,0000010C,false,Rx,0,8,04,00,55,54,15,80,01,06,
404341,00000109,false,Rx,0,8,00,01,FA,00,00,00,00,1B,
404367,00000200,false,Rx,0,8,00,80,49,04,00,7B,3C,00,
404383,00000201,false,Rx,0,8,51,00,00,00,00,00,00,51,
404401,00000202,false,Rx,0,8,22,00,20,00,00,00,00,02,
407288,00000291,false,Rx,0,8,00,00,00,00,FE,FA,FA,00,
407413,000002B0,false,Rx,0,5,58,00,00,00,00,00,00,00,
407671,00000523,false,Rx,0,8,0C,38,36,36,2E,2B,00,00,
407938,00000354,false,Rx,0,8,AA,0A,55,05,00,01,00,E4,
408134,00000524,false,Rx,0,8,75,01,00,00,00,00,00,00,
408705,00000450,false,Rx,0,3,00,26,04,00,00,00,00,00,
408927,00000153,false,Rx,0,8,20,00,10,F2,00,F2,70,84,
409330,00000462,false,Rx,0,8,E0,2E,A4,16,00,00,00,00,
409580,00000220,false,Rx,0,7,0F,04,82,00,00,AC,0F,00,
410017,00000471,false,Rx,0,6,04,00,10,00,00,28,00,00,
410263,000002A2,false,Rx,0,8,05,00,00,00,00,00,00,00,
410513,00000331,false,Rx,0,8,00,00,00,00,00,00,00,00,
410835,00000387,false,Rx,0,8,1B,7A,2C,CE,00,8F,00,00,
411090,00000394,false,Rx,0,8,10,04,00,00,10,84,1D,83,
411565,0000010C,false,Rx,0,8,04,00,55,54,15,80,01,17,
412958,00000109,false,Rx,0,8,00,01,FA,00,00,00,00,2C,
413205,00000200,false,Rx,0,8,00,80,49,04,00,BB,3C,00,
413455,00000201,false,Rx,0,8,91,00,00,00,00,00,00,91,
413938,00000202,false,Rx,0,8,42,00,20,00,00,00,00,62,
417228,00000291,false,Rx,0,8,00,00,00,00,FE,FA,FA,00,
417475,00000523,false,Rx,0,8,0C,38,36,36,2E,2B,00,00,
417722,00000354,false,Rx,0,8,AA,0A,55,05,00,01,00,D5,
417902,000002B0,false,Rx,0,5,58,00,00,00,00,00,00,00,
418377,00000524,false,Rx,0,8,75,01,00,00,00,00,00,00,
418775,00000220,false,Rx,0,7,0F,E4,81,00,00,AC,0F,00,
419031,00000153,false,Rx,0,8,20,00,10,F2,00,F2,80,94,
419353,000002A2,false,Rx,0,8,04,00,00,00,00,00,00,00,
419602,00000331,false,Rx,0,8,00,00,00,00,00,00,00,00,
419849,00000386,false,Rx,0,8,00,00,00,80,00,40,00,80,
421472,0000010C,false,Rx,0,8,04,00,55,54,15,80,01,28,
422941,00000109,false,Rx,0,8,00,01,FA,00,00,00,00,3D,
424369,00000200,false,Rx,0,8,00,80,49,04,00,FB,3C,00,
424393,00000201,false,Rx,0,8,D1,00,00,00,00,00,00,D1,
424409,00000202,false,Rx,0,8,62,00,20,00,00,00,00,42,
427356,000002B0,false,Rx,0,5,58,00,00,00,00,00,00,00,
427918,00000354,false,Rx,0,8,AA,0A,55,05,00,01,00,C6,
428165,00000291,false,Rx,0,8,00,00,00,00,FE,FA,FA,00,
428492,00000523,false,Rx,0,8,0C,38,36,36,2D,2B,00,00,
428663,00000450,false,Rx,0,3,00,26,04,00,00,00,00,00,
428918,00000153,false,Rx,0,8,20,00,10,F2,00,F2,90,A4,
429394,00000462,false,Rx,0,8,E0,2E,A4,16,00,00,00,00,
429568,00000220,false,Rx,0,7,10,04,82,00,00,AC,0F,00,
429976,000002A2,false,Rx,0,8,05,00,00,00,00,00,00,00,
430223,000002A1,false,Rx,0,8,00,00,00,00,00,00,00,00,
430472,00000331,false,Rx,0,8,00,00,00,00,00,00,00,00,
430719,00000471,false,Rx,0,6,04,00,00,00,00,6C,00,00,
430890,00000387,false,Rx,0,8,1B,7A,2C,CE,00,90,01,00,
431145,00000490,false,Rx,0,7,00,00,08,00,00,00,00,00,
431392,00000394,false,Rx,0,8,10,24,00,00,10,84,1B,83,
431641,0000010C,false,Rx,0,8,04,00,55,54,15,80,01,39,
431887,00000524,false,Rx,0,8,75,01,00,00,00,00,00,00,
432143,00000549,false,Rx,0,8,B0,81,41,64,A2,14,59,6F,
432314,00000579,false,Rx,0,8,A4,49,A4,49,44,00,00,FE,
432564,0000057A,false,Rx,0,8,8D,C0,90,9E,FE,1D,01,80,
432811,0000057B,false,Rx,0,8,E3,01,00,00,00,50,64,A0,
433066,00000109,false,Rx,0,8,00,01,FA,00,00,00,00,0A,
433313,00000200,false,Rx,0,8,00,80,49,04,00,3B,3C,00,
433561,00000201,false,Rx,0,8,11,00,00,00,00,00,00,11,
433807,00000202,false,Rx,0,8,02,00,20,00,00,00,00,22,
434062,00000590,false,Rx,0,8,07,00,19,00,95,00,28,75,
434234,00000592,false,Rx,0,8,40,EF,05,00,00,00,05,04,
437296,00000291,false,Rx,0,8,00,00,00,00,FE,FA,FA,00,
437698,00000354,false,Rx,0,8,AA,0A,55,05,00,01,00,B7,
437870,000002B0,false,Rx,0,5,58,00,00,00,00,00,00,00,
438203,00000584,false,Rx,0,8,01,00,00,14,12,10,45,31,
438452,00000523,false,Rx,0,8,0C,38,36,36,2E,2B,00,00,
438777,00000220,false,Rx,0,7,10,64,82,00,00,AB,0F,00,
439032,00000153,false,Rx,0,8,20,00,10,F2,00,F2,A0,B4,
439279,000002A2,false,Rx,0,8,04,00,00,00,00,00,00,00,
439527,00000331,false,Rx,0,8,00,00,00,00,00,00,00,00,
439774,00000386,false,Rx,0,8,00,40,00,80,00,40,00,80,
441472,0000010C,false,Rx,0,8,04,00,55,54,15,80,01,06,
441719,0000057F,false,Rx,0,8,80,0A,66,00,00,00,00,00,
441974,000004EE,false,Rx,0,8,00,00,00,00,00,00,00,06,
442220,00000581,false,Rx,0,8,00,00,00,00,00,00,00,00,
442470,0000058E,false,Rx,0,8,00,01,00,EF,28,20,00,C0,
444453,00000109,false,Rx,0,8,00,01,FA,00,00,00,00,1B,
444475,00000200,false,Rx,0,8,00,80,49,04,00,7B,3C,00,
444492,00000201,false,Rx,0,8,51,00,00,00,00,00,00,51,
444509,00000202,false,Rx,0,8,22,00,20,00,00,00,00,02,
444526,00000491,false,Rx,0,8,18,00,00,00,00,00,00,00,
444543,00000493,false,Rx,0,8,00,0E,FC,11,00,00,2C,01,
444657,000004E2,false,Rx,0,8,AF,00,C3,00,00,00,00,00,
444912,00000542,false,Rx,0,8,A6,2C,01,00,00,00,FF,FF,
445172,00000594,false,Rx,0,8,C7,1C,48,26,C4,9F,00,00,
445422,00000595,false,Rx,0,8,03,00,C2,C3,0B,00,9B,0E,
445636,00000596,false,Rx,0,8,00,92,00,00,18,00,02,03,
445890,00000597,false,Rx,0,8,05,50,00,00,00,00,00,00,
446071,00000598,false,Rx,0,8,00,00,00,00,4D,53,02,02,
446318,00000599,false,Rx,0,8,08,00,00,00,00,00,00,00,
446568,0000059C,false,Rx,0,8,00,00,00,00,00,00,00,00,
446814,0000059E,false,Rx,0,8,00,00,00,00,9B,0E,00,00,
447069,000005A3,false,Rx,0,8,4F,00,00,00,00,00,00,00,
447241,000002B0,false,Rx,0,5,58,00,00,00,00,00,00,00,
447490,000005D5,false,Rx,0,8,00,00,00,00,00,00,00,00,
447737,00000354,false,Rx,0,8,AA,0A,55,05,00,01,00,A8,
447992,000005D6,false,Rx,0,8,C2,C3,0B,00,02,03,00,62,
448239,000005D7,false,Rx,0,8,02,00,00,00,00,00,00,00,
448490,000005D8,false,Rx,0,8,40,A6,03,00,50,00,9B,0E,
448661,00000450,false,Rx,0,3,00,26,04,00,00,00,00,00,
448833,00000153,false,Rx,0,8,20,00,10,F2,00,F2,B0,C4,
449088,00000220,false,Rx,0,7,10,64,82,00,00,AD,0F,00,
449335,000002A2,false,Rx,0,8,05,00,00,00,00,00,00,00,
449585,00000331,false,Rx,0,8,00,00,00,00,00,00,00,00,
449832,00000387,false,Rx,0,8,1B,7A,2C,CE,00,91,02,00,
450087,00000394,false,Rx,0,8,13,44,00,00,13,84,13,83,
450259,00000462,false,Rx,0,8,E0,2E,A4,16,00,00,00,00,
450509,000005F5,false,Rx,0,8,00,1E,00,14,0F,C9,59,95,
450756,00000471,false,Rx,0,6,04,00,10,00,00,70,00,00,
451011,000005F6,false,Rx,0,8,00,00,00,00,00,00,1E,00,
451257,000005F7,false,Rx,0,8,00,1E,00,00,00,58,00,00,
451432,000005F8,false,Rx,0,8,7D,00,E9,0F,CC,7A,60,74,
451679,0000010C,false,Rx,0,8,04,00,55,54,15,80,01,17,
451933,000005F9,false,Rx,0,8,86,74,FF,FF,00,00,00,AD,
452255,00000291,false,Rx,0,8,00,00,00,00,FE,FA,FA,00,
452430,00000523,false,Rx,0,8,0C,38,36,36,2D,2B,00,00,
452677,00000524,false,Rx,0,8,75,01,00,00,00,00,00,00,
452931,00000109,false,Rx,0,8,00,01,FA,00,00,00,00,2C,
453178,00000200,false,Rx,0,8,00,80,49,04,00,BB,3C,00,
453427,00000201,false,Rx,0,8,91,00,00,00,00,00,00,91,
453674,00000202,false,Rx,0,8,42,00,20,00,00,00,00,62,
457270,00000291,false,Rx,0,8,00,00,00,00,FE,FA,FA,00,
457670,00000523,false,Rx,0,8,0C,38,36,36,2D,2B,00,00,
457841,000002B0,false,Rx,0,5,59,00,00,00,00,00,00,00,
458096,00000354,false,Rx,0,8,AA,0A,55,05,00,01,00,99,
458343,00000524,false,Rx,0,8,75,01,00,00,00,00,00,00,
458819,00000220,false,Rx,0,7,11,24,82,00,00,AC,0F,00,
459075,00000153,false,Rx,0,8,20,00,10,F2,00,F2,C0,D4,
459322,000002A2,false,Rx,0,8,04,00,00,00,00,00,00,00,
459569,00000331,false,Rx,0,8,00,00,00,00,00,00,00,00,
459816,00000386,false,Rx,0,8,00,80,00,80,00,40,00,80,
461438,0000010C,false,Rx,0,8,04,00,55,54,15,80,01,28,
462905,00000109,false,Rx,0,8,00,01,FA,00,00,00,00,3D,
464564,00000200,false,Rx,0,8,00,80,49,04,00,FB,3C,00,
464593,00000201,false,Rx,0,8,D1,00,00,00,00,00,00,D1,
464610,00000202,false,Rx,0,8,62,00,20,00,00,00,00,42,
467169,000002B0,false,Rx,0,5,58,00,00,00,00,00,00,00,
467418,00000291,false,Rx,0,8,00,00,00,00,FE,FA,FA,00,
467818,00000354,false,Rx,0,8,AA,0A,55,05,00,01,00,8A,
468151,00000523,false,Rx,0,8,0C,38,36,36,2E,2B,00,00,
468478,00000524,false,Rx,0,8,75,01,00,00,00,00,00,00,
468801,00000220,false,Rx,0,7,11,24,82,00,00,AB,0F,00,
469056,00000153,false,Rx,0,8,20,00,10,F2,00,F2,D0,E4,
469561,000002A2,false,Rx,0,8,05,00,00,00,00,00,00,00,
469808,00000331,false,Rx,0,8,00,00,00,00,00,00,00,00,
470063,00000387,false,Rx,0,8,1B,7A,2C,CE,00,92,03,00,
470310,00000394,false,Rx,0,8,11,64,00,00,11,84,15,83,
470407,00000450,false,Rx,0,3,00,26,04,00,00,00,00,00,
470803,00000462,false,Rx,0,8,E0,2E,A4,16,00,00,00,00,
470983,00000471,false,Rx,0,6,04,00,10,00,00,74,00,00,
471230,00000541,false,Rx,0,8,03,00,40,00,C0,00,00,0C,
471481,0000055C,false,Rx,0,8,8D,C0,90,9E,FE,1D,01,00,
471728,0000010C,false,Rx,0,8,04,00,55,54,15,80,01,39,
471983,0000055F,false,Rx,0,8,00,00,00,00,00,00,00,00,
472304,00000561,false,Rx,0,8,00,00,00,00,00,00,00,00,
472553,00000567,false,Rx,0,8,40,10,09,04,01,00,00,00,
472725,00000578,false,Rx,0,6,10,00,00,00,00,00,00,00,
473286,00000109,false,Rx,0,8,00,01,FA,00,00,00,00,0A,
473460,00000200,false,Rx,0,8,00,80,49,04,00,3B,3C,00,
473707,00000201,false,Rx,0,8,11,00,00,00,00,00,00,11,
473963,00000202,false,Rx,0,8,02,00,20,00,00,00,00,22,
474210,00000588,false,Rx,0,8,A4,49,A4,49,00,00,00,00,
474460,000005EC,false,Rx,0,8,00,00,00,00,00,00,00,00,
477449,00000291,false,Rx,0,8,00,00,00,00,FE,FA,FA,00,
477697,00000354,false,Rx,0,8,AA,0A,55,05,00,01,00,7B,
477868,000002B0,false,Rx,0,5,58,00,00,00,00,00,00,00,
478123,00000523,false,Rx,0,8,0C,38,36,36,2E,2B,00,00,
478370,00000524,false,Rx,0,8,75,01,00,00,00,00,00,00,
478619,00000570,false,Rx,0,8,00,00,4A,00,00,00,00,00,
478866,00000153,false,Rx,0,8,20,00,10,F2,00,F2,E0,F4,
479120,00000220,false,Rx,0,7,12,44,82,00,00,AE,0F,00,
479371,000002A2,false,Rx,0,8,04,00,00,00,00,00,00,00,
479592,00000331,false,Rx,0,8,00,00,00,00,00,00,00,00,
479852,00000386,false,Rx,0,8,00,C0,00,80,00,40,00,80,
480033,00000507,false,Rx,0,4,00,00,00,01,00,00,00,00,
480583,00000490,false,Rx,0,7,00,00,08,00,00,00,00,00,
481452,0000010C,false,Rx,0,8,04,00,55,54,15,80,01,06,
484516,00000109,false,Rx,0,8,00,01,FA,00,00,00,00,1B,
484536,00000200,false,Rx,0,8,00,80,49,04,00,7B,3C,00,
484552,00000201,false,Rx,0,8,51,00,00,00,00,00,00,51,
484569,00000202,false,Rx,0,8,22,00,20,00,00,00,00,02,
486159,000005E5,false,Rx,0,8,00,00,00,00,00,00,00,00,
486338,000005E6,false,Rx,0,8,00,F0,00,00,00,00,00,00,
486588,000005E8,false,Rx,0,8,00,00,00,00,00,00,00,00,
486835,000005E9,false,Rx,0,8,01,00,00,00,00,00,00,00,
487316,00000291,false,Rx,0,8,00,00,00,00,FE,FA,FA,00,
487490,000002B0,false,Rx,0,5,59,00,00,00,00,00,00,00,
487737,00000354,false,Rx,0,8,AA,0A,55,05,00,01,00,6C,
488070,00000523,false,Rx,0,8,0C,38,36,36,2E,2B,00,00,
488317,00000524,false,Rx,0,8,75,01,00,00,00,00,00,00,
488640,00000450,false,Rx,0,3,00,26,04,00,00,00,00,00,
488886,00000153,false,Rx,0,8,20,00,10,F2,00,F2,00,14,
489294,00000220,false,Rx,0,7,13,44,82,00,00,AF,0F,00,
489544,000002A2,false,Rx,0,8,05,00,00,00,00,00,00,00,
490056,00000331,false,Rx,0,8,00,00,00,00,00,00,00,00,
490458,00000462,false,Rx,0,8,E0,2E,A4,16,00,00,00,00,
490630,00000387,false,Rx,0,8,1B,7A,2C,CE,00,93,04,00,
490877,00000394,false,Rx,0,8,12,84,00,00,12,84,11,83,
491131,00000471,false,Rx,0,6,04,00,10,00,00,78,00,00,
491530,0000010C,false,Rx,0,8,04,00,55,54,15,80,01,17,
492922,00000109,false,Rx,0,8,00,01,FA,00,00,00,00,2C,
493169,00000200,false,Rx,0,8,00,80,49,04,00,BB,3C,00,
493418,00000201,false,Rx,0,8,91,00,00,00,00,00,00,91,
493665,00000202,false,Rx,0,8,42,00,20,00,00,00,00,62,
497492,00000291,false,Rx,0,8,00,00,00,00,FE,FA,FA,00,
497740,00000354,false,Rx,0,8,AA,0A,55,05,00,01,00,5D,
497919,000002B0,false,Rx,0,5,59,00,00,00,00,00,00,00,
498166,00000523,false,Rx,0,8,0C,38,36,36,2E,2B,00,00,
498414,00000524,false,Rx,0,8,75,01,00,00,00,00,00,00,
498811,00000220,false,Rx,0,7,12,24,82,00,00,AD,0F,00,
499066,00000153,false,Rx,0,8,20,00,10,F2,00,F2,10,24,
499313,000002A2,false,Rx,0,8,04,00,00,00,00,00,00,00,
499561,00000331,false,Rx,0,8,00,00,00,00,00,00,00,00,
499807,00000386,false,Rx,0,8,00,00,00,C0,00,40,00,80,
501430,0000010C,false,Rx,0,8,04,00,55,54,15,80,01,28,
502975,00000109,false,Rx,0,8,00,01,FA,00,00,00,00,3D,
503146,00000200,false,Rx,0,8,00,80,49,04,00,FB,3C,00,
504607,00000201,false,Rx,0,8,D1,00,00,00,00,00,00,D1,
504634,00000202,false,Rx,0,8,62,00,20,00,00,00,00,42,
507582,00000291,false,Rx,0,8,00,00,00,00,FE,FA,FA,00,
507753,000002B0,false,Rx,0,5,58,00,00,00,00,00,00,00,
508008,00000354,false,Rx,0,8,AA,0A,55,05,00,01,00,4E,
508257,00000523,false,Rx,0,8,0C,38,36,36,2E,2B,00,00,
508583,00000524,false,Rx,0,8,75,01,00,00,00,00,00,00,
508755,00000450,false,Rx,0,3,00,26,04,00,00,00,00,00,
508934,00000153,false,Rx,0,8,20,00,10,F2,00,F2,20,34,
509181,00000220,false,Rx,0,7,13,44,82,00,00,AC,0F,00,
509686,000002A2,false,Rx,0,8,05,00,00,00,00,00,00,00,
509940,00000331,false,Rx,0,8,00,00,00,00,00,00,00,00,
510265,00000462,false,Rx,0,8,E0,2E,A4,16,00,00,00,00,
510515,00000387,false,Rx,0,8,1B,7A,2C,CE,00,94,05,00,
510762,00000471,false,Rx,0,6,04,00,10,00,00,BC,00,00,
510941,00000394,false,Rx,0,8,12,A4,00,00,12,84,1F,83,
511414,0000010C,false,Rx,0,8,04,00,55,54,15,80,01,39,
513035,00000109,false,Rx,0,8,00,01,FA,00,00,00,00,0A,
513542,00000200,false,Rx,0,8,00,80,49,04,00,3B,3C,00,
513789,00000201,false,Rx,0,8,11,00,00,00,00,00,00,11,
514044,00000202,false,Rx,0,8,02,00,20,00,00,00,00,22,
517329,00000291,false,Rx,0,8,00,00,00,00,FE,FA,FA,00,
517578,00000523,false,Rx,0,8,0C,38,36,36,2E,2B,00,00,
517825,00000354,false,Rx,0,8,AA,0A,55,05,00,01,00,3F,
518007,000002B0,false,Rx,0,5,58,00,00,00,00,00,00,00,
518329,00000524,false,Rx,0,8,75,01,00,00,00,00,00,00,
518803,00000220,false,Rx,0,7,13,84,82,00,00,AE,0F,00,
519058,00000153,false,Rx,0,8,20,00,10,F2,00,F2,30,44,
519305,000002A2,false,Rx,0,8,04,00,00,00,00,00,00,00,
519629,00000331,false,Rx,0,8,00,00,00,00,00,00,00,00,
519876,00000386,false,Rx,0,8,00,40,00,C0,00,40,00,80,
521421,0000010C,false,Rx,0,8,04,00,55,54,15,80,01,06,
522965,00000109,false,Rx,0,8,00,01,FA,00,00,00,00,1B,
523212,00000200,false,Rx,0,8,00,80,49,04,00,7B,3C,00,
524684,00000201,false,Rx,0,8,51,00,00,00,00,00,00,51,
524712,00000202,false,Rx,0,8,22,00,20,00,00,00,00,02,
527380,00000291,false,Rx,0,8,00,00,00,00,FE,FA,FA,00,
527483,000002B0,false,Rx,0,5,59,00,00,00,00,00,00,00,
527730,00000354,false,Rx,0,8,AA,0A,55,05,00,01,00,20,
527985,00000523,false,Rx,0,8,0C,38,36,36,2D,2B,00,00,
528232,00000524,false,Rx,0,8,75,01,00,00,00,00,00,00,
528631,00000450,false,Rx,0,3,00,26,04,00,00,00,00,00,
528878,00000153,false,Rx,0,8,20,00,10,F2,00,F2,40,54,
529058,00000220,false,Rx,0,7,12,A4,82,00,00,AF,0F,00,
529564,00000462,false,Rx,0,8,E0,2E,A4,16,00,00,00,00,
529811,000002A1,false,Rx,0,8,00,00,00,00,00,00,00,00,
530066,000002A2,false,Rx,0,8,05,00,00,00,00,00,00,00,
530313,00000471,false,Rx,0,6,04,00,00,00,00,00,00,00,
530561,00000331,false,Rx,0,8,00,00,00,00,00,00,00,00,
530732,00000490,false,Rx,0,7,00,00,08,00,00,00,00,00,
530987,00000387,false,Rx,0,8,1B,7A,2C,CE,00,95,06,00,
531312,00000394,false,Rx,0,8,15,C4,00,00,15,84,17,83,
531561,0000010C,false,Rx,0,8,04,00,55,54,15,80,01,17,
531885,00000540,false,Rx,0,8,B7,30,07,00,CB,00,00,00,
532140,00000549,false,Rx,0,8,B0,81,41,64,A2,14,59,6F,
532386,00000579,false,Rx,0,8,A4,49,A4,49,44,00,00,FE,
532561,0000057A,false,Rx,0,8,8D,C0,90,9E,FE,1D,01,80,
532807,0000057B,false,Rx,0,8,E3,01,00,00,00,50,64,A0,
533062,00000109,false,Rx,0,8,00,01,FA,00,00,00,00,2C,
533309,00000200,false,Rx,0,8,00,80,49,04,00,BB,3C,00,
533558,00000201,false,Rx,0,8,91,00,00,00,00,00,00,91,
533806,00000202,false,Rx,0,8,42,00,20,00,00,00,00,62,
534061,00000590,false,Rx,0,8,07,00,1A,00,95,00,29,75,
534308,00000592,false,Rx,0,8,40,EF,05,00,00,00,05,44,
537371,00000291,false,Rx,0,8,00,00,00,00,FE,FA,FA,00,
537619,00000523,false,Rx,0,8,0C,38,36,36,2E,2B,00,00,
537790,000002B0,false,Rx,0,5,59,00,00,00,00,00,00,00,
538045,00000354,false,Rx,0,8,AA,0A,55,05,00,01,00,11,
538292,00000524,false,Rx,0,8,75,01,00,00,00,00,00,00,
538542,00000584,false,Rx,0,8,01,00,00,14,12,20,36,41,
538789,00000220,false,Rx,0,7,13,24,82,00,00,AF,0F,00,
539044,00000153,false,Rx,0,8,20,00,10,F2,00,F2,50,64,
539291,000002A2,false,Rx,0,8,04,00,00,00,00,00,00,00,
539538,00000331,false,Rx,0,8,00,00,00,00,00,00,00,00,
539785,00000386,false,Rx,0,8,00,80,00,C0,00,40,00,80,
541472,0000010C,false,Rx,0,8,04,00,55,54,15,80,01,28,
541942,000004EE,false,Rx,0,8,00,00,00,00,00,00,00,06,
542180,0000057F,false,Rx,0,8,80,0A,66,00,00,00,00,00,
542386,00000581,false,Rx,0,8,00,00,00,00,00,00,00,00,
542586,0000058E,false,Rx,0,8,00,01,00,EF,28,20,00,C0,
542916,00000109,false,Rx,0,8,00,01,FA,00,00,00,00,3D,
543163,00000200,false,Rx,0,8,00,80,49,04,00,FB,3C,00,
544678,00000201,false,Rx,0,8,D1,00,00,00,00,00,00,D1,
544699,00000202,false,Rx,0,8,62,00,20,00,00,00,00,42,
544715,00000491,false,Rx,0,8,18,00,00,00,00,00,00,00,
544731,00000493,false,Rx,0,8,00,0E,FC,11,00,00,2C,01,
544747,000004E2,false,Rx,0,8,AF,00,C3,00,00,00,00,00,
544863,00000542,false,Rx,0,8,A6,2C,01,00,00,00,FF,FF,
545281,00000594,false,Rx,0,8,C7,1C,48,26,C4,9F,00,00,
545530,00000595,false,Rx,0,8,03,00,C2,C3,0A,00,9B,0E,
545777,00000596,false,Rx,0,8,00,92,00,00,18,00,02,03,
546032,00000597,false,Rx,0,8,85,50,00,00,00,00,00,00,
546435,00000598,false,Rx,0,8,00,00,00,00,4D,53,02,02,
546681,00000599,false,Rx,0,8,08,00,00,00,00,00,00,00,
546935,0000059C,false,Rx,0,8,00,00,00,00,00,00,00,00,
547182,0000059E,false,Rx,0,8,00,00,00,00,9B,0E,00,00,
547433,00000291,false,Rx,0,8,00,00,00,00,FE,FA,FA,00,
547605,000002B0,false,Rx,0,5,58,00,00,00,00,00,00,00,
547852,00000354,false,Rx,0,8,AA,0A,55,05,00,01,00,02,
548106,00000523,false,Rx,0,8,0C,38,36,36,2E,2B,00,00,
548353,0000050D,false,Rx,0,8,00,00,00,00,00,00,00,00,
548602,00000524,false,Rx,0,8,75,01,00,00,00,00,00,00,
548849,00000220,false,Rx,0,7,12,E4,81,00,00,AD,0F,00,
549028,00000153,false,Rx,0,8,20,00,10,F2,00,F2,60,74,
549275,000002A2,false,Rx,0,8,05,00,00,00,00,00,00,00,
549524,00000331,false,Rx,0,8,00,00,00,00,00,00,00,00,
549771,00000387,false,Rx,0,8,1B,7A,2C,CE,00,96,07,00,
550026,00000394,false,Rx,0,8,0F,E4,00,00,0F,84,13,83,
550198,00000450,false,Rx,0,3,00,26,04,00,00,00,00,00,
550447,000005A3,false,Rx,0,8,4F,00,00,00,00,00,00,00,
550694,00000462,false,Rx,0,8,E0,2E,A4,16,00,00,00,00,
550948,000005D5,false,Rx,0,8,00,00,00,00,00,00,00,00,
551120,00000471,false,Rx,0,6,04,00,10,00,00,04,00,00,
551367,000005D6,false,Rx,0,8,C2,C3,0A,00,02,03,00,62,
551617,0000010C,false,Rx,0,8,04,00,55,54,15,80,01,39,
551864,000005D7,false,Rx,0,8,02,00,00,00,00,00,00,00,
552119,000005D8,false,Rx,0,8,40,A6,03,00,50,00,9B,0E,
552291,000005F5,false,Rx,0,8,00,1E,00,14,00,C9,59,9A,
552538,000005F6,false,Rx,0,8,00,00,00,00,00,00,1E,00,
552785,000005F7,false,Rx,0,8,00,1E,00,00,00,58,00,00,
553040,00000109,false,Rx,0,8,00,01,FA,00,00,00,00,0A,
553286,00000200,false,Rx,0,8,00,80,49,04,00,3B,3C,00,
553535,00000201,false,Rx,0,8,11,00,00,00,00,00,00,11,
553782,00000202,false,Rx,0,8,02,00,20,00,00,00,00,22,
554037,000005F8,false,Rx,0,8,7D,00,E9,0F,CC,7A,60,74,
554284,000005F9,false,Rx,0,8,86,74,FF,FF,00,00,00,AD,
557345,00000291,false,Rx,0,8,00,00,00,00,FE,FA,FA,00,
557594,00000523,false,Rx,0,8,0C,38,36,36,2E,2B,00,00,
557841,000002B0,false,Rx,0,5,58,00,00,00,00,00,00,00,
558020,00000354,false,Rx,0,8,AA,0A,55,05,00,01,00,F3,
558267,00000524,false,Rx,0,8,75,01,00,00,00,00,00,00,
558832,00000220,false,Rx,0,7,12,04,82,00,00,A9,0F,00,
559087,00000153,false,Rx,0,8,20,00,10,F2,00,F2,70,84,
559334,000002A2,false,Rx,0,8,04,00,00,00,00,00,00,00,
559583,00000331,false,Rx,0,8,00,00,00,00,00,00,00,00,
559829,00000386,false,Rx,0,8,00,C0,00,C0,00,40,00,80,
561452,0000010C,false,Rx,0,8,04,00,55,54,15,80,01,06,
562922,00000109,false,Rx,0,8,00,01,FA,00,00,00,00,1B,
563169,00000200,false,Rx,0,8,00,80,49,04,00,7B,3C,00,
564676,00000201,false,Rx,0,8,51,00,00,00,00,00,00,51,
564696,00000202,false,Rx,0,8,22,00,20,00,00,00,00,02,
567314,000002B0,false,Rx,0,5,59,00,00,00,00,00,00,00,
567494,00000291,false,Rx,0,8,00,00,00,00,FE,FA,FA,00,
567740,00000354,false,Rx,0,8,AA,0A,55,05,00,01,00,E4,
568148,00000523,false,Rx,0,8,0C,38,36,36,2E,2B,00,00,
568395,00000524,false,Rx,0,8,75,01,00,00,00,00,00,00,
568794,00000220,false,Rx,0,7,13,04,82,00,00,AB,0F,00,
569277,00000153,false,Rx,0,8,20,00,10,F2,00,F2,80,94,
569527,000002A2,false,Rx,0,8,05,00,00,00,00,00,00,00,
570038,00000331,false,Rx,0,8,00,00,00,00,00,00,00,00,
570285,00000387,false,Rx,0,8,1B,7A,2C,CE,00,97,08,00,
570535,00000394,false,Rx,0,8,10,04,00,00,10,84,1D,83,
570782,00000414,false,Rx,0,8,00,00,00,00,00,00,00,00,
570960,00000450,false,Rx,0,3,00,26,04,00,00,00,00,00,
571206,00000462,false,Rx,0,8,E0,2E,A4,16,00,00,00,00,
571455,00000471,false,Rx,0,6,04,00,10,00,00,08,00,00,
571702,0000010C,false,Rx,0,8,04,00,55,54,15,80,01,17,
572035,000004FE,false,Rx,0,8,FF,FF,7F,FF,FF,00,FF,FF,
572282,00000541,false,Rx,0,8,03,00,40,00,C0,00,00,0C,
572608,00000553,false,Rx,0,8,04,00,00,00,00,00,80,00,
572855,0000055C,false,Rx,0,8,8D,C0,90,9E,FE,1D,01,00,
573110,00000109,false,Rx,0,8,00,01,FA,00,00,00,00,2C,
573357,00000200,false,Rx,0,8,00,80,49,04,00,BB,3C,00,
573605,00000201,false,Rx,0,8,91,00,00,00,00,00,00,91,
574118,00000202,false,Rx,0,8,42,00,20,00,00,00,00,62,
574365,0000055F,false,Rx,0,8,00,00,00,00,00,00,00,00,
574613,00000561,false,Rx,0,8,00,00,00,00,00,00,00,00,
574860,00000567,false,Rx,0,8,40,10,09,04,01,00,00,00,
575115,00000578,false,Rx,0,6,10,00,00,00,00,00,00,00,
575362,00000588,false,Rx,0,8,A4,49,A4,49,00,00,00,00,
575611,000005B3,false,Rx,0,8,40,14,FE,00,00,00,00,00,
575857,000005DF,false,Rx,0,8,05,1C,01,00,00,00,00,00,
576113,000005EC,false,Rx,0,8,00,00,00,00,00,00,00,00,
577580,00000291,false,Rx,0,8,00,00,00,00,FE,FA,FA,00,
577827,00000354,false,Rx,0,8,AA,0A,55,05,00,01,00,D5,
578007,00000523,false,Rx,0,8,0C,38,36,36,2E,2B,00,00,
578254,000002B0,false,Rx,0,5,59,00,00,00,00,00,00,00,
578503,00000524,false,Rx,0,8,75,01,00,00,00,00,00,00,
578750,00000570,false,Rx,0,8,00,00,4A,00,00,00,00,00,
578928,00000153,false,Rx,0,8,20,00,10,F2,00,F2,90,A4,
579174,00000220,false,Rx,0,7,14,C4,81,00,00,B0,0F,00,
579425,000002A2,false,Rx,0,8,04,00,00,00,00,00,00,00,
579672,00000331,false,Rx,0,8,00,00,00,00,00,00,00,00,
579927,00000386,false,Rx,0,8,00,00,00,00,00,40,00,80,
580099,00000507,false,Rx,0,4,00,00,00,01,00,00,00,00,
580649,00000490,false,Rx,0,7,00,00,08,00,00,00,00,00,
581441,0000010C,false,Rx,0,8,04,00,55,54,15,80,01,28,
583104,00000109,false,Rx,0,8,00,01,FA,00,00,00,00,3D,
583279,00000200,false,Rx,0,8,00,80,49,04,00,FB,3C,00,
584808,00000201,false,Rx,0,8,D1,00,00,00,00,00,00,D1,
584835,00000202,false,Rx,0,8,62,00,20,00,00,00,00,42,
586097,000005E5,false,Rx,0,8,00,00,00,00,00,00,00,00,
586344,000005E6,false,Rx,0,8,00,F0,00,00,00,00,00,00,
586593,000005E8,false,Rx,0,8,00,00,00,00,00,00,00,00,
586840,000005E9,false,Rx,0,8,00,00,00,00,00,00,00,00,
587245,000002B0,false,Rx,0,5,58,00,00,00,00,00,00,00,
587492,00000291,false,Rx,0,8,00,00,00,00,FE,FA,FA,00,
587739,00000354,false,Rx,0,8,AA,0A,55,05,00,01,00,C6,
587997,00000523,false,Rx,0,8,0C,38,36,36,2E,2B,00,00,
588397,00000524,false,Rx,0,8,75,01,00,00,00,00,00,00,
588795,00000220,false,Rx,0,7,15,E4,81,00,00,B0,0F,00,
589050,00000153,false,Rx,0,8,20,00,10,F2,00,F2,A0,B4,
589556,000002A2,false,Rx,0,8,05,00,00,00,00,00,00,00,
589803,00000331,false,Rx,0,8,00,00,00,00,00,00,00,00,
590057,00000387,false,Rx,0,8,1B,7A,2C,CE,00,98,09,00,
590304,00000394,false,Rx,0,8,0F,24,00,00,0F,84,1F,83,
590478,00000450,false,Rx,0,3,00,26,04,00,00,00,00,00,
590725,00000462,false,Rx,0,8,E0,2E,A4,16,00,00,00,00,
590905,00000471,false,Rx,0,6,04,00,10,00,00,4C,00,00,
591377,0000010C,false,Rx,0,8,04,00,55,54,15,80,01,39,
593076,00000109,false,Rx,0,8,00,01,FA,00,00,00,00,0A,
594548,00000200,false,Rx,0,8,00,80,49,04,00,3B,3C,00,
594795,00000201,false,Rx,0,8,11,00,00,00,00,00,00,11,
595050,00000202,false,Rx,0,8,02,00,20,00,00,00,00,22,
597427,00000291,false,Rx,0,8,00,00,00,00,FE,FA,FA,00,
597752,00000354,false,Rx,0,8,AA,0A,55,05,00,01,00,B7,
597932,000002B0,false,Rx,0,5,58,00,00,00,00,00,00,00,
598332,00000523,false,Rx,0,8,0C,38,36,36,2E,2B,00,00,
598582,00000524,false,Rx,0,8,75,01,00,00,00,00,00,00,
598829,00000220,false,Rx,0,7,13,04,82,00,00,B1,0F,00,
599083,00000153,false,Rx,0,8,20,00,10,F2,00,F2,B0,C4,
599330,000002A2,false,Rx,0,8,04,00,00,00,00,00,00,00,
599580,00000331,false,Rx,0,8,00,00,00,00,00,00,00,00,
599827,00000386,false,Rx,0,8,00,40,00,00,00,40,00,80,
601446,0000010C,false,Rx,0,8,04,00,55,54,15,80,01,06,
602916,00000109,false,Rx,0,8,00,01,FA,00,00,00,00,1B,
603162,00000200,false,Rx,0,8,00,80,49,04,00,7B,3C,00,
604744,00000201,false,Rx,0,8,51,00,00,00,00,00,00,51,
604770,00000202,false,Rx,0,8,22,00,20,00,00,00,00,02,
607300,000002B0,false,Rx,0,5,58,00,00,00,00,00,00,00,
607946,00000291,false,Rx,0,8,00,00,00,00,FE,FA,FA,00,
608193,00000354,false,Rx,0,8,AA,0A,55,05,00,01,00,A8,
608440,00000523,false,Rx,0,8,0C,38,36,36,2E,2B,00,00,
608687,00000524,false,Rx,0,8,75,01,00,00,00,00,00,00,
609171,00000153,false,Rx,0,8,20,00,10,F2,00,F2,C0,D4,
609420,00000220,false,Rx,0,7,13,24,82,00,00,B2,0F,00,
609592,00000450,false,Rx,0,3,00,26,04,00,00,00,00,00,
609764,00000220,false,Rx,0,7,13,24,82,00,00,B2,0F,00,
610276,00000462,false,Rx,0,8,E0,2E,A4,16,00,00,00,00,
610525,000002A2,false,Rx,0,8,05,00,00,00,00,00,00,00,
610772,00000471,false,Rx,0,6,04,00,10,00,00,10,00,00,
610951,00000331,false,Rx,0,8,00,00,00,00,00,00,00,00,
611198,00000387,false,Rx,0,8,1B,7A,2C,CE,00,99,0A,00,
611520,00000394,false,Rx,0,8,11,44,00,00,11,84,17,83,
611692,0000010C,false,Rx,0,8,04,00,55,54,15,80,01,17,
612933,00000109,false,Rx,0,8,00,01,FA,00,00,00,00,2C,
613180,00000200,false,Rx,0,8,00,80,49,04,00,BB,3C,00,
613429,00000201,false,Rx,0,8,91,00,00,00,00,00,00,91,
613676,00000202,false,Rx,0,8,42,00,20,00,00,00,00,62,
617734,00000291,false,Rx,0,8,00,00,00,00,FE,FA,FA,00,
617913,000002B0,false,Rx,0,5,59,00,00,00,00,00,00,00,
618160,00000354,false,Rx,0,8,AA,0A,55,05,00,01,00,99,
618408,00000523,false,Rx,0,8,0C,38,36,36,2E,2B,00,00,
618654,00000524,false,Rx,0,8,75,01,00,00,00,00,00,00,
618909,00000153,false,Rx,0,8,20,00,10,F2,00,F2,D0,E4,
619156,00000220,false,Rx,0,7,14,24,82,00,00,B1,0F,00,
619405,000002A2,false,Rx,0,8,04,00,00,00,00,00,00,00,
619652,00000331,false,Rx,0,8,00,00,00,00,00,00,00,00,
619907,00000386,false,Rx,0,8,00,80,00,00,00,40,00,80,
621444,0000010C,false,Rx,0,8,04,00,55,54,15,80,01,28,
623070,00000109,false,Rx,0,8,00,01,FA,00,00,00,00,3D,
623317,00000200,false,Rx,0,8,00,80,49,04,00,FB,3C,00,
624779,00000201,false,Rx,0,8,D1,00,00,00,00,00,00,D1,
624810,00000202,false,Rx,0,8,62,00,20,00,00,00,00,42,
627219,000002B0,false,Rx,0,5,59,00,00,00,00,00,00,00,
627467,00000291,false,Rx,0,8,00,00,00,00,FE,FA,FA,00,
627713,00000354,false,Rx,0,8,AA,0A,55,05,00,01,00,8A,
627971,00000523,false,Rx,0,8,0C,38,36,36,2E,2B,00,00,
628293,00000524,false,Rx,0,8,75,01,00,00,00,00,00,00,
628617,00000450,false,Rx,0,3,00,26,04,00,00,00,00,00,
628864,00000220,false,Rx,0,7,15,24,82,00,00,B1,0F,00,
629043,00000153,false,Rx,0,8,20,00,10,F2,00,F2,E0,F4,
629290,000002A2,false,Rx,0,8,05,00,00,00,00,00,00,00,
629537,00000331,false,Rx,0,8,00,00,00,00,00,00,00,00,
630049,00000387,false,Rx,0,8,1B,7A,2C,CE,00,9A,0B,00,
630296,000002A1,false,Rx,0,8,00,00,00,00,00,00,00,00,
630544,00000394,false,Rx,0,8,11,64,00,00,11,84,15,83,
630791,00000462,false,Rx,0,8,E0,2E,A4,16,00,00,00,00,
631046,00000549,false,Rx,0,8,B0,81,41,64,A2,14,59,6F,
631217,00000471,false,Rx,0,6,04,00,00,00,00,14,00,00,
631465,00000579,false,Rx,0,8,A4,49,A4,49,44,00,00,FE,
631712,0000010C,false,Rx,0,8,04,00,55,54,15,80,01,39,
631884,00000490,false,Rx,0,7,00,00,08,00,00,00,00,00,
632139,0000057A,false,Rx,0,8,8D,C0,90,9E,FE,1D,01,80,
632386,0000057B,false,Rx,0,8,E3,01,00,00,00,50,64,A0,
632636,00000590,false,Rx,0,8,07,00,1B,00,95,00,2A,76,
632883,00000592,false,Rx,0,8,40,EF,05,00,00,00,05,84,
633138,00000109,false,Rx,0,8,00,01,FA,00,00,00,00,0A,
633384,00000200,false,Rx,0,8,00,80,49,04,00,3B,3C,00,
633633,00000201,false,Rx,0,8,11,00,00,00,00,00,00,11,
633880,00000202,false,Rx,0,8,02,00,20,00,00,00,00,22,
637427,00000291,false,Rx,0,8,00,00,00,00,FE,FA,FA,00,
637675,00000354,false,Rx,0,8,AA,0A,55,05,00,01,00,7B,
637847,000002B0,false,Rx,0,5,59,00,00,00,00,00,00,00,
638331,00000584,false,Rx,0,8,01,00,00,14,12,30,41,46,
638580,00000523,false,Rx,0,8,0C,38,36,36,2E,2B,00,00,
638913,00000153,false,Rx,0,8,20,00,10,F2,00,F2,00,14,
639159,00000220,false,Rx,0,7,15,24,82,00,00,AE,0F,00,
639406,000002A2,false,Rx,0,8,04,00,00,00,00,00,00,00,
639653,00000331,false,Rx,0,8,00,00,00,00,00,00,00,00,
639908,00000386,false,Rx,0,8,00,C0,00,00,00,40,00,80,
640154,00000524,false,Rx,0,8,75,01,00,00,00,00,00,00,
641467,0000010C,false,Rx,0,8,04,00,55,54,15,80,01,06,
641714,0000057F,false,Rx,0,8,80,0A,66,00,00,00,00,00,
641969,000004EE,false,Rx,0,8,00,00,00,00,00,00,00,06,
642216,00000581,false,Rx,0,8,00,00,00,00,00,00,00,00,
642464,0000058E,false,Rx,0,8,00,01,00,EF,28,20,00,C0,
642945,00000109,false,Rx,0,8,00,01,FA,00,00,00,00,1B,
643191,00000200,false,Rx,0,8,00,80,49,04,00,7B,3C,00,
644828,00000201,false,Rx,0,8,51,00,00,00,00,00,00,51,
644855,00000202,false,Rx,0,8,22,00,20,00,00,00,00,02,
644872,00000491,false,Rx,0,8,18,00,00,00,00,00,00,00,
644889,00000493,false,Rx,0,8,00,0E,FC,11,00,00,2C,01,
644916,000004E2,false,Rx,0,8,AF,00,C3,00,00,00,00,00,
644934,00000542,false,Rx,0,8,A6,2C,01,00,00,00,FF,FF,
644950,00000594,false,Rx,0,8,C7,1C,48,26,C4,9F,00,00,
645127,00000595,false,Rx,0,8,03,00,C2,C3,0A,00,9B,0E,
645377,00000596,false,Rx,0,8,00,91,00,00,18,00,02,03,
645941,00000597,false,Rx,0,8,05,50,00,00,00,00,00,00,
646127,00000598,false,Rx,0,8,00,00,00,00,4D,53,02,02,
646321,00000599,false,Rx,0,8,08,00,00,00,00,00,00,00,
646569,0000059C,false,Rx,0,8,00,00,00,00,00,00,00,00,
646816,0000059E,false,Rx,0,8,00,00,00,00,9B,0E,00,00,
647070,000005A3,false,Rx,0,8,4F,00,00,00,00,00,00,00,
647241,000002B0,false,Rx,0,5,59,00,00,00,00,00,00,00,
647643,000005D5,false,Rx,0,8,00,00,00,00,00,00,00,00,
647890,00000291,false,Rx,0,8,00,00,00,00,FE,FA,FA,00,
648145,00000354,false,Rx,0,8,AA,0A,55,05,00,01,00,6C,
648391,00000523,false,Rx,0,8,0C,38,36,36,2E,2B,00,00,
648793,00000524,false,Rx,0,8,75,01,00,00,00,00,00,00,
649048,00000153,false,Rx,0,8,20,00,10,F2,00,F2,10,24,
649220,00000220,false,Rx,0,7,13,04,82,00,00,AD,0F,00,
649469,000002A2,false,Rx,0,8,05,00,00,00,00,00,00,00,
649716,00000331,false,Rx,0,8,00,00,00,00,00,00,00,00,
649971,00000387,false,Rx,0,8,1B,7A,2C,CE,00,9B,0C,00,
650217,00000394,false,Rx,0,8,10,84,00,00,10,84,15,83,
650389,00000450,false,Rx,0,3,00,26,04,00,00,00,00,00,
650561,000005D6,false,Rx,0,8,C2,C3,0A,00,02,03,00,B7,
650808,00000462,false,Rx,0,8,E0,2E,A4,16,00,00,00,00,
651062,000005D7,false,Rx,0,8,02,00,00,00,00,00,00,00,
651310,00000471,false,Rx,0,6,04,00,10,00,00,18,00,00,
651558,000005D8,false,Rx,0,8,40,A6,03,00,50,00,9B,0E,
651730,0000010C,false,Rx,0,8,04,00,55,54,15,80,01,17,
651985,000005F5,false,Rx,0,8,00,1E,00,14,01,C9,59,9B,
652232,000005F6,false,Rx,0,8,00,00,00,00,00,00,1E,00,
652481,000005F7,false,Rx,0,8,00,1E,00,00,00,58,00,00,
652728,000005F8,false,Rx,0,8,7D,00,E9,0F,CC,7A,60,74,
652983,00000109,false,Rx,0,8,00,01,FA,00,00,00,00,2C,
653230,00000200,false,Rx,0,8,00,80,49,04,00,BB,3C,00,
653476,00000201,false,Rx,0,8,91,00,00,00,00,00,00,91,
653724,00000202,false,Rx,0,8,42,00,20,00,00,00,00,62,
653978,000005F9,false,Rx,0,8,86,74,FF,FF,00,00,00,AC,
657493,00000291,false,Rx,0,8,00,00,00,00,FE,FA,FA,00,
657740,00000354,false,Rx,0,8,AA,0A,55,05,00,01,00,5D,
657920,00000523,false,Rx,0,8,0C,38,36,36,2E,2B,00,00,
658167,000002B0,false,Rx,0,5,58,00,00,00,00,00,00,00,
658414,00000524,false,Rx,0,8,75,01,00,00,00,00,00,00,
658811,00000220,false,Rx,0,7,11,24,82,00,00,B0,0F,00,
659066,00000153,false,Rx,0,8,20,00,10,F2,00,F2,20,34,
659313,000002A2,false,Rx,0,8,04,00,00,00,00,00,00,00,
659561,00000331,false,Rx,0,8,00,00,00,00,00,00,00,00,
659807,00000386,false,Rx,0,8,00,00,00,40,00,40,00,80,
661427,0000010C,false,Rx,0,8,04,00,55,54,15,80,01,28,
663203,00000109,false,Rx,0,8,00,01,FA,00,00,00,00,3D,
664819,00000200,false,Rx,0,8,00,80,49,04,00,FB,3C,00,
664841,00000201,false,Rx,0,8,D1,00,00,00,00,00,00,D1,
664858,00000202,false,Rx,0,8,62,00,20,00,00,00,00,42,
667273,000002B0,false,Rx,0,5,58,00,00,00,00,00,00,00,
667520,00000291,false,Rx,0,8,00,00,00,00,FE,FA,FA,00,
667768,00000354,false,Rx,0,8,AA,0A,55,05,00,01,00,4E,
667947,00000523,false,Rx,0,8,0C,38,36,36,2E,2B,00,00,
668347,00000524,false,Rx,0,8,75,01,00,00,00,00,00,00,
668821,00000220,false,Rx,0,7,12,44,82,00,00,B0,0F,00,
669077,00000153,false,Rx,0,8,20,00,10,F2,00,F2,30,44,
669583,000002A2,false,Rx,0,8,05,00,00,00,00,00,00,00,
670095,00000331,false,Rx,0,8,00,00,00,00,00,00,00,00,
670422,00000387,false,Rx,0,8,1B,7A,2C,CE,00,9C,0D,00,
670669,00000394,false,Rx,0,8,12,A4,00,00,12,84,1F,83,
670841,00000450,false,Rx,0,3,00,26,04,00,00,00,00,00,
671096,00000462,false,Rx,0,8,E0,2E,A4,16,00,00,00,00,
671268,00000471,false,Rx,0,6,04,00,10,00,00,5C,00,00,
671518,0000010C,false,Rx,0,8,04,00,55,54,15,80,01,39,
671765,00000541,false,Rx,0,8,03,00,40,00,C0,00,00,0C,
672020,0000055C,false,Rx,0,8,8D,C0,90,9E,FE,1D,01,00,
672342,0000055F,false,Rx,0,8,00,00,00,00,00,00,00,00,
672590,00000561,false,Rx,0,8,00,00,00,00,00,00,00,00,
672837,00000567,false,Rx,0,8,40,10,09,05,01,00,00,00,
673093,00000109,false,Rx,0,8,00,01,FA,00,00,00,00,0A,
675281,00000200,false,Rx,0,8,00,80,49,04,00,3B,3C,00,
675530,00000201,false,Rx,0,8,11,00,00,00,00,00,00,11,
675777,00000202,false,Rx,0,8,02,00,20,00,00,00,00,22,
676032,00000578,false,Rx,0,6,10,00,00,00,00,00,00,00,
676354,00000588,false,Rx,0,8,A4,49,A4,49,00,00,00,00,
676601,000005EC,false,Rx,0,8,00,00,00,00,00,00,00,00,
677460,00000291,false,Rx,0,8,00,00,00,00,FE,FA,FA,00,
677708,000002B0,false,Rx,0,5,58,00,00,00,00,00,00,00,
677879,00000354,false,Rx,0,8,AA,0A,55,05,00,01,00,3F,
678134,00000523,false,Rx,0,8,0C,38,36,36,2E,2B,00,00,
678381,00000570,false,Rx,0,8,00,00,4A,00,00,00,00,00,
678784,00000524,false,Rx,0,8,75,01,00,00,00,00,00,00,
678963,00000153,false,Rx,0,8,20,00,10,F2,00,F2,40,54,
679210,00000220,false,Rx,0,7,15,24,82,00,00,AB,0F,00,
679460,000002A2,false,Rx,0,8,04,00,00,00,00,00,00,00,
679707,00000331,false,Rx,0,8,00,00,00,00,00,00,00,00,
679962,00000386,false,Rx,0,8,00,40,00,40,00,40,00,80,
680134,00000507,false,Rx,0,4,00,00,00,01,00,00,00,00,
680683,00000490,false,Rx,0,7,00,00,08,00,00,00,00,00,
681467,0000010C,false,Rx,0,8,04,00,55,54,15,80,01,06,
682935,00000109,false,Rx,0,8,00,01,FA,00,00,00,00,1B,
683182,00000200,false,Rx,0,8,00,80,49,04,00,7B,3C,00,
683429,00000201,false,Rx,0,8,51,00,00,00,00,00,00,51,
684905,00000202,false,Rx,0,8,22,00,20,00,00,00,00,02,
686114,000005E5,false,Rx,0,8,00,00,00,00,00,00,00,00,
686390,000005E6,false,Rx,0,8,00,F0,00,00,00,00,00,00,
686665,000005E8,false,Rx,0,8,00,00,00,00,00,00,00,00,
686891,000005E9,false,Rx,0,8,01,00,00,00,00,00,00,00,
687183,000002B0,false,Rx,0,5,58,00,00,00,00,00,00,00,
687817,00000354,false,Rx,0,8,AA,0A,55,05,00,01,00,20,
688300,00000291,false,Rx,0,8,00,00,00,00,FE,FA,FA,00,
688550,00000523,false,Rx,0,8,0C,38,36,36,2E,2B,00,00,
688796,00000524,false,Rx,0,8,75,01,00,00,00,00,00,00,
689051,00000153,false,Rx,0,8,20,00,10,F2,00,F2,50,64,
689453,00000220,false,Rx,0,7,13,24,82,00,00,AA,0F,00,
689700,000002A2,false,Rx,0,8,05,00,00,00,00,00,00,00,
690135,00000450,false,Rx,0,3,00,26,04,00,00,00,00,00,
690381,00000331,false,Rx,0,8,00,00,00,00,00,00,00,00,
690556,00000462,false,Rx,0,8,E0,2E,A4,16,00,00,00,00,
690803,00000387,false,Rx,0,8,1B,7A,2C,CE,00,9D,0E,00,
691211,00000471,false,Rx,0,6,04,00,10,00,00,20,00,00,
691460,00000394,false,Rx,0,8,11,C4,00,00,11,84,1F,83,
691707,0000010C,false,Rx,0,8,04,00,55,54,15,80,01,17,
692952,00000109,false,Rx,0,8,00,01,FA,00,00,00,00,2C,
693199,00000200,false,Rx,0,8,00,80,49,04,00,BB,3C,00,
693450,00000201,false,Rx,0,8,91,00,00,00,00,00,00,91,
693697,00000202,false,Rx,0,8,42,00,20,00,00,00,00,62,
697521,00000291,false,Rx,0,8,00,00,00,00,FE,FA,FA,00,
697692,000002B0,false,Rx,0,5,59,00,00,00,00,00,00,00,
697947,00000354,false,Rx,0,8,AA,0A,55,05,00,01,00,11,
698118,00000523,false,Rx,0,8,0C,38,36,36,2E,2B,00,00,
698671,00000524,false,Rx,0,8,75,01,00,00,00,00,00,00,
698843,00000153,false,Rx,0,8,20,00,10,F2,00,F2,60,74,
699098,00000220,false,Rx,0,7,10,44,82,00,00,AC,0F,00,
699345,000002A2,false,Rx,0,8,04,00,00,00,00,00,00,00,
699669,00000331,false,Rx,0,8,00,00,00,00,00,00,00,00,
699923,00000386,false,Rx,0,8,00,80,00,40,00,40,00,80,
701464,0000010C,false,Rx,0,8,04,00,55,54,15,80,01,28,
703087,00000109,false,Rx,0,8,00,01,FA,00,00,00,00,3D,
703333,00000200,false,Rx,0,8,00,80,49,04,00,FB,3C,00,
704986,00000201,false,Rx,0,8,D1,00,00,00,00,00,00,D1,
705015,00000202,false,Rx,0,8,62,00,20,00,00,00,00,42,
707187,000002B0,false,Rx,0,5,59,00,00,00,00,00,00,00,
707664,00000354,false,Rx,0,8,AA,0A,55,05,00,01,00,02,
708072,00000291,false,Rx,0,8,00,00,00,00,FE,FA,FA,00,
708319,00000523,false,Rx,0,8,0C,38,36,36,2D,2B,00,00,
708720,00000524,false,Rx,0,8,75,01,00,00,00,00,00,00,
708975,00000153,false,Rx,0,8,20,00,10,F2,00,F2,70,84,
709375,00000220,false,Rx,0,7,11,64,82,00,00,B0,0F,00,
709549,000002A2,false,Rx,0,8,05,00,00,00,00,00,00,00,
709874,00000331,false,Rx,0,8,00,00,00,00,00,00,00,00,
710129,00000450,false,Rx,0,3,00,26,04,00,00,00,00,00,
710301,00000387,false,Rx,0,8,1B,7A,2C,CE,00,8F,00,00,
710549,00000462,false,Rx,0,8,E0,2E,A4,16,00,00,00,00,
710796,00000394,false,Rx,0,8,13,E4,00,00,13,84,19,83,
711051,00000471,false,Rx,0,6,04,00,10,00,00,24,00,00,
711527,0000010C,false,Rx,0,8,04,00,55,54,15,80,01,39,
712922,00000109,false,Rx,0,8,00,01,FA,00,00,00,00,0A,
713169,00000200,false,Rx,0,8,00,80,49,04,00,3B,3C,00,
713418,00000201,false,Rx,0,8,11,00,00,00,00,00,00,11,
713665,00000202,false,Rx,0,8,02,00,20,00,00,00,00,22,
717718,00000354,false,Rx,0,8,AA,0A,55,05,00,01,00,F3,
717973,00000291,false,Rx,0,8,00,00,00,00,FE,FA,FA,00,
718145,000002B0,false,Rx,0,5,59,00,00,00,00,00,00,00,
718316,00000523,false,Rx,0,8,0C,38,36,36,2E,2B,00,00,
718640,00000524,false,Rx,0,8,75,01,00,00,00,00,00,00,
718887,00000220,false,Rx,0,7,12,64,82,00,00,B2,0F,00,
719067,00000153,false,Rx,0,8,20,00,10,F2,00,F2,80,94,
719390,000002A2,false,Rx,0,8,04,00,00,00,00,00,00,00,
719640,00000331,false,Rx,0,8,00,00,00,00,00,00,00,00,
719887,00000386,false,Rx,0,8,00,C0,00,40,00,40,00,80,
721435,0000010C,false,Rx,0,8,04,00,55,54,15,80,01,06,
722979,00000109,false,Rx,0,8,00,01,FA,00,00,00,00,1B,
723226,00000200,false,Rx,0,8,00,80,49,04,00,7B,3C,00,
723398,00000201,false,Rx,0,8,51,00,00,00,00,00,00,51,
724990,00000202,false,Rx,0,8,22,00,20,00,00,00,00,02,
727229,000002B0,false,Rx,0,5,58,00,00,00,00,00,00,00,
727492,00000291,false,Rx,0,8,00,00,00,00,FE,FA,FA,00,
727739,00000354,false,Rx,0,8,AA,0A,55,05,00,01,00,E4,
727993,00000523,false,Rx,0,8,0C,38,36,36,2E,2B,00,00,
728240,00000524,false,Rx,0,8,75,01,00,00,00,00,00,00,
728565,00000450,false,Rx,0,3,00,26,04,00,00,00,00,00,
728812,00000462,false,Rx,0,8,E0,2E,A4,16,00,00,00,00,
729067,00000153,false,Rx,0,8,20,00,10,F2,00,F2,90,A4,
729314,00000220,false,Rx,0,7,11,44,82,00,00,B1,0F,00,
729565,000002A2,false,Rx,0,8,05,00,00,00,00,00,00,00,
729811,00000331,false,Rx,0,8,00,00,00,00,00,00,00,00,
729991,000002A1,false,Rx,0,8,00,00,00,00,00,00,00,00,
730238,00000387,false,Rx,0,8,1B,7A,2C,CE,00,90,01,00,
730486,00000394,false,Rx,0,8,12,04,00,00,12,84,19,83,
730733,00000471,false,Rx,0,6,04,00,00,00,00,28,00,00,
730988,00000540,false,Rx,0,8,C6,30,09,00,F5,00,00,00,
731159,00000490,false,Rx,0,7,00,00,08,00,00,00,00,00,
731560,0000010C,false,Rx,0,8,04,00,55,54,15,80,01,17,
733038,00000109,false,Rx,0,8,00,01,FA,00,00,00,00,2C,
733285,00000200,false,Rx,0,8,00,80,49,04,00,BB,3C,00,
733536,00000201,false,Rx,0,8,91,00,00,00,00,00,00,91,
733782,00000202,false,Rx,0,8,42,00,20,00,00,00,00,62,
734037,00000549,false,Rx,0,8,B0,81,41,64,A2,14,59,6F,
734284,00000579,false,Rx,0,8,A4,49,A4,49,44,00,00,FE,
734533,0000057A,false,Rx,0,8,8D,C0,90,9E,FE,1D,01,80,
734780,0000057B,false,Rx,0,8,E3,01,00,00,00,50,64,A0,
735035,00000590,false,Rx,0,8,07,00,1C,00,95,00,2D,76,
735282,00000592,false,Rx,0,8,40,EF,05,00,00,00,05,C4,
737510,00000291,false,Rx,0,8,00,00,00,00,FE,FA,FA,00,
737681,000002B0,false,Rx,0,5,58,00,00,00,00,00,00,00,
737935,00000354,false,Rx,0,8,AA,0A,55,05,00,01,00,D5,
738182,00000523,false,Rx,0,8,0C,38,36,36,2E,2B,00,00,
738432,00000584,false,Rx,0,8,01,00,00,14,12,40,42,33,
738680,00000524,false,Rx,0,8,75,01,00,00,00,00,00,00,
738934,00000153,false,Rx,0,8,20,00,10,F2,00,F2,A0,B4,
739106,00000220,false,Rx,0,7,11,44,82,00,00,AF,0F,00,
739353,000002A2,false,Rx,0,8,04,00,00,00,00,00,00,00,
739602,00000331,false,Rx,0,8,00,00,00,00,00,00,00,00,
739849,00000386,false,Rx,0,8,00,00,00,80,00,40,00,80,
741469,0000010C,false,Rx,0,8,04,00,55,54,15,80,01,28,
741958,000004EE,false,Rx,0,8,00,00,00,00,00,00,00,06,
742205,0000057F,false,Rx,0,8,80,0A,66,00,00,00,00,00,
742455,00000581,false,Rx,0,8,00,00,00,00,00,00,00,00,
742814,0000058E,false,Rx,0,8,00,01,00,EF,28,20,00,C0,
742918,00000109,false,Rx,0,8,00,01,FA,00,00,00,00,3D,
743241,00000200,false,Rx,0,8,00,80,49,04,00,FB,3C,00,
743489,00000201,false,Rx,0,8,D1,00,00,00,00,00,00,D1,
745080,00000202,false,Rx,0,8,62,00,20,00,00,00,00,42,
745102,00000594,false,Rx,0,8,C7,1C,48,26,C4,9F,00,00,
745119,00000491,false,Rx,0,8,18,00,00,00,00,00,00,00,
745136,00000493,false,Rx,0,8,00,0E,FC,11,00,00,2C,01,
745154,000004E2,false,Rx,0,8,AF,00,C3,00,00,00,00,00,
745174,00000542,false,Rx,0,8,A6,2C,01,00,00,00,FF,FF,
745283,00000595,false,Rx,0,8,03,00,C2,C3,0A,00,9B,0E,
745533,00000596,false,Rx,0,8,00,92,00,00,18,00,02,03,
745779,00000597,false,Rx,0,8,85,50,00,00,00,00,00,00,
746033,00000598,false,Rx,0,8,00,00,00,00,4D,53,02,02,
746280,00000599,false,Rx,0,8,08,00,00,00,00,00,00,00,
746530,0000059C,false,Rx,0,8,00,00,00,00,00,00,00,00,
746777,0000059E,false,Rx,0,8,00,00,00,00,9B,0E,00,00,
747033,000005A3,false,Rx,0,8,4F,00,00,00,00,00,00,00,
747204,000002B0,false,Rx,0,5,58,00,00,00,00,00,00,00,
747451,000005D5,false,Rx,0,8,00,00,00,00,00,00,00,00,
747852,00000354,false,Rx,0,8,AA,0A,55,05,00,01,00,C6,
748107,00000291,false,Rx,0,8,00,00,00,00,FE,FA,FA,00,
748354,0000050D,false,Rx,0,8,00,00,00,00,00,00,00,00,
748602,00000523,false,Rx,0,8,0C,38,36,36,2E,2B,00,00,
749010,00000153,false,Rx,0,8,20,00,10,F2,00,F2,B0,C4,
749182,00000220,false,Rx,0,7,11,24,82,00,00,AF,0F,00,
749432,000002A2,false,Rx,0,8,05,00,00,00,00,00,00,00,
749679,00000331,false,Rx,0,8,00,00,00,00,00,00,00,00,
749932,00000387,false,Rx,0,8,1B,7A,2C,CE,00,91,02,00,
750180,00000394,false,Rx,0,8,11,24,00,00,11,84,19,83,
750351,00000450,false,Rx,0,3,00,26,04,00,00,00,00,00,
750860,00000462,false,Rx,0,8,E0,2E,A4,16,00,00,00,00,
751115,00000471,false,Rx,0,6,04,00,10,00,00,6C,00,00,
751622,0000010C,false,Rx,0,8,04,00,55,54,15,80,01,39,
752106,000005D6,false,Rx,0,8,C2,C3,0A,00,02,03,00,B7,
752353,00000524,false,Rx,0,8,75,01,00,00,00,00,00,00,
752602,000005D7,false,Rx,0,8,02,00,00,00,00,00,00,00,
752849,000005D8,false,Rx,0,8,40,A6,03,00,50,00,9B,0E,
753104,00000109,false,Rx,0,8,00,01,FA,00,00,00,00,0A,
753351,000005F5,false,Rx,0,8,00,1E,00,14,02,C9,59,98,
753600,00000200,false,Rx,0,8,00,80,49,04,00,3B,3C,00,
753847,000005F6,false,Rx,0,8,00,00,00,00,00,00,1E,00,
754027,00000201,false,Rx,0,8,11,00,00,00,00,00,00,11,
754274,000005F7,false,Rx,0,8,00,1E,00,00,00,58,00,00,
754521,00000202,false,Rx,0,8,02,00,20,00,00,00,00,22,
754768,000005F8,false,Rx,0,8,7D,00,E9,0F,CC,7A,60,74,
755022,000005F9,false,Rx,0,8,86,74,FF,FF,00,00,00,AD,
757549,00000291,false,Rx,0,8,00,00,00,00,FE,FA,FA,00,
757721,000002B0,false,Rx,0,5,59,00,00,00,00,00,00,00,
757976,00000354,false,Rx,0,8,AA,0A,55,05,00,01,00,B7,
758223,00000523,false,Rx,0,8,0C,38,36,36,2E,2B,00,00,
758472,00000524,false,Rx,0,8,75,01,00,00,00,00,00,00,
758869,00000220,false,Rx,0,7,12,04,82,00,00,AF,0F,00,
759124,00000153,false,Rx,0,8,20,00,10,F2,00,F2,C0,D4,
759371,000002A2,false,Rx,0,8,04,00,00,00,00,00,00,00,
759620,00000331,false,Rx,0,8,00,00,00,00,00,00,00,00,
759791,00000386,false,Rx,0,8,00,40,00,80,00,40,00,80,
761411,0000010C,false,Rx,0,8,04,00,55,54,15,80,01,06,
762953,00000109,false,Rx,0,8,00,01,FA,00,00,00,00,1B,
763200,00000200,false,Rx,0,8,00,80,49,04,00,7B,3C,00,
763450,00000201,false,Rx,0,8,51,00,00,00,00,00,00,51,
765036,00000202,false,Rx,0,8,22,00,20,00,00,00,00,02,
767228,000002B0,false,Rx,0,5,58,00,00,00,00,00,00,00,
767714,00000354,false,Rx,0,8,AA,0A,55,05,00,01,00,A8,
767969,00000291,false,Rx,0,8,00,00,00,00,FE,FA,FA,00,
768216,00000523,false,Rx,0,8,0C,38,36,36,2E,2B,00,00,
768845,00000220,false,Rx,0,7,12,44,82,00,00,AF,0F,00,
769328,00000153,false,Rx,0,8,20,00,10,F2,00,F2,D0,E4,
769578,000002A2,false,Rx,0,8,05,00,00,00,00,00,00,00,
770091,00000331,false,Rx,0,8,00,00,00,00,00,00,00,00,
770338,00000387,false,Rx,0,8,1B,7A,2C,CE,00,92,03,00,
770817,00000394,false,Rx,0,8,12,44,00,00,12,84,15,83,
771071,00000414,false,Rx,0,8,00,00,00,00,00,00,00,00,
771243,00000450,false,Rx,0,3,00,26,04,00,00,00,00,00,
771492,00000462,false,Rx,0,8,E0,2E,A4,16,00,00,00,00,
771740,0000010C,false,Rx,0,8,04,00,55,54,15,80,01,17,
771919,00000471,false,Rx,0,6,04,00,10,00,00,70,00,00,
772242,000004FE,false,Rx,0,8,FF,FF,7F,FF,FF,00,FF,FF,
772490,00000541,false,Rx,0,8,03,00,40,00,C0,00,00,0C,
772737,00000553,false,Rx,0,8,04,00,00,00,00,00,80,00,
773145,0000055C,false,Rx,0,8,8D,C0,90,9E,FE,1D,01,00,
773472,0000055F,false,Rx,0,8,00,00,00,00,00,00,00,00,
773719,00000109,false,Rx,0,8,00,01,FA,00,00,00,00,2C,
773974,00000561,false,Rx,0,8,00,00,00,00,00,00,00,00,
774221,00000200,false,Rx,0,8,00,80,49,04,00,BB,3C,00,
774469,00000567,false,Rx,0,8,40,10,09,05,01,00,00,00,
774716,00000201,false,Rx,0,8,91,00,00,00,00,00,00,91,
774971,00000578,false,Rx,0,6,10,00,00,00,00,00,00,00,
775218,00000202,false,Rx,0,8,42,00,20,00,00,00,00,62,
775389,00000588,false,Rx,0,8,A4,49,A4,49,00,00,00,00,
775640,000005B3,false,Rx,0,8,40,14,FE,00,00,00,00,00,
775970,000005DF,false,Rx,0,8,05,1C,01,00,00,00,00,00,
776217,000005EC,false,Rx,0,8,00,00,00,00,00,00,00,00,
777681,00000354,false,Rx,0,8,AA,0A,55,05,00,01,00,99,
777936,000002B0,false,Rx,0,5,58,00,00,00,00,00,00,00,
778107,00000570,false,Rx,0,8,00,00,4A,00,00,00,00,00,
778808,00000291,false,Rx,0,8,00,00,00,00,FE,FA,FA,00,
779063,00000153,false,Rx,0,8,20,00,10,F2,00,F2,E0,F4,
779462,00000523,false,Rx,0,8,0C,38,36,36,2E,2B,00,00,
779946,00000524,false,Rx,0,8,75,01,00,00,00,00,00,00,
780193,00000220,false,Rx,0,7,12,64,82,00,00,B1,0F,00,
780440,000002A2,false,Rx,0,8,04,00,00,00,00,00,00,00,
780687,00000331,false,Rx,0,8,00,00,00,00,00,00,00,00,
780942,00000490,false,Rx,0,7,00,00,08,00,00,00,00,00,
781189,00000386,false,Rx,0,8,00,80,00,80,00,40,00,80,
781361,00000507,false,Rx,0,4,00,00,00,01,00,00,00,00,
781611,0000010C,false,Rx,0,8,04,00,55,54,15,80,01,28,
782928,00000109,false,Rx,0,8,00,01,FA,00,00,00,00,3D,
783405,00000200,false,Rx,0,8,00,80,49,04,00,FB,3C,00,
783652,00000201,false,Rx,0,8,D1,00,00,00,00,00,00,D1,
785174,00000202,false,Rx,0,8,62,00,20,00,00,00,00,42,
786139,000005E5,false,Rx,0,8,00,00,00,00,00,00,00,00,
786386,000005E6,false,Rx,0,8,00,F0,00,00,00,00,00,00,
786640,000005E8,false,Rx,0,8,00,00,00,00,00,00,00,00,
786869,000005E9,false,Rx,0,8,00,00,00,00,00,00,00,00,
787207,000002B0,false,Rx,0,5,59,00,00,00,00,00,00,00,
787607,00000291,false,Rx,0,8,00,00,00,00,FE,FA,FA,00,
787779,00000354,false,Rx,0,8,AA,0A,55,05,00,01,00,8A,
788035,00000523,false,Rx,0,8,0C,38,36,36,2E,2B,00,00,
788359,00000524,false,Rx,0,8,75,01,00,00,00,00,00,00,
788778,00000450,false,Rx,0,3,00,26,04,00,00,00,00,00,
789033,00000153,false,Rx,0,8,20,00,10,F2,00,F2,00,14,
789205,00000462,false,Rx,0,8,E0,2E,A4,16,00,00,00,00,
789452,00000220,false,Rx,0,7,12,44,82,00,00,B3,0F,00,
789623,00000471,false,Rx,0,6,04,00,10,00,00,74,00,00,
789870,000002A2,false,Rx,0,8,05,00,00,00,00,00,00,00,
790200,00000331,false,Rx,0,8,00,00,00,00,00,00,00,00,
790450,00000387,false,Rx,0,8,1B,7A,2C,CE,00,93,04,00,
790621,00000394,false,Rx,0,8,12,64,00,00,12,84,13,83,
791480,0000010C,false,Rx,0,8,04,00,55,54,15,80,01,39,
792949,00000109,false,Rx,0,8,00,01,FA,00,00,00,00,0A,
793195,00000200,false,Rx,0,8,00,80,49,04,00,3B,3C,00,
793445,00000201,false,Rx,0,8,11,00,00,00,00,00,00,11,
793692,00000202,false,Rx,0,8,02,00,20,00,00,00,00,22,
797904,00000291,false,Rx,0,8,00,00,00,00,FE,FA,FA,00,
798075,000002B0,false,Rx,0,5,59,00,00,00,00,00,00,00,
798322,00000354,false,Rx,0,8,AA,0A,55,05,00,01,00,7B,
798570,00000523,false,Rx,0,8,0C,38,36,36,2E,2B,00,00,
798817,00000524,false,Rx,0,8,75,01,00,00,00,00,00,00,
799072,00000153,false,Rx,0,8,20,00,10,F2,00,F2,10,24,
799319,00000220,false,Rx,0,7,12,04,82,00,00,B2,0F,00,
799568,000002A2,false,Rx,0,8,04,00,00,00,00,00,00,00,
799815,00000331,false,Rx,0,8,00,00,00,00,00,00,00,00,
799995,00000386,false,Rx,0,8,00,C0,00,80,00,40,00,80,
801457,0000010C,false,Rx,0,8,04,00,55,54,15,80,01,06,
802925,00000109,false,Rx,0,8,00,01,FA,00,00,00,00,1B,
803172,00000200,false,Rx,0,8,00,80,49,04,00,7B,3C,00,
803494,00000201,false,Rx,0,8,51,00,00,00,00,00,00,51,
803741,00000202,false,Rx,0,8,22,00,20,00,00,00,00,02,
807245,000002B0,false,Rx,0,5,58,00,00,00,00,00,00,00,
807589,00000291,false,Rx,0,8,00,00,00,00,FE,FA,FA,00,
807835,00000354,false,Rx,0,8,AA,0A,55,05,00,01,00,6C,
808093,00000523,false,Rx,0,8,0C,38,36,36,2E,2B,00,00,
808419,00000524,false,Rx,0,8,75,01,00,00,00,00,00,00,
808771,00000450,false,Rx,0,3,00,26,04,00,00,00,00,00,
808950,00000153,false,Rx,0,8,20,00,10,F2,00,F2,20,34,
809197,00000220,false,Rx,0,7,12,24,82,00,00,AE,0F,00,
809445,000002A2,false,Rx,0,8,05,00,00,00,00,00,00,00,
809692,00000331,false,Rx,0,8,00,00,00,00,00,00,00,00,
809947,00000387,false,Rx,0,8,1B,7A,2C,CE,00,94,05,00,
810455,00000394,false,Rx,0,8,11,84,00,00,11,84,13,83,
810627,00000462,false,Rx,0,8,E0,2E,A4,16,00,00,00,00,
810874,00000471,false,Rx,0,6,04,00,10,00,00,78,00,00,
811507,0000010C,false,Rx,0,8,04,00,55,54,15,80,01,17,
813128,00000109,false,Rx,0,8,00,01,FA,00,00,00,00,2C,
813375,00000200,false,Rx,0,8,00,80,49,04,00,BB,3C,00,
813624,00000201,false,Rx,0,8,91,00,00,00,00,00,00,91,
813871,00000202,false,Rx,0,8,42,00,20,00,00,00,00,62,
817620,00000291,false,Rx,0,8,00,00,00,00,FE,FA,FA,00,
817792,000002B0,false,Rx,0,5,58,00,00,00,00,00,00,00,
818047,00000354,false,Rx,0,8,AA,0A,55,05,00,01,00,5D,
818219,00000523,false,Rx,0,8,0C,38,36,36,2E,2B,00,00,
818469,00000524,false,Rx,0,8,75,01,00,00,00,00,00,00,
818867,00000220,false,Rx,0,7,14,24,82,00,00,AB,0F,00,
819121,00000153,false,Rx,0,8,20,00,10,F2,00,F2,30,44,
819368,000002A2,false,Rx,0,8,04,00,00,00,00,00,00,00,
819617,00000331,false,Rx,0,8,00,00,00,00,00,00,00,00,
819864,00000386,false,Rx,0,8,00,00,00,C0,00,40,00,80,
821411,0000010C,false,Rx,0,8,04,00,55,54,15,80,01,28,
822952,00000109,false,Rx,0,8,00,01,FA,00,00,00,00,3D,
823198,00000200,false,Rx,0,8,00,80,49,04,00,FB,3C,00,
825272,00000201,false,Rx,0,8,D1,00,00,00,00,00,00,D1,
825297,00000202,false,Rx,0,8,62,00,20,00,00,00,00,42,
827163,000002B0,false,Rx,0,5,58,00,00,00,00,00,00,00,
827793,00000291,false,Rx,0,8,00,00,00,00,FE,FA,FA,00,
827973,00000354,false,Rx,0,8,AA,0A,55,05,00,01,00,4E,
828219,00000523,false,Rx,0,8,0C,38,36,36,2E,2B,00,00,
828469,00000524,false,Rx,0,8,75,01,00,00,00,00,00,00,
828641,00000450,false,Rx,0,3,00,26,04,00,00,00,00,00,
828888,00000220,false,Rx,0,7,16,24,82,00,00,AB,0F,00,
829067,00000153,false,Rx,0,8,20,00,10,F2,00,F2,40,54,
829620,000002A2,false,Rx,0,8,05,00,00,00,00,00,00,00,
830103,000002A1,false,Rx,0,8,00,00,00,00,00,00,00,00,
830610,00000462,false,Rx,0,8,E0,2E,A4,16,00,00,00,00,
830857,00000331,false,Rx,0,8,00,00,00,00,00,00,00,00,
831037,00000471,false,Rx,0,6,00,00,00,00,00,BC,00,00,
831284,00000387,false,Rx,0,8,1B,7A,2C,CE,00,95,06,00,
831532,0000010C,false,Rx,0,8,04,00,55,54,15,80,01,39,
832014,00000490,false,Rx,0,7,00,00,08,00,00,00,00,00,
832261,00000394,false,Rx,0,8,11,A4,00,00,11,84,11,83,
832434,00000549,false,Rx,0,8,B0,81,41,64,A2,14,59,6F,
832681,00000579,false,Rx,0,8,A4,49,A4,49,44,00,00,FE,
832935,0000057A,false,Rx,0,8,8D,C0,90,9E,FE,1D,01,80,
833258,00000109,false,Rx,0,8,00,01,FA,00,00,00,00,0A,
833507,00000200,false,Rx,0,8,00,80,49,04,00,3B,3C,00,
833755,00000201,false,Rx,0,8,11,00,00,00,00,00,00,11,
834010,00000202,false,Rx,0,8,02,00,20,00,00,00,00,22,
834257,0000057B,false,Rx,0,8,E3,01,00,00,00,50,64,A0,
834507,00000590,false,Rx,0,8,07,00,1C,00,95,00,2D,75,
834754,00000592,false,Rx,0,8,40,EF,05,00,00,00,05,04,
837980,00000291,false,Rx,0,8,00,00,00,00,FE,FA,FA,00,
838152,000002B0,false,Rx,0,5,58,00,00,00,00,00,00,00,
838398,00000354,false,Rx,0,8,AA,0A,55,05,00,01,00,3F,
838645,00000523,false,Rx,0,8,0C,38,36,36,2E,2B,00,00,
838892,00000524,false,Rx,0,8,75,01,00,00,00,00,00,00,
839072,00000153,false,Rx,0,8,20,00,10,F2,00,F2,50,64,
839318,00000584,false,Rx,0,8,01,00,00,14,12,50,30,30,
839568,00000220,false,Rx,0,7,14,24,82,00,00,AE,0F,00,
839814,000002A2,false,Rx,0,8,04,00,00,00,00,00,00,00,
840069,00000331,false,Rx,0,8,00,00,00,00,00,00,00,00,
840316,00000386,false,Rx,0,8,00,40,00,C0,00,40,00,80,
841478,0000010C,false,Rx,0,8,04,00,55,54,15,80,01,06,
841725,0000057F,false,Rx,0,8,80,0A,66,00,00,00,00,00,
842208,000004EE,false,Rx,0,8,00,00,00,00,00,00,00,06,
842456,00000581,false,Rx,0,8,00,00,00,00,00,00,00,00,
842706,0000058E,false,Rx,0,8,00,01,00,EF,28,20,00,C0,
842961,00000109,false,Rx,0,8,00,01,FA,00,00,00,00,1B,
843283,00000200,false,Rx,0,8,00,80,49,04,00,7B,3C,00,
843532,00000201,false,Rx,0,8,51,00,00,00,00,00,00,51,
843779,00000202,false,Rx,0,8,22,00,20,00,00,00,00,02,
845289,00000491,false,Rx,0,8,18,00,00,00,00,00,00,00,
845313,00000493,false,Rx,0,8,00,0E,FC,11,00,00,2C,01,
845329,000004E2,false,Rx,0,8,AF,00,C3,00,00,00,00,00,
845345,00000542,false,Rx,0,8,A6,2C,01,00,00,00,FF,FF,
845361,00000594,false,Rx,0,8,C7,1C,48,26,C4,9F,00,00,
845469,00000595,false,Rx,0,8,03,00,C2,C3,09,00,9B,0E,
845729,00000596,false,Rx,0,8,00,92,00,00,18,00,02,03,
845994,00000597,false,Rx,0,8,05,50,00,00,00,00,00,00,
846199,00000598,false,Rx,0,8,00,00,00,00,4D,53,02,02,
846694,00000599,false,Rx,0,8,08,00,00,00,00,00,00,00,
846951,0000059C,false,Rx,0,8,00,00,00,00,00,00,00,00,
847198,0000059E,false,Rx,0,8,00,00,00,00,9B,0E,00,00,
847370,000002B0,false,Rx,0,5,58,00,00,00,00,00,00,00,
847619,00000291,false,Rx,0,8,00,00,00,00,FE,FA,FA,00,
847866,00000354,false,Rx,0,8,AA,0A,55,05,00,01,00,20,
848120,00000523,false,Rx,0,8,0C,38,36,36,2E,2B,00,00,
848367,00000524,false,Rx,0,8,75,01,00,00,00,00,00,00,
848617,000005A3,false,Rx,0,8,4F,00,00,00,00,00,00,00,
848865,000005D5,false,Rx,0,8,00,00,00,00,00,00,00,00,
849044,00000153,false,Rx,0,8,20,00,10,F2,00,F2,60,74,
849216,00000450,false,Rx,0,3,00,26,04,00,00,00,00,00,
849464,00000220,false,Rx,0,7,12,04,82,00,00,AE,0F,00,
849711,00000462,false,Rx,0,8,E0,2E,A4,16,00,00,00,00,
849965,000002A2,false,Rx,0,8,05,00,00,00,00,00,00,00,
850137,00000471,false,Rx,0,6,04,00,10,00,00,00,00,00,
850383,00000331,false,Rx,0,8,00,00,00,00,00,00,00,00,
850634,000005D6,false,Rx,0,8,C2,C3,09,00,02,03,00,62,
850881,00000387,false,Rx,0,8,1B,7A,2C,CE,00,96,07,00,
851061,000005D7,false,Rx,0,8,02,00,00,00,00,00,00,00,
851308,00000394,false,Rx,0,8,10,C4,00,00,10,84,11,83,
851558,0000010C,false,Rx,0,8,04,00,55,54,15,80,01,17,
851805,000005D8,false,Rx,0,8,40,A6,03,00,50,00,9B,0E,
852060,000005F5,false,Rx,0,8,00,1E,00,14,03,C9,59,99,
852307,000005F6,false,Rx,0,8,00,00,00,00,00,00,1E,00,
852556,000005F7,false,Rx,0,8,00,1E,00,00,00,58,00,00,
852803,000005F8,false,Rx,0,8,7D,00,E9,0F,CC,7A,60,74,
852982,00000109,false,Rx,0,8,00,01,FA,00,00,00,00,2C,
853230,000005F9,false,Rx,0,8,86,74,FF,FF,00,00,00,AD,
853478,00000200,false,Rx,0,8,00,80,49,04,00,BB,3C,00,
853725,00000201,false,Rx,0,8,91,00,00,00,00,00,00,91,
854056,00000202,false,Rx,0,8,42,00,20,00,00,00,00,62,
857645,00000291,false,Rx,0,8,00,00,00,00,FE,FA,FA,00,
857816,000002B0,false,Rx,0,5,58,00,00,00,00,00,00,00,
858071,00000354,false,Rx,0,8,AA,0A,55,05,00,01,00,11,
858395,00000523,false,Rx,0,8,0C,38,36,36,2E,2B,00,00,
858721,00000524,false,Rx,0,8,75,01,00,00,00,00,00,00,
858976,00000153,false,Rx,0,8,20,00,10,F2,00,F2,70,84,
859223,00000220,false,Rx,0,7,12,04,82,00,00,AE,0F,00,
